(1746131801.180560) can0 1CFF1906#419F010B00000000
(1746131801.180561) can0 09F80203#E4FFFFFFFFFFFFFF
(1746131801.181674) can0 09FD0205#FFFFFFFFFFFBFFFF
(1746131801.181674) can0 0DFE1105#200EFFFFFFFFFFFF
(1746131801.182836) can0 0DFE1105#21FFFFFFFFFFFFFF
(1746131801.182836) can0 0DFE1105#22FFFFFFFFFFFFFF
(1746131801.198197) can0 09F10D07#FF07FF7F52E1FFFF
(1746131801.198198) can0 09F10D00#FF07FF7F0000FFFF
(1746131801.205346) can0 08FF0005#1399040500000200
(1746131801.230142) can0 09F80103#FFFFFF7FFFFFFF7F
(1746131801.296915) can0 18FF3D01#419FFFFF02FFFFFF
(1746131801.296917) can0 09F10501#E0153038FFFF7FFF
(1746131801.298104) can0 09F10501#E1FFFFFF0B11FFFF
(1746131801.298105) can0 09F10501#E2FF7FFF7FFF7FFF
(1746131801.299242) can0 09F10501#E3FFFFFFFFFFFFFF
(1746131801.299243) can0 09F10D07#FF07FF7F52E1FFFF
(1746131801.300385) can0 09F10D00#FF07FF7F0000FFFF
(1746131801.323902) can0 04FF1901#419F640202010000
(1746131801.329249) can0 09F80103#FFFFFF7FFFFFFF7F
(1746131801.329250) can0 09FD0205#FFFFFFFFFFF8FFFF
(1746131801.348368) can0 09F10D01#FF000000FF7FFFFF
(1746131801.430964) can0 09F80203#E4FFFFFFFFFFFFFF
(1746131801.448772) can0 09F10D07#FF07FF7F52E1FFFF
(1746131801.448773) can0 09F10D00#FF07FF7F0000FFFF
(1746131801.455639) can0 08FF0005#1399040500000200
(1746131801.480587) can0 09F80103#FFFFFF7FFFFFFF7F
(1746131801.480589) can0 09FD0205#FFFFFFFFFFFBFFFF
(1746131801.497989) can0 18FF3D01#419FFFFF02FFFFFF
(1746131801.497991) can0 09F10501#00153038FFFF7FFF
(1746131801.499122) can0 09F10501#01FFFFFF0B11FFFF
(1746131801.499123) can0 09F10501#02FF7FFF7FFF7FFF
(1746131801.500281) can0 09F10501#03FFFFFFFFFFFFFF
(1746131801.548470) can0 09F10D07#FF07FF7F52E1FFFF
(1746131801.548472) can0 09F10D00#FF07FF7F0000FFFF
(1746131801.549627) can0 09F10D01#FF000000FF7FFFFF
(1746131801.579661) can0 09F80103#FFFFFF7FFFFFFF7F
(1746131801.623249) can0 04FF1901#419F640A08000000
(1746131801.629195) can0 09FD0205#FFFFFFFFFFF8FFFF
(1746131801.678666) can0 1CFF1906#419F010300000000
(1746131801.678668) can0 09F80103#FFFFFF7FFFFFFF7F
(1746131801.679773) can0 09F80203#E4FFFFFFFFFFFFFF
(1746131801.698194) can0 18FF3D01#419FFFFF02FFFFFF
(1746131801.698196) can0 09F10501#20153038FFFF7FFF
(1746131801.699343) can0 09F10501#21FFFFFF0B11FFFF
(1746131801.699344) can0 09F10501#22FF7FFF7FFF7FFF
(1746131801.700502) can0 09F10501#23FFFFFFFFFFFFFF
(1746131801.700504) can0 09F10D07#FF07FF7F52E1FFFF
(1746131801.701653) can0 09F10D00#FF07FF7F0000FFFF
(1746131801.706342) can0 08FF0005#1399040500000200
(1746131801.780575) can0 09F80103#FFFFFF7FFFFFFF7F
(1746131801.780576) can0 09FD0205#FFFFFFFFFFFBFFFF
(1746131801.798975) can0 09F10D07#FF07FF7F52E1FFFF
(1746131801.798976) can0 09F10D00#FF07FF7F0000FFFF
(1746131801.800076) can0 09F10D01#FF000000FF7FFFFF
(1746131801.879650) can0 09F80103#FFFFFF7FFFFFFF7F
(1746131801.898336) can0 18FF3D01#419FFFFF02FFFFFF
(1746131801.898337) can0 09F10501#40153038FFFF7FFF
(1746131801.899514) can0 09F10501#41FFFFFF0B11FFFF
(1746131801.899515) can0 09F10501#42FF7FFF7FFF7FFF
(1746131801.900594) can0 09F10501#43FFFFFFFFFFFFFF
(1746131801.900594) can0 09F10D07#FF07FF7F52E1FFFF
(1746131801.901736) can0 09F10D00#FF07FF7F0000FFFF
(1746131801.929269) can0 09F80203#E4FFFFFFFFFFFFFF
(1746131801.929270) can0 09FD0205#FFFFFFFFFFF8FFFF
(1746131801.953987) can0 08FF0005#1399040500000200
(1746131801.978721) can0 09F80103#FFFFFF7FFFFFFF7F
(1746131801.997901) can0 09F10D01#FF000000FF7FFFFF
(1746131801.997903) can0 1DFF2C01#2017419F00000000
(1746131801.999030) can0 1DFF2C01#2100FFFFFF7FFFFF
(1746131801.999031) can0 1DFF2C01#22FFFFFFFFFF7FFF
(1746131802.000196) can0 1DFF2C01#23FFFFFFFFFFFFFF
(1746131802.031106) can0 0DF01003#E4F0FFFFFFFFFFFF
(1746131802.031107) can0 1DF11A03#E5FFFFFF2FFDFFFF
(1746131802.032299) can0 1DF11A04#E3FFFFFF2FFDFFFF
(1746131802.032300) can0 0DF80503#802BE5FFFFFFFFFF
(1746131802.033463) can0 0DF80503#81FFFFFFFFFFFFFF
(1746131802.033464) can0 0DF80503#82FF7FFFFFFFFFFF
(1746131802.034644) can0 0DF80503#83FFFF7FFFFFFFFF
(1746131802.034646) can0 0DF80503#84FFFFFF7F00FCFF
(1746131802.035774) can0 0DF80503#85FF7FFF7FFFFFFF
(1746131802.035775) can0 0DF80503#867FFFFFFFFFFFFF
(1746131802.048907) can0 09F10D07#FF07FF7F52E1FFFF
(1746131802.048910) can0 09F10D00#FF07FF7F0000FFFF
(1746131802.080580) can0 09F80103#FFFFFF7FFFFFFF7F
(1746131802.080582) can0 0DF90304#E33FFFFFFF7FFFFF
(1746131802.081680) can0 0DF90404#8022E3FFFFFFFFFF
(1746131802.081681) can0 0DF90404#81FFFFFFFFFFFFFF
(1746131802.082865) can0 0DF90404#82FFFFFFFFFFFFFF
(1746131802.082865) can0 0DF90404#83FFFFFFFFFFFFFF
(1746131802.084028) can0 0DF90404#847FFFFFFF7FFF7F
(1746131802.084029) can0 19FA0303#E5FFFF7FFF7FFF7F
(1746131802.085195) can0 19FA0403#6003E5FFFFFFFFFF
(1746131802.085196) can0 09FD0205#FFFFFFFFFFFBFFFF
(1746131802.098433) can0 18FF3D01#419FFFFF02FFFFFF
(1746131802.148939) can0 09F10501#60153038FFFF7FFF
(1746131802.148940) can0 09F10501#61FFFFFF0B11FFFF
(1746131802.150105) can0 09F10501#62FF7FFF7FFF7FFF
(1746131802.150106) can0 09F10501#63FFFFFFFFFFFFFF
(1746131802.179625) can0 1CFF1906#419F010B00000000
(1746131802.179626) can0 09F80103#FFFFFF7FFFFFFF7F
(1746131802.180739) can0 09F80203#E5FFFFFFFFFFFFFF
(1746131802.180741) can0 0DFE1105#400EFFFFFFFFFFFF
(1746131802.181924) can0 0DFE1105#41FFFFFFFFFFFFFF
(1746131802.181925) can0 0DFE1105#42FFFFFFFFFFFFFF
(1746131802.198224) can0 09F10D07#FF07FF7F52E1FFFF
(1746131802.198225) can0 09F10D00#FF07FF7F0000FFFF
(1746131802.199372) can0 09F10D01#FF000000FF7FFFFF
(1746131802.204325) can0 08FF0005#1399040500000200
(1746131802.229170) can0 09FD0205#FFFFFFFFFFF8FFFF
(1746131802.278652) can0 09F80103#FFFFFF7FFFFFFF7F
(1746131802.296888) can0 18FF3D01#419FFFFF02FFFFFF
(1746131802.296888) can0 09F10D07#FF07FF7F52E1FFFF
(1746131802.298010) can0 09F10D00#FF07FF7F0000FFFF
(1746131802.348193) can0 09F10501#80153038FFFF7FFF
(1746131802.348195) can0 09F10501#81FFFFFF0B11FFFF
(1746131802.349340) can0 09F10501#82FF7FFF7FFF7FFF
(1746131802.349341) can0 09F10501#83FFFFFFFFFFFFFF
(1746131802.374136) can0 04FF1901#419F640202010000
(1746131802.380453) can0 09F80103#FFFFFF7FFFFFFF7F
(1746131802.380455) can0 09FD0205#FFFFFFFFFFFBFFFF
(1746131802.398729) can0 09F10D07#FF07FF7F52E1FFFF
(1746131802.398730) can0 09F10D00#FF07FF7F0000FFFF
(1746131802.399864) can0 09F10D01#FF000000FF7FFFFF
(1746131802.430046) can0 09F80203#E5FFFFFFFFFFFFFF
(1746131802.454968) can0 08FF0005#1399040500000200
(1746131802.479717) can0 09F80103#FFFFFF7FFFFFFF7F
(1746131802.498019) can0 18FF3D01#419FFFFF02FFFFFF
(1746131802.529278) can0 09FD0205#FFFFFFFFFFF8FFFF
(1746131802.548478) can0 09F10501#A0153038FFFF7FFF
(1746131802.548479) can0 09F10501#A1FFFFFF0B11FFFF
(1746131802.549612) can0 09F10501#A2FF7FFF7FFF7FFF
(1746131802.549613) can0 09F10501#A3FFFFFFFFFFFFFF
(1746131802.550755) can0 09F10D07#FF07FF7F52E1FFFF
(1746131802.550756) can0 09F10D00#FF07FF7F0000FFFF
(1746131802.578751) can0 09F80103#FFFFFF7FFFFFFF7F
(1746131802.623273) can0 04FF1901#419F640A08000000
(1746131802.646931) can0 09F10D01#FF000000FF7FFFFF
(1746131802.680545) can0 1CFF1906#419F010300000000
(1746131802.680547) can0 09F80103#FFFFFF7FFFFFFF7F
(1746131802.681638) can0 09F80203#E5FFFFFFFFFFFFFF
(1746131802.681640) can0 09FD0205#FFFFFFFFFFFBFFFF
(1746131802.698196) can0 18FF3D01#419FFFFF02FFFFFF
(1746131802.698198) can0 09F10D07#FF07FF7F52E1FFFF
(1746131802.699305) can0 09F10D00#FF07FF7F0000FFFF
(1746131802.705237) can0 08FF0005#1399040500000200
(1746131802.782752) can0 09F80103#FFFFFF7FFFFFFF7F
(1746131802.798928) can0 09F10501#C0153038FFFF7FFF
(1746131802.798930) can0 09F10501#C1FFFFFF0B11FFFF
(1746131802.800030) can0 09F10501#C2FF7FFF7FFF7FFF
(1746131802.800032) can0 09F10501#C3FFFFFFFFFFFFFF
(1746131802.801194) can0 09F10D07#FF07FF7F52E1FFFF
(1746131802.801196) can0 09F10D00#FF07FF7F0000FFFF
(1746131802.829064) can0 09FD0205#FFFFFFFFFFF8FFFF
(1746131802.848102) can0 09F10D01#FF000000FF7FFFFF
(1746131802.898425) can0 18FF3D01#419FFFFF02FFFFFF
(1746131802.898427) can0 09F10D07#FF07FF7F52E1FFFF
(1746131802.899564) can0 09F10D00#FF07FF7F0000FFFF
(1746131802.930860) can0 09F80103#FFFFFF7FFFFFFF7F
(1746131802.930862) can0 09F80203#E5FFFFFFFFFFFFFF
(1746131802.955526) can0 08FF0005#1399040500000200
(1746131802.980396) can0 09FD0205#FFFFFFFFFFFBFFFF
(1746131802.996999) can0 09F10501#E0153038FFFF7FFF
(1746131802.997001) can0 09F10501#E1FFFFFF0B11FFFF
(1746131802.998205) can0 09F10501#E2FF7FFF7FFF7FFF
(1746131802.998207) can0 09F10501#E3FFFFFFFFFFFFFF
(1746131802.999328) can0 1DFF2C01#4017419F00000000
(1746131802.999330) can0 1DFF2C01#4100FFFFFF7FFFFF
(1746131803.000508) can0 1DFF2C01#42FFFFFFFFFF7FFF
(1746131803.000509) can0 1DFF2C01#43FFFFFFFFFFFFFF
(1746131803.029942) can0 0DF01003#E5F0FFFFFFFFFFFF
(1746131803.029944) can0 1DF11A03#E6FFFFFF2FFDFFFF
(1746131803.031075) can0 1DF11A04#E4FFFFFF2FFDFFFF
(1746131803.031077) can0 09F80103#FFFFFF7FFFFFFF7F
(1746131803.032234) can0 0DF80503#A02BE6FFFFFFFFFF
(1746131803.032236) can0 0DF80503#A1FFFFFFFFFFFFFF
(1746131803.033382) can0 0DF80503#A2FF7FFFFFFFFFFF
(1746131803.033384) can0 0DF80503#A3FFFF7FFFFFFFFF
(1746131803.034561) can0 0DF80503#A4FFFFFF7F00FCFF
(1746131803.034562) can0 0DF80503#A5FF7FFF7FFFFFFF
(1746131803.035664) can0 0DF80503#A67FFFFFFFFFFFFF
(1746131803.049149) can0 09F10D07#FF07FF7F52E1FFFF
(1746131803.049150) can0 09F10D00#FF07FF7F0000FFFF
(1746131803.050306) can0 09F10D01#FF000000FF7FFFFF
(1746131803.079373) can0 0DF90304#E43FFFFFFF7FFFFF
(1746131803.079375) can0 0DF90404#A022E4FFFFFFFFFF
(1746131803.080447) can0 0DF90404#A1FFFFFFFFFFFFFF
(1746131803.080448) can0 0DF90404#A2FFFFFFFFFFFFFF
(1746131803.081610) can0 0DF90404#A3FFFFFFFFFFFFFF
(1746131803.081611) can0 0DF90404#A47FFFFFFF7FFF7F
(1746131803.082774) can0 19FA0303#E6FFFF7FFF7FFF7F
(1746131803.082775) can0 19FA0403#8003E6FFFFFFFFFF
(1746131803.098629) can0 18FF3D01#419FFFFF02FFFFFF
(1746131803.128884) can0 09F80103#FFFFFF7FFFFFFF7F
(1746131803.128886) can0 09FD0205#FFFFFFFFFFF8FFFF
(1746131803.181293) can0 1CFF1906#419F010B00000000
(1746131803.181294) can0 09F80203#E6FFFFFFFFFFFFFF
(1746131803.182441) can0 0DFE1105#600EFFFFFFFFFFFF
(1746131803.182443) can0 0DFE1105#61FFFFFFFFFFFFFF
(1746131803.183609) can0 0DFE1105#62FFFFFFFFFFFFFF
(1746131803.198342) can0 09F10501#00153038FFFF7FFF
(1746131803.198343) can0 09F10501#01FFFFFF0B11FFFF
(1746131803.199400) can0 09F10501#02FF7FFF7FFF7FFF
(1746131803.199401) can0 09F10501#03FFFFFFFFFFFFFF
(1746131803.200626) can0 09F10D07#FF07FF7F52E1FFFF
(1746131803.200627) can0 09F10D00#FF07FF7F0000FFFF
(1746131803.205962) can0 08FF0005#1399040500000200
(1746131803.230693) can0 09F80103#FFFFFF7FFFFFFF7F
(1746131803.280292) can0 09FD0205#FFFFFFFFFFFBFFFF
(1746131803.297829) can0 09F10D07#FF07FF7F52E1FFFF
(1746131803.297831) can0 09F10D00#FF07FF7F0000FFFF
(1746131803.299029) can0 09F10D01#FF000000FF7FFFFF
(1746131803.329968) can0 09F80103#FFFFFF7FFFFFFF7F
(1746131803.348245) can0 18FF3D01#419FFFFF02FFFFFF
(1746131803.374147) can0 04FF1901#419F640202010000
(1746131803.398706) can0 09F10501#20153038FFFF7FFF
(1746131803.398707) can0 09F10501#21FFFFFF0B11FFFF
(1746131803.399862) can0 09F10501#22FF7FFF7FFF7FFF
(1746131803.399864) can0 09F10501#23FFFFFFFFFFFFFF
(1746131803.401005) can0 09F10D07#FF07FF7F52E1FFFF
(1746131803.401006) can0 09F10D00#FF07FF7F0000FFFF
(1746131803.428842) can0 09F80203#E6FFFFFFFFFFFFFF
(1746131803.428843) can0 09FD0205#FFFFFFFFFFF8FFFF
(1746131803.453588) can0 08FF0005#1399040500000200
(1746131803.481196) can0 09F80103#FFFFFF7FFFFFFF7F
(1746131803.498106) can0 09F10D01#FF000000FF7FFFFF
(1746131803.530692) can0 1DF90504#0027FFFF0200FFFF
(1746131803.530693) can0 1DF90504#01FFFF01030100FF
(1746131803.531844) can0 1DF90504#020000030100FFFF
(1746131803.531845) can0 1DF90504#03FF7FFFFFFF7F01
(1746131803.533008) can0 1DF90504#0400030100FFFFFF
(1746131803.533010) can0 1DF90504#057FFFFFFF7FFFFF
(1746131803.548646) can0 18FF3D01#419FFFFF02FFFFFF
(1746131803.548648) can0 09F10D07#FF07FF7F52E1FFFF
(1746131803.549771) can0 09F10D00#FF07FF7F0000FFFF
(1746131803.580322) can0 09F80103#FFFFFF7FFFFFFF7F
(1746131803.580323) can0 09FD0205#FFFFFFFFFFFBFFFF
(1746131803.623377) can0 04FF1901#419F640A08000000
(1746131803.647980) can0 09F10501#40153038FFFF7FFF
(1746131803.647982) can0 09F10501#41FFFFFF0B11FFFF
(1746131803.649105) can0 09F10501#42FF7FFF7FFF7FFF
(1746131803.649106) can0 09F10501#43FFFFFFFFFFFFFF
(1746131803.679295) can0 1CFF1906#419F010300000000
(1746131803.679297) can0 09F80103#FFFFFF7FFFFFFF7F
(1746131803.680491) can0 09F80203#E6FFFFFFFFFFFFFF
(1746131803.698504) can0 09F10D07#FF07FF7F52E1FFFF
(1746131803.698505) can0 09F10D00#FF07FF7F0000FFFF
(1746131803.699647) can0 09F10D01#FF000000FF7FFFFF
(1746131803.704082) can0 08FF0005#1399040500000200
(1746131803.728899) can0 09FD0205#FFFFFFFFFFF8FFFF
(1746131803.778451) can0 09F80103#FFFFFF7FFFFFFF7F
(1746131803.796962) can0 18FF3D01#419FFFFF02FFFFFF
(1746131803.848226) can0 09F10501#60153038FFFF7FFF
(1746131803.848228) can0 09F10501#61FFFFFF0B11FFFF
(1746131803.849360) can0 09F10501#62FF7FFF7FFF7FFF
(1746131803.849361) can0 09F10501#63FFFFFFFFFFFFFF
(1746131803.850528) can0 09F10D07#FF07FF7F52E1FFFF
(1746131803.850529) can0 09F10D00#FF07FF7F0000FFFF
(1746131803.880248) can0 09F80103#FFFFFF7FFFFFFF7F
(1746131803.880250) can0 09FD0205#FFFFFFFFFFFBFFFF
(1746131803.929860) can0 09F80203#E6FFFFFFFFFFFFFF
(1746131803.948959) can0 09F10D07#FF07FF7F52E1FFFF
(1746131803.948961) can0 09F10D01#FF000000FF7FFFFF
(1746131803.954579) can0 08FF0005#1399040500000200
(1746131803.979280) can0 09F80103#FFFFFF7FFFFFFF7F
(1746131803.998031) can0 18FF3D01#419FFFFF02FFFFFF
(1746131803.998032) can0 09F10D00#FF07FF7F0000FFFF
(1746131803.999174) can0 1DFF2C01#6017419F00000000
(1746131803.999175) can0 1DFF2C01#6100FFFFFF7FFFFF
(1746131804.000316) can0 1DFF2C01#62FFFFFFFFFF7FFF
(1746131804.000317) can0 1DFF2C01#63FFFFFFFFFFFFFF
(1746131804.028926) can0 0DF01003#E6F0FFFFFFFFFFFF
(1746131804.028928) can0 1DF11A03#E7FFFFFF2FFDFFFF
(1746131804.030072) can0 1DF11A04#E5FFFFFF2FFDFFFF
(1746131804.030075) can0 0DF80503#C02BE7FFFFFFFFFF
(1746131804.031208) can0 0DF80503#C1FFFFFFFFFFFFFF
(1746131804.031210) can0 0DF80503#C2FF7FFFFFFFFFFF
(1746131804.032387) can0 0DF80503#C3FFFF7FFFFFFFFF
(1746131804.032388) can0 0DF80503#C4FFFFFF7F00FCFF
(1746131804.033521) can0 0DF80503#C5FF7FFF7FFFFFFF
(1746131804.033523) can0 0DF80503#C67FFFFFFFFFFFFF
(1746131804.034693) can0 09FD0205#FFFFFFFFFFF8FFFF
(1746131804.049295) can0 09F10501#80153038FFFF7FFF
(1746131804.049296) can0 09F10501#81FFFFFF0B11FFFF
(1746131804.050470) can0 09F10501#82FF7FFF7FFF7FFF
(1746131804.050472) can0 09F10501#83FFFFFFFFFFFFFF
(1746131804.051606) can0 09F10D07#FF07FF7F52E1FFFF
(1746131804.081271) can0 09F80103#FFFFFF7FFFFFFF7F
(1746131804.081273) can0 0DF90304#E53FFFFFFF7FFFFF
(1746131804.082417) can0 0DF90404#C022E5FFFFFFFFFF
(1746131804.082419) can0 0DF90404#C1FFFFFFFFFFFFFF
(1746131804.083607) can0 0DF90404#C2FFFFFFFFFFFFFF
(1746131804.083608) can0 0DF90404#C3FFFFFFFFFFFFFF
(1746131804.084777) can0 0DF90404#C47FFFFFFF7FFF7F
(1746131804.084778) can0 19FA0303#E7FFFF7FFF7FFF7F
(1746131804.085917) can0 19FA0403#A003E7FFFFFFFFFF
(1746131804.098950) can0 09F10D00#FF07FF7F0000FFFF
(1746131804.147871) can0 09F10D01#FF000000FF7FFFFF
(1746131804.180329) can0 1CFF1906#419F010B00000000
(1746131804.180331) can0 09F80103#FFFFFF7FFFFFFF7F
(1746131804.181468) can0 09F80203#E7FFFFFFFFFFFFFF
(1746131804.181470) can0 09FD0205#FFFFFFFFFFFBFFFF
(1746131804.182626) can0 0DFE1105#800EFFFFFFFFFFFF
(1746131804.182628) can0 0DFE1105#81FFFFFFFFFFFFFF
(1746131804.183815) can0 0DFE1105#82FFFFFFFFFFFFFF
(1746131804.198580) can0 18FF3D01#419FFFFF02FFFFFF
(1746131804.198582) can0 09F10D07#FF07FF7F52E1FFFF
(1746131804.199716) can0 09F10D00#FF07FF7F0000FFFF
(1746131804.204954) can0 08FF0005#1399040500000200
(1746131804.279323) can0 09F80103#FFFFFF7FFFFFFF7F
(1746131804.298034) can0 09F10501#A0153038FFFF7FFF
(1746131804.298035) can0 09F10501#A1FFFFFF0B11FFFF
(1746131804.299164) can0 09F10501#A2FF7FFF7FFF7FFF
(1746131804.299165) can0 09F10501#A3FFFFFFFFFFFFFF
(1746131804.300316) can0 09F10D07#FF07FF7F52E1FFFF
(1746131804.331666) can0 09FD0205#FFFFFFFFFFF8FFFF
(1746131804.348446) can0 09F10D00#FF07FF7F0000FFFF
(1746131804.348447) can0 09F10D01#FF000000FF7FFFFF
(1746131804.380988) can0 09F80103#FFFFFF7FFFFFFF7F
(1746131804.423218) can0 04FF1901#419F640202010000
(1746131804.430557) can0 09F80203#E7FFFFFFFFFFFFFF
(1746131804.446895) can0 18FF3D01#419FFFFF02FFFFFF
(1746131804.446897) can0 09F10D07#FF07FF7F52E1FFFF
(1746131804.455468) can0 08FF0005#1399040500000200
(1746131804.480216) can0 09F80103#FFFFFF7FFFFFFF7F
(1746131804.480218) can0 09FD0205#FFFFFFFFFFFBFFFF
(1746131804.498263) can0 09F10501#C0153038FFFF7FFF
(1746131804.498265) can0 09F10501#C1FFFFFF0B11FFFF
(1746131804.499337) can0 09F10501#C2FF7FFF7FFF7FFF
(1746131804.499338) can0 09F10501#C3FFFFFFFFFFFFFF
(1746131804.500503) can0 09F10D00#FF07FF7F0000FFFF
(1746131804.548626) can0 09F10D07#FF07FF7F52E1FFFF
(1746131804.579318) can0 09F80103#FFFFFF7FFFFFFF7F
(1746131804.598823) can0 09F10D01#FF000000FF7FFFFF
(1746131804.623395) can0 04FF1901#419F640A08000000
(1746131804.628833) can0 09FD0205#FFFFFFFFFFF8FFFF
(1746131804.647963) can0 18FF3D01#419FFFFF02FFFFFF
(1746131804.647965) can0 09F10D07#FF07FF7F52E1FFFF
(1746131804.649067) can0 09F10D00#FF07FF7F0000FFFF
(1746131804.678294) can0 1CFF1906#419F010300000000
(1746131804.681135) can0 09F80103#FFFFFF7FFFFFFF7F
(1746131804.681136) can0 09F80203#E7FFFFFFFFFFFFFF
(1746131804.698469) can0 09F10501#E0153038FFFF7FFF
(1746131804.698471) can0 09F10501#E1FFFFFF0B11FFFF
(1746131804.699562) can0 09F10501#E2FF7FFF7FFF7FFF
(1746131804.699562) can0 09F10501#E3FFFFFFFFFFFFFF
(1746131804.705879) can0 08FF0005#1399040500000200
(1746131804.705881) can0 1DFF0005#00061399FF050001
(1746131804.746891) can0 09F10D07#FF07FF7F52E1FFFF
(1746131804.746892) can0 09F10D00#FF07FF7F0000FFFF
(1746131804.783223) can0 09F80103#FFFFFF7FFFFFFF7F
(1746131804.783224) can0 09FD0205#FFFFFFFFFFFBFFFF
(1746131804.797970) can0 09F10D01#FF000000FF7FFFFF
(1746131804.848368) can0 18FF3D01#419FFFFF02FFFFFF
(1746131804.848370) can0 09F10D07#FF07FF7F52E1FFFF
(1746131804.849466) can0 09F10D00#FF07FF7F0000FFFF
(1746131804.928630) can0 09F80103#FFFFFF7FFFFFFF7F
(1746131804.928633) can0 09F80203#E7FFFFFFFFFFFFFF
(1746131804.929730) can0 09FD0205#FFFFFFFFFFF8FFFF
(1746131804.948955) can0 09F10501#00153038FFFF7FFF
(1746131804.948955) can0 09F10501#01FFFFFF0B11FFFF
(1746131804.950193) can0 09F10501#02FF7FFF7FFF7FFF
(1746131804.950194) can0 09F10501#03FFFFFFFFFFFFFF
(1746131804.953399) can0 08FF0005#1399040500000200
(1746131804.998187) can0 09F10D07#FF07FF7F52E1FFFF
(1746131804.998188) can0 09F10D00#FF07FF7F0000FFFF
(1746131804.999336) can0 09F10D01#FF000000FF7FFFFF
(1746131804.999337) can0 1DFF2C01#8017419F00000000
(1746131805.000483) can0 1DFF2C01#8100FFFFFF7FFFFF
(1746131805.000484) can0 1DFF2C01#82FFFFFFFFFF7FFF
(1746131805.001655) can0 1DFF2C01#83FFFFFFFFFFFFFF
(1746131805.030525) can0 0DF01003#E7F0FFFFFFFFFFFF
(1746131805.030527) can0 1DF11A03#E8FFFFFF2FFDFFFF
(1746131805.031606) can0 1DF11A04#E6FFFFFF2FFDFFFF
(1746131805.031607) can0 09F80103#FFFFFF7FFFFFFF7F
(1746131805.032769) can0 0DF80503#E02BE8FFFFFFFFFF
(1746131805.032770) can0 0DF80503#E1FFFFFFFFFFFFFF
(1746131805.033915) can0 0DF80503#E2FF7FFFFFFFFFFF
(1746131805.033916) can0 0DF80503#E3FFFF7FFFFFFFFF
(1746131805.035060) can0 0DF80503#E4FFFFFF7F00FCFF
(1746131805.035061) can0 0DF80503#E5FF7FFF7FFFFFFF
(1746131805.036208) can0 0DF80503#E67FFFFFFFFFFFFF
(1746131805.079965) can0 0DF90304#E63FFFFFFF7FFFFF
(1746131805.079967) can0 0DF90404#E022E6FFFFFFFFFF
(1746131805.081065) can0 0DF90404#E1FFFFFFFFFFFFFF
(1746131805.081066) can0 0DF90404#E2FFFFFFFFFFFFFF
(1746131805.082249) can0 0DF90404#E3FFFFFFFFFFFFFF
(1746131805.082250) can0 0DF90404#E47FFFFFFF7FFF7F
(1746131805.083391) can0 19FA0303#E8FFFF7FFF7FFF7F
(1746131805.083392) can0 19FA0403#C003E8FFFFFFFFFF
(1746131805.084581) can0 09FD0205#FFFFFFFFFFFBFFFF
(1746131805.098816) can0 18FF3D01#419FFFFF02FFFFFF
(1746131805.098818) can0 09F10D07#FF07FF7F52E1FFFF
(1746131805.099919) can0 09F10D00#FF07FF7F0000FFFF
(1746131805.129519) can0 09F80103#FFFFFF7FFFFFFF7F
(1746131805.147991) can0 09F10501#20153038FFFF7FFF
(1746131805.147992) can0 09F10501#21FFFFFF0B11FFFF
(1746131805.149106) can0 09F10501#22FF7FFF7FFF7FFF
(1746131805.149108) can0 09F10501#23FFFFFFFFFFFFFF
(1746131805.179042) can0 0DFF0605#400F1399FF010080
(1746131805.179043) can0 0DFF0605#410000FC120E0000
(1746131805.180148) can0 0DFF0605#427CA2FFFFFFFFFF
(1746131805.180149) can0 1CFF1906#419F010B00000000
(1746131805.181291) can0 09F80203#E8FFFFFFFFFFFFFF
(1746131805.181292) can0 0DFE1105#A00EFFFFFFFFFFFF
(1746131805.182457) can0 0DFE1105#A1FFFFFFFFFFFFFF
(1746131805.182458) can0 0DFE1105#A2FFFFFFFFFFFFFF
(1746131805.198829) can0 09F10D07#FF07FF7F52E1FFFF
(1746131805.198831) can0 09F10D00#FF07FF7F0000FFFF
(1746131805.199914) can0 09F10D01#FF000000FF7FFFFF
(1746131805.203702) can0 08FF0005#1399040500000200
(1746131805.228502) can0 09F80103#FFFFFF7FFFFFFF7F
(1746131805.228504) can0 09FD0205#FFFFFFFFFFF8FFFF
(1746131805.298320) can0 18FF3D01#419FFFFF02FFFFFF
(1746131805.298321) can0 09F10D07#FF07FF7F52E1FFFF
(1746131805.299467) can0 09F10D00#FF07FF7F0000FFFF
(1746131805.330641) can0 09F80103#FFFFFF7FFFFFFF7F
(1746131805.379793) can0 09FD0205#FFFFFFFFFFFBFFFF
(1746131805.398932) can0 09F10501#40153038FFFF7FFF
(1746131805.398933) can0 09F10501#41FFFFFF0B11FFFF
(1746131805.400055) can0 09F10501#42FF7FFF7FFF7FFF
(1746131805.400056) can0 09F10501#43FFFFFFFFFFFFFF
(1746131805.423517) can0 04FF1901#419F640202010000
(1746131805.429375) can0 0DFF0605#600F1399FF011080
(1746131805.429377) can0 0DFF0605#610000FC12B10100
(1746131805.430450) can0 0DFF0605#629EBEFFFFFFFFFF
(1746131805.430451) can0 09F80203#E8FFFFFFFFFFFFFF
(1746131805.448319) can0 09F10D07#FF07FF7F52E1FFFF
(1746131805.448320) can0 09F10D00#FF07FF7F0000FFFF
(1746131805.449433) can0 09F10D01#FF000000FF7FFFFF
(1746131805.454185) can0 08FF0005#1399040500000200
(1746131805.478952) can0 09F80103#FFFFFF7FFFFFFF7F
(1746131805.528430) can0 09FD0205#FFFFFFFFFFF8FFFF
(1746131805.548943) can0 18FF3D01#419FFFFF02FFFFFF
(1746131805.548944) can0 09F10D07#FF07FF7F52E1FFFF
(1746131805.550077) can0 09F10D00#FF07FF7F0000FFFF
(1746131805.580962) can0 09F80103#FFFFFF7FFFFFFF7F
(1746131805.597980) can0 09F10501#60153038FFFF7FFF
(1746131805.597981) can0 09F10501#61FFFFFF0B11FFFF
(1746131805.599099) can0 09F10501#62FF7FFF7FFF7FFF
(1746131805.599100) can0 09F10501#63FFFFFFFFFFFFFF
(1746131805.623986) can0 04FF1901#419F640A08000000
(1746131805.648531) can0 09F10D07#FF07FF7F52E1FFFF
(1746131805.648533) can0 09F10D00#FF07FF7F0000FFFF
(1746131805.649644) can0 09F10D01#FF000000FF7FFFFF
(1746131805.679981) can0 0DFF0605#800F1399FF011180
(1746131805.679983) can0 0DFF0605#810000FC12B10100
(1746131805.681120) can0 0DFF0605#829EBEFFFFFFFFFF
(1746131805.681121) can0 1CFF1906#419F010300000000
(1746131805.682267) can0 09F80103#FFFFFF7FFFFFFF7F
(1746131805.682268) can0 09F80203#E8FFFFFFFFFFFFFF
(1746131805.683397) can0 09FD0205#FFFFFFFFFFFBFFFF
(1746131805.704745) can0 08FF0005#1399040500000200
(1746131805.748014) can0 18FF3D01#419FFFFF02FFFFFF
(1746131805.779015) can0 09F80103#FFFFFF7FFFFFFF7F
(1746131805.798386) can0 09F10501#80153038FFFF7FFF
(1746131805.798388) can0 09F10501#81FFFFFF0B11FFFF
(1746131805.799572) can0 09F10501#82FF7FFF7FFF7FFF
(1746131805.799574) can0 09F10501#83FFFFFFFFFFFFFF
(1746131805.800684) can0 09F10D07#FF07FF7F52E1FFFF
(1746131805.800686) can0 09F10D00#FF07FF7F0000FFFF
(1746131805.828516) can0 09FD0205#FFFFFFFFFFF8FFFF
(1746131805.880943) can0 09F80103#FFFFFF7FFFFFFF7F
(1746131805.899065) can0 09F10D01#FF000000FF7FFFFF
(1746131805.930467) can0 0DFF0605#A00F1399FF010480
(1746131805.930469) can0 0DFF0605#A100010002500000
(1746131805.931513) can0 0DFF0605#A23B2EFFFFFFFFFF
(1746131805.931514) can0 09F80203#E8FFFFFFFFFFFFFF
(1746131805.948132) can0 18FF3D01#419FFFFF02FFFFFF
(1746131805.948133) can0 09F10D07#FF07FF7F52E1FFFF
(1746131805.949225) can0 09F10D00#FF07FF7F0000FFFF
(1746131805.955113) can0 08FF0005#1399040500000200
(1746131805.979882) can0 09F80103#FFFFFF7FFFFFFF7F
(1746131805.979884) can0 09FD0205#FFFFFFFFFFFBFFFF
(1746131805.998635) can0 09F10501#A0153038FFFF7FFF
(1746131805.998636) can0 09F10501#A1FFFFFF0B11FFFF
(1746131805.999767) can0 09F10501#A2FF7FFF7FFF7FFF
(1746131805.999769) can0 09F10501#A3FFFFFFFFFFFFFF
(1746131806.000912) can0 1DFF2C01#A017419F00000000
(1746131806.000913) can0 1DFF2C01#A100FFFFFF7FFFFF
(1746131806.002078) can0 1DFF2C01#A2FFFFFFFFFF7FFF
(1746131806.002079) can0 1DFF2C01#A3FFFFFFFFFFFFFF
(1746131806.029432) can0 0DF01003#E8F0FFFFFFFFFFFF
(1746131806.029433) can0 1DF11A03#E9FFFFFF2FFDFFFF
(1746131806.030554) can0 1DF11A04#E7FFFFFF2FFDFFFF
(1746131806.030557) can0 0DF80503#002BE9FFFFFFFFFF
(1746131806.031703) can0 0DF80503#01FFFFFFFFFFFFFF
(1746131806.031704) can0 0DF80503#02FF7FFFFFFFFFFF
(1746131806.032891) can0 0DF80503#03FFFF7FFFFFFFFF
(1746131806.032892) can0 0DF80503#04FFFFFF7F00FCFF
(1746131806.034036) can0 0DF80503#05FF7FFF7FFFFFFF
(1746131806.034037) can0 0DF80503#067FFFFFFFFFFFFF
(1746131806.047965) can0 09F10D07#FF07FF7F52E1FFFF
(1746131806.049081) can0 09F10D00#FF07FF7F0000FFFF
(1746131806.078913) can0 09F80103#FFFFFF7FFFFFFF7F
(1746131806.078914) can0 0DF90304#E73FFFFFFF7FFFFF
(1746131806.080081) can0 0DF90404#0022E7FFFFFFFFFF
(1746131806.080082) can0 0DF90404#01FFFFFFFFFFFFFF
(1746131806.081265) can0 0DF90404#02FFFFFFFFFFFFFF
(1746131806.081265) can0 0DF90404#03FFFFFFFFFFFFFF
(1746131806.082461) can0 0DF90404#047FFFFFFF7FFF7F
(1746131806.082462) can0 19FA0303#E9FFFF7FFF7FFF7F
(1746131806.083599) can0 19FA0403#E003E9FFFFFFFFFF
(1746131806.097269) can0 09F10D01#FF000000FF7FFFFF
(1746131806.128440) can0 09FD0205#FFFFFFFFFFF8FFFF
(1746131806.148548) can0 18FF3D01#419FFFFF02FFFFFF
(1746131806.148550) can0 09F10D07#FF07FF7F52E1FFFF
(1746131806.149645) can0 09F10D00#FF07FF7F0000FFFF
(1746131806.180795) can0 0DFF0605#C00F1399FF011480
(1746131806.180796) can0 0DFF0605#C10000FC12410000
(1746131806.181933) can0 0DFF0605#C2FD25FFFFFFFFFF
(1746131806.181934) can0 1CFF1906#419F010B00000000
(1746131806.183096) can0 09F80103#FFFFFF7FFFFFFF7F
(1746131806.183097) can0 09F80203#E9FFFFFFFFFFFFFF
(1746131806.184264) can0 0DFE1105#C00EFFFFFFFFFFFF
(1746131806.184265) can0 0DFE1105#C1FFFFFFFFFFFFFF
(1746131806.185435) can0 0DFE1105#C2FFFFFFFFFFFFFF
(1746131806.205514) can0 08FF0005#1399040500000200
(1746131806.248497) can0 09F10501#C0153038FFFF7FFF
(1746131806.248499) can0 09F10501#C1FFFFFF0B11FFFF
(1746131806.249601) can0 09F10501#C2FF7FFF7FFF7FFF
(1746131806.249601) can0 09F10501#C3FFFFFFFFFFFFFF
(1746131806.250764) can0 09F10D07#FF07FF7F52E1FFFF
(1746131806.250764) can0 09F10D00#FF07FF7F0000FFFF
(1746131806.279886) can0 09F80103#FFFFFF7FFFFFFF7F
(1746131806.279888) can0 09FD0205#FFFFFFFFFFFBFFFF
(1746131806.298942) can0 09F10D01#FF000000FF7FFFFF
(1746131806.378818) can0 09F80103#FFFFFF7FFFFFFF7F
(1746131806.398021) can0 18FF3D01#419FFFFF02FFFFFF
(1746131806.398023) can0 09F10D07#FF07FF7F52E1FFFF
(1746131806.399123) can0 09F10D00#FF07FF7F0000FFFF
(1746131806.424039) can0 04FF1901#419F640202010000
(1746131806.428311) can0 0DFF0605#E00F1399FF010009
(1746131806.428312) can0 0DFF0605#E10000FC121C0000
(1746131806.429434) can0 0DFF0605#E2DDD1FFFFFFFFFF
(1746131806.429435) can0 09F80203#E9FFFFFFFFFFFFFF
(1746131806.430595) can0 09FD0205#FFFFFFFFFFF8FFFF
(1746131806.448805) can0 09F10501#E0153038FFFF7FFF
(1746131806.448806) can0 09F10501#E1FFFFFF0B11FFFF
(1746131806.449884) can0 09F10501#E2FF7FFF7FFF7FFF
(1746131806.449885) can0 09F10501#E3FFFFFFFFFFFFFF
(1746131806.456077) can0 08FF0005#1399040500000200
(1746131806.480837) can0 09F80103#FFFFFF7FFFFFFF7F
(1746131806.497921) can0 09F10D07#FF07FF7F52E1FFFF
(1746131806.497923) can0 09F10D00#FF07FF7F0000FFFF
(1746131806.498993) can0 09F10D01#FF000000FF7FFFFF
(1746131806.579967) can0 09F80103#FFFFFF7FFFFFFF7F
(1746131806.579969) can0 09FD0205#FFFFFFFFFFFBFFFF
(1746131806.598518) can0 18FF3D01#419FFFFF02FFFFFF
(1746131806.598519) can0 09F10D07#FF07FF7F52E1FFFF
(1746131806.599617) can0 09F10D00#FF07FF7F0000FFFF
(1746131806.673209) can0 04FF1901#419F640A08000000
(1746131806.678934) can0 0DFF0605#000F1399FF010001
(1746131806.678935) can0 0DFF0605#010001FC02690000
(1746131806.680032) can0 0DFF0605#029FCDFFFFFFFFFF
(1746131806.680033) can0 1CFF1906#419F010300000000
(1746131806.681220) can0 09F80103#FFFFFF7FFFFFFF7F
(1746131806.681221) can0 09F80203#E9FFFFFFFFFFFFFF
(1746131806.697251) can0 09F10501#00153038FFFF7FFF
(1746131806.697252) can0 09F10501#01FFFFFF0B11FFFF
(1746131806.698369) can0 09F10501#02FF7FFF7FFF7FFF
(1746131806.698370) can0 09F10501#03FFFFFFFFFFFFFF
(1746131806.699512) can0 09F10D01#FF000000FF7FFFFF
(1746131806.703723) can0 08FF0005#1399040500000200
(1746131806.728529) can0 09FD0205#FFFFFFFFFFF8FFFF
(1746131806.748629) can0 09F10D07#FF07FF7F52E1FFFF
(1746131806.748630) can0 09F10D00#FF07FF7F0000FFFF
(1746131806.783934) can0 09F80103#FFFFFF7FFFFFFF7F
(1746131806.847001) can0 18FF3D01#419FFFFF02FFFFFF
(1746131806.847003) can0 09F10D07#FF07FF7F52E1FFFF
(1746131806.848098) can0 09F10D00#FF07FF7F0000FFFF
(1746131806.879745) can0 09FD0205#FFFFFFFFFFFBFFFF
(1746131806.898229) can0 09F10501#20153038FFFF7FFF
(1746131806.898230) can0 09F10501#21FFFFFF0B11FFFF
(1746131806.899344) can0 09F10501#22FF7FFF7FFF7FFF
(1746131806.899345) can0 09F10501#23FFFFFFFFFFFFFF
(1746131806.900534) can0 09F10D01#FF000000FF7FFFFF
(1746131806.929243) can0 09F80103#FFFFFF7FFFFFFF7F
(1746131806.929245) can0 09F80203#E9FFFFFFFFFFFFFF
(1746131806.954005) can0 08FF0005#1399040500000200
(1746131806.998989) can0 09F10D07#FF07FF7F52E1FFFF
(1746131806.998991) can0 09F10D00#FF07FF7F0000FFFF
(1746131807.028293) can0 0DF01003#E9F0FFFFFFFFFFFF
(1746131807.028295) can0 1DF11A03#EAFFFFFF2FFDFFFF
(1746131807.029389) can0 1DF11A04#E8FFFFFF2FFDFFFF
(1746131807.029390) can0 09F80103#FFFFFF7FFFFFFF7F
(1746131807.030535) can0 0DF80503#202BEAFFFFFFFFFF
(1746131807.030535) can0 0DF80503#21FFFFFFFFFFFFFF
(1746131807.031722) can0 0DF80503#22FF7FFFFFFFFFFF
(1746131807.031723) can0 0DF80503#23FFFF7FFFFFFFFF
(1746131807.032893) can0 0DF80503#24FFFFFF7F00FCFF
(1746131807.032893) can0 0DF80503#25FF7FFF7FFFFFFF
(1746131807.034040) can0 0DF80503#267FFFFFFFFFFFFF
(1746131807.034041) can0 09FD0205#FFFFFFFFFFF8FFFF
(1746131807.048006) can0 18FF3D01#419FFFFF02FFFFFF
(1746131807.049200) can0 1DFF2C01#C017419F00000000
(1746131807.049201) can0 1DFF2C01#C100FFFFFF7FFFFF
(1746131807.050388) can0 1DFF2C01#C2FFFFFFFFFF7FFF
(1746131807.050389) can0 1DFF2C01#C3FFFFFFFFFFFFFF
(1746131807.080686) can0 0DF90304#E83FFFFFFF7FFFFF
(1746131807.080687) can0 0DF90404#2022E8FFFFFFFFFF
(1746131807.081809) can0 0DF90404#21FFFFFFFFFFFFFF
(1746131807.081811) can0 0DF90404#22FFFFFFFFFFFFFF
(1746131807.082994) can0 0DF90404#23FFFFFFFFFFFFFF
(1746131807.082995) can0 0DF90404#247FFFFFFF7FFF7F
(1746131807.084160) can0 19FA0303#EAFFFF7FFF7FFF7F
(1746131807.084161) can0 19FA0403#0003EAFFFFFFFFFF
(1746131807.098451) can0 09F10501#40153038FFFF7FFF
(1746131807.098452) can0 09F10501#41FFFFFF0B11FFFF
(1746131807.099592) can0 09F10501#42FF7FFF7FFF7FFF
(1746131807.099593) can0 09F10501#43FFFFFFFFFFFFFF
(1746131807.100762) can0 09F10D07#FF07FF7F52E1FFFF
(1746131807.100763) can0 09F10D00#FF07FF7F0000FFFF
(1746131807.130241) can0 09F80103#FFFFFF7FFFFFFF7F
(1746131807.146908) can0 09F10D01#FF000000FF7FFFFF
(1746131807.179683) can0 1CFF1906#419F010B00000000
(1746131807.179685) can0 09F80203#EAFFFFFFFFFFFFFF
(1746131807.180828) can0 09FD0205#FFFFFFFFFFFBFFFF
(1746131807.180829) can0 0DFE1105#E00EFFFFFFFFFFFF
(1746131807.181991) can0 0DFE1105#E1FFFFFFFFFFFFFF
(1746131807.181992) can0 0DFE1105#E2FFFFFFFFFFFFFF
(1746131807.198265) can0 09F10D07#FF07FF7F52E1FFFF
(1746131807.198266) can0 09F10D00#FF07FF7F0000FFFF
(1746131807.204621) can0 08FF0005#1399040500000200
(1746131807.229377) can0 09F80103#FFFFFF7FFFFFFF7F
(1746131807.297021) can0 18FF3D01#419FFFFF02FFFFFF
(1746131807.297022) can0 09F10501#60153038FFFF7FFF
(1746131807.298096) can0 09F10501#61FFFFFF0B11FFFF
(1746131807.298097) can0 09F10501#62FF7FFF7FFF7FFF
(1746131807.299293) can0 09F10501#63FFFFFFFFFFFFFF
(1746131807.299293) can0 09F10D07#FF07FF7F52E1FFFF
(1746131807.300429) can0 09F10D00#FF07FF7F0000FFFF
(1746131807.331421) can0 09F80103#FFFFFF7FFFFFFF7F
(1746131807.331423) can0 09FD0205#FFFFFFFFFFF8FFFF
(1746131807.348287) can0 09F10D01#FF000000FF7FFFFF
(1746131807.398545) can0 09F10D07#FF07FF7F52E1FFFF
(1746131807.398547) can0 09F10D00#FF07FF7F0000FFFF
(1746131807.430303) can0 09F80203#EAFFFFFFFFFFFFFF
(1746131807.455025) can0 08FF0005#1399040500000200
(1746131807.473395) can0 04FF1901#419F640202010000
(1746131807.479745) can0 09F80103#FFFFFF7FFFFFFF7F
(1746131807.479746) can0 09FD0205#FFFFFFFFFFFBFFFF
(1746131807.498090) can0 18FF3D01#419FFFFF02FFFFFF
(1746131807.498091) can0 09F10501#80153038FFFF7FFF
(1746131807.499225) can0 09F10501#81FFFFFF0B11FFFF
(1746131807.499226) can0 09F10501#82FF7FFF7FFF7FFF
(1746131807.500306) can0 09F10501#83FFFFFFFFFFFFFF
(1746131807.548577) can0 09F10D07#FF07FF7F52E1FFFF
(1746131807.548578) can0 09F10D00#FF07FF7F0000FFFF
(1746131807.549696) can0 09F10D01#FF000000FF7FFFFF
(1746131807.579010) can0 09F80103#FFFFFF7FFFFFFF7F
(1746131807.628571) can0 09FD0205#FFFFFFFFFFF8FFFF
(1746131807.673464) can0 04FF1901#419F640A08000000
(1746131807.680878) can0 1CFF1906#419F010300000000
(1746131807.680879) can0 09F80103#FFFFFF7FFFFFFF7F
(1746131807.682037) can0 09F80203#EAFFFFFFFFFFFFFF
(1746131807.698276) can0 18FF3D01#419FFFFF02FFFFFF
(1746131807.698278) can0 09F10501#A0153038FFFF7FFF
(1746131807.699390) can0 09F10501#A1FFFFFF0B11FFFF
(1746131807.699391) can0 09F10501#A2FF7FFF7FFF7FFF
(1746131807.700571) can0 09F10501#A3FFFFFFFFFFFFFF
(1746131807.700572) can0 09F10D07#FF07FF7F52E1FFFF
(1746131807.701748) can0 09F10D00#FF07FF7F0000FFFF
(1746131807.705549) can0 08FF0005#1399040500000200
(1746131807.779862) can0 09F80103#FFFFFF7FFFFFFF7F
(1746131807.779864) can0 09FD0205#FFFFFFFFFFFBFFFF
(1746131807.799066) can0 09F10D07#FF07FF7F52E1FFFF
(1746131807.799068) can0 09F10D00#FF07FF7F0000FFFF
(1746131807.800159) can0 09F10D01#FF000000FF7FFFFF
(1746131807.878857) can0 09F80103#FFFFFF7FFFFFFF7F
(1746131807.898490) can0 18FF3D01#419FFFFF02FFFFFF
(1746131807.898491) can0 09F10501#C0153038FFFF7FFF
(1746131807.899601) can0 09F10501#C1FFFFFF0B11FFFF
(1746131807.899602) can0 09F10501#C2FF7FFF7FFF7FFF
(1746131807.900783) can0 09F10501#C3FFFFFFFFFFFFFF
(1746131807.900784) can0 09F10D07#FF07FF7F52E1FFFF
(1746131807.901927) can0 09F10D00#FF07FF7F0000FFFF
(1746131807.928293) can0 09F80203#EAFFFFFFFFFFFFFF
(1746131807.928295) can0 09FD0205#FFFFFFFFFFF8FFFF
(1746131807.956056) can0 08FF0005#1399040500000200
(1746131807.980769) can0 09F80103#FFFFFF7FFFFFFF7F
(1746131807.997060) can0 09F10D01#FF000000FF7FFFFF
(1746131808.030314) can0 0DF01003#EAF0FFFFFFFFFFFF
(1746131808.030316) can0 1DF11A03#EBFFFFFF2FFDFFFF
(1746131808.031384) can0 1DF11A04#E9FFFFFF2FFDFFFF
(1746131808.031385) can0 0DF80503#402BEBFFFFFFFFFF
(1746131808.032570) can0 0DF80503#41FFFFFFFFFFFFFF
(1746131808.032571) can0 0DF80503#42FF7FFFFFFFFFFF
(1746131808.033736) can0 0DF80503#43FFFF7FFFFFFFFF
(1746131808.033737) can0 0DF80503#44FFFFFF7F00FCFF
(1746131808.034883) can0 0DF80503#45FF7FFF7FFFFFFF
(1746131808.034884) can0 0DF80503#467FFFFFFFFFFFFF
(1746131808.048011) can0 09F10D07#FF07FF7F52E1FFFF
(1746131808.049388) can0 09F10D00#FF07FF7F0000FFFF
(1746131808.049389) can0 1DFF2C01#E017419F00000000
(1746131808.050549) can0 1DFF2C01#E100FFFFFF7FFFFF
(1746131808.050550) can0 1DFF2C01#E2FFFFFFFFFF7FFF
(1746131808.051676) can0 1DFF2C01#E3FFFFFFFFFFFFFF
(1746131808.079770) can0 09F80103#FFFFFF7FFFFFFF7F
(1746131808.079772) can0 0DF90304#E93FFFFFFF7FFFFF
(1746131808.080868) can0 0DF90404#4022E9FFFFFFFFFF
(1746131808.080869) can0 0DF90404#41FFFFFFFFFFFFFF
(1746131808.082050) can0 0DF90404#42FFFFFFFFFFFFFF
(1746131808.082051) can0 0DF90404#43FFFFFFFFFFFFFF
(1746131808.083215) can0 0DF90404#447FFFFFFF7FFF7F
(1746131808.083216) can0 19FA0303#EBFFFF7FFF7FFF7F
(1746131808.084383) can0 19FA0403#2003EBFFFFFFFFFF
(1746131808.084384) can0 09FD0205#FFFFFFFFFFFBFFFF
(1746131808.098579) can0 18FF3D01#419FFFFF02FFFFFF
(1746131808.146922) can0 09F10501#E0153038FFFF7FFF
(1746131808.146924) can0 09F10501#E1FFFFFF0B11FFFF
(1746131808.148012) can0 09F10501#E2FF7FFF7FFF7FFF
(1746131808.148012) can0 09F10501#E3FFFFFFFFFFFFFF
(1746131808.149154) can0 09F10D07#FF07FF7F52E1FFFF
(1746131808.178863) can0 1CFF1906#419F010B00000000
(1746131808.178864) can0 09F80103#FFFFFF7FFFFFFF7F
(1746131808.179976) can0 09F80203#EBFFFFFFFFFFFFFF
(1746131808.179984) can0 0DFE1105#000EFFFFFFFFFFFF
(1746131808.181154) can0 0DFE1105#01FFFFFFFFFFFFFF
(1746131808.181155) can0 0DFE1105#02FFFFFFFFFFFFFF
(1746131808.198389) can0 09F10D00#FF07FF7F0000FFFF
(1746131808.198391) can0 09F10D01#FF000000FF7FFFFF
(1746131808.203530) can0 08FF0005#1399040500000200
(1746131808.228326) can0 09FD0205#FFFFFFFFFFF8FFFF
(1746131808.248964) can0 09F10D07#FF07FF7F52E1FFFF
(1746131808.280802) can0 09F80103#FFFFFF7FFFFFFF7F
(1746131808.297063) can0 18FF3D01#419FFFFF02FFFFFF
(1746131808.297065) can0 09F10D00#FF07FF7F0000FFFF
(1746131808.348301) can0 09F10501#00153038FFFF7FFF
(1746131808.348303) can0 09F10501#01FFFFFF0B11FFFF
(1746131808.349404) can0 09F10501#02FF7FFF7FFF7FFF
(1746131808.349406) can0 09F10501#03FFFFFFFFFFFFFF
(1746131808.350548) can0 09F10D07#FF07FF7F52E1FFFF
(1746131808.379648) can0 09F80103#FFFFFF7FFFFFFF7F
(1746131808.379650) can0 09FD0205#FFFFFFFFFFFBFFFF
(1746131808.429371) can0 09F80203#EBFFFFFFFFFFFFFF
(1746131808.448982) can0 09F10D00#FF07FF7F0000FFFF
(1746131808.448984) can0 09F10D01#FF000000FF7FFFFF
(1746131808.454073) can0 08FF0005#1399040500000200
(1746131808.473563) can0 04FF1901#419F640202010000
(1746131808.478836) can0 09F80103#FFFFFF7FFFFFFF7F
(1746131808.498028) can0 18FF3D01#419FFFFF02FFFFFF
(1746131808.498029) can0 09F10D07#FF07FF7F52E1FFFF
(1746131808.528367) can0 1DF90504#2027FFFF0200FFFF
(1746131808.528368) can0 1DF90504#21FFFF01030100FF
(1746131808.529465) can0 1DF90504#220000030100FFFF
(1746131808.529466) can0 1DF90504#23FF7FFFFFFF7F01
(1746131808.530652) can0 1DF90504#2400030100FFFFFF
(1746131808.530654) can0 1DF90504#257FFFFFFF7FFFFF
(1746131808.531819) can0 09FD0205#FFFFFFFFFFF8FFFF
(1746131808.548760) can0 09F10501#20153038FFFF7FFF
(1746131808.548762) can0 09F10501#21FFFFFF0B11FFFF
(1746131808.549883) can0 09F10501#22FF7FFF7FFF7FFF
(1746131808.549884) can0 09F10501#23FFFFFFFFFFFFFF
(1746131808.551027) can0 09F10D00#FF07FF7F0000FFFF
(1746131808.580789) can0 09F80103#FFFFFF7FFFFFFF7F
(1746131808.596960) can0 09F10D07#FF07FF7F52E1FFFF
(1746131808.630249) can0 0DFF0605#200F1399FF010008
(1746131808.630251) can0 0DFF0605#2100450202C60500
(1746131808.631340) can0 0DFF0605#226441FFFFFFFFFF
(1746131808.648203) can0 09F10D01#FF000000FF7FFFFF
(1746131808.674121) can0 04FF1901#419F640A08000000
(1746131808.679834) can0 1CFF1906#419F010300000000
(1746131808.679835) can0 09F80103#FFFFFF7FFFFFFF7F
(1746131808.680984) can0 09F80203#EBFFFFFFFFFFFFFF
(1746131808.680985) can0 09FD0205#FFFFFFFFFFFBFFFF
(1746131808.698801) can0 18FF3D01#419FFFFF02FFFFFF
(1746131808.698804) can0 09F10D07#FF07FF7F52E1FFFF
(1746131808.699976) can0 09F10D00#FF07FF7F0000FFFF
(1746131808.704592) can0 08FF0005#1399040500000200
(1746131808.782048) can0 09F80103#FFFFFF7FFFFFFF7F
(1746131808.798069) can0 09F10501#40153038FFFF7FFF
(1746131808.798070) can0 09F10501#41FFFFFF0B11FFFF
(1746131808.799199) can0 09F10501#42FF7FFF7FFF7FFF
(1746131808.799200) can0 09F10501#43FFFFFFFFFFFFFF
(1746131808.828361) can0 09FD0205#FFFFFFFFFFF8FFFF
(1746131808.848632) can0 09F10D07#FF07FF7F52E1FFFF
(1746131808.848634) can0 09F10D00#FF07FF7F0000FFFF
(1746131808.849756) can0 09F10D01#FF000000FF7FFFFF
(1746131808.930254) can0 09F80103#FFFFFF7FFFFFFF7F
(1746131808.930255) can0 09F80203#EBFFFFFFFFFFFFFF
(1746131808.949102) can0 18FF3D01#419FFFFF02FFFFFF
(1746131808.955050) can0 08FF0005#1399040500000200
(1746131808.979808) can0 09FD0205#FFFFFFFFFFFBFFFF
(1746131808.998212) can0 09F10501#60153038FFFF7FFF
(1746131808.998214) can0 09F10501#61FFFFFF0B11FFFF
(1746131808.999380) can0 09F10501#62FF7FFF7FFF7FFF
(1746131808.999381) can0 09F10501#63FFFFFFFFFFFFFF
(1746131809.000511) can0 09F10D07#FF07FF7F52E1FFFF
(1746131809.000512) can0 09F10D00#FF07FF7F0000FFFF
(1746131809.029337) can0 0DF01003#EBF0FFFFFFFFFFFF
(1746131809.029339) can0 1DF11A03#ECFFFFFF2FFDFFFF
(1746131809.030427) can0 1DF11A04#EAFFFFFF2FFDFFFF
(1746131809.030428) can0 09F80103#FFFFFF7FFFFFFF7F
(1746131809.031588) can0 0DF80503#602BECFFFFFFFFFF
(1746131809.031589) can0 0DF80503#61FFFFFFFFFFFFFF
(1746131809.032732) can0 0DF80503#62FF7FFFFFFFFFFF
(1746131809.032733) can0 0DF80503#63FFFF7FFFFFFFFF
(1746131809.033900) can0 0DF80503#64FFFFFF7F00FCFF
(1746131809.033901) can0 0DF80503#65FF7FFF7FFFFFFF
(1746131809.035046) can0 0DF80503#667FFFFFFFFFFFFF
(1746131809.078929) can0 0DF90304#EA3FFFFFFF7FFFFF
(1746131809.078931) can0 0DF90404#6022EAFFFFFFFFFF
(1746131809.080007) can0 0DF90404#61FFFFFFFFFFFFFF
(1746131809.080008) can0 0DF90404#62FFFFFFFFFFFFFF
(1746131809.081238) can0 0DF90404#63FFFFFFFFFFFFFF
(1746131809.081239) can0 0DF90404#647FFFFFFF7FFF7F
(1746131809.082403) can0 19FA0303#ECFFFF7FFF7FFF7F
(1746131809.082404) can0 19FA0403#4003ECFFFFFFFFFF
(1746131809.086070) can0 18EEFF02#6CDBAF1C008C78C0
(1746131809.099348) can0 09F10D07#FF07FF7F52E1FFFF
(1746131809.099350) can0 09F10D00#FF07FF7F0000FFFF
(1746131809.100484) can0 09F10D01#FF000000FF7FFFFF
(1746131809.100485) can0 1DFF2C01#0017419F00000000
(1746131809.101646) can0 1DFF2C01#0100FFFFFF7FFFFF
(1746131809.101647) can0 1DFF2C01#02FFFFFFFFFF7FFF
(1746131809.102823) can0 1DFF2C01#03FFFF7FFFFFFFFF
(1746131809.128392) can0 09F80103#FFFFFF7FFFFFFF7F
(1746131809.128393) can0 09FD0205#FFFFFFFFFFF8FFFF
(1746131809.148337) can0 18FF3D01#419FFFFF02FFFFFF
(1746131809.180752) can0 0DEDFF05#80130001FF01FFFF
(1746131809.180754) can0 0DEDFF05#81FFFFFFFF030113
(1746131809.181860) can0 0DEDFF05#82010304043D5AFF
(1746131809.181861) can0 1CFF1906#419F010B00000000
(1746131809.183001) can0 09F80203#ECFFFFFFFFFFFFFF
(1746131809.183003) can0 0DFE1105#200EFFFFFFFFFFFF
(1746131809.184189) can0 0DFE1105#21FFFFFFFFFFFFFF
(1746131809.184190) can0 0DFE1105#22FFFFFFFFFFFFFF
(1746131809.199202) can0 09F10501#80153038FFFF7FFF
(1746131809.199204) can0 09F10501#81FFFFFF0B11FFFF
(1746131809.200268) can0 09F10501#82FF7FFF7FFF7FFF
(1746131809.200269) can0 09F10501#83FFFFFFFFFFFFFF
(1746131809.201437) can0 09F10D07#FF07FF7F52E1FFFF
(1746131809.201438) can0 09F10D00#FF07FF7F0000FFFF
(1746131809.205455) can0 08FF0005#1399040500000200
(1746131809.230306) can0 09F80103#FFFFFF7FFFFFFF7F
(1746131809.279700) can0 09FD0205#FFFFFFFFFFFBFFFF
(1746131809.329410) can0 09F80103#FFFFFF7FFFFFFF7F
(1746131809.348880) can0 09F10D07#FF07FF7F52E1FFFF
(1746131809.348882) can0 09F10D00#FF07FF7F0000FFFF
(1746131809.350063) can0 09F10D01#FF000000FF7FFFFF
(1746131809.397036) can0 18FF3D01#419FFFFF02FFFFFF
(1746131809.428298) can0 09F80203#ECFFFFFFFFFFFFFF
(1746131809.428299) can0 09FD0205#FFFFFFFFFFF8FFFF
(1746131809.448407) can0 09F10501#A0153038FFFF7FFF
(1746131809.448409) can0 09F10501#A1FFFFFF0B11FFFF
(1746131809.449506) can0 09F10501#A2FF7FFF7FFF7FFF
(1746131809.449507) can0 09F10501#A3FFFFFFFFFFFFFF
(1746131809.450727) can0 09F10D07#FF07FF7F52E1FFFF
(1746131809.450728) can0 09F10D00#FF07FF7F0000FFFF
(1746131809.451821) can0 09F11202#FFEA900000FF7FFD
(1746131809.455943) can0 08FF0005#1399040500000200
(1746131809.480765) can0 09F80103#FFFFFF7FFFFFFF7F
(1746131809.498775) can0 18EA0201#00EE00
(1746131809.501089) can0 18EEFF02#6CDBAF1C008C78C0
(1746131809.505278) can0 18EA0205#00EE00
(1746131809.508647) can0 18EEFF02#6CDBAF1C008C78C0
(1746131809.523937) can0 04FF1901#419F640202010000
(1746131809.528810) can0 1DEFFF02#000CE5986C070202
(1746131809.528811) can0 1DEFFF02#01410089000000FF
(1746131809.531356) can0 1DEFFF02#200CE5986C070202
(1746131809.531357) can0 1DEFFF02#21430000000000FF
(1746131809.533091) can0 1DEFFF02#4009E5986C070202
(1746131809.534135) can0 1DEFFF02#41280000FFFFFFFF
(1746131809.534136) can0 1DEFFF02#6009E5986C070202
(1746131809.536103) can0 1DEFFF02#61340000FFFFFFFF
(1746131809.538679) can0 1DEFFF02#8009E5986C070202
(1746131809.538680) can0 1DEFFF02#811B00FFFFFFFFFF
(1746131809.540026) can0 1DEFFF02#A009E5986C070202
(1746131809.541063) can0 1DEFFF02#A11D00FFFFFFFFFF
(1746131809.549031) can0 09F10D07#FF07FF7F52E1FFFF
(1746131809.549032) can0 09F10D00#FF07FF7F0000FFFF
(1746131809.550153) can0 09F10D01#FF000000FF7FFFFF
(1746131809.550154) can0 0DFF1801#E011419FFF000102
(1746131809.551301) can0 0DFF1801#E1FF056CDBAF1C00
(1746131809.551302) can0 0DFF1801#E28C78C0FFFFFFFF
(1746131809.554920) can0 0DFF1805#0011419FFF000102
(1746131809.554921) can0 0DFF1805#01FF056CDBAF1C00
(1746131809.556076) can0 0DFF1805#028C78C0FFFFFFFF
(1746131809.579750) can0 09F80103#FFFFFF7FFFFFFF7F
(1746131809.579751) can0 09FD0205#FFFFFFFFFFFBFFFF
(1746131809.594285) can0 09F11202#FFC5910000FF7FFD
(1746131809.597199) can0 18FF3D01#419FFFFF02FFFFFF
(1746131809.597200) can0 18EA0201#14F001
(1746131809.599377) can0 19F01402#0086D007E3535374
(1746131809.601015) can0 19F01402#0165616479436173
(1746131809.602024) can0 19F01402#0274000000000000
(1746131809.602026) can0 19F01402#0300000000000000
(1746131809.604003) can0 19F01402#0400000000000000
(1746131809.604003) can0 18EA0205#14F001
(1746131809.604004) can0 19F01402#050000322E333000
(1746131809.606289) can0 19F01402#0600000000000000
(1746131809.608689) can0 19F01402#0700000000000000
(1746131809.608690) can0 19F01402#0800000000000000
(1746131809.611006) can0 19F01402#0900000000000031
(1746131809.612023) can0 19F01402#0A2E300000000000
(1746131809.612025) can0 19F01402#0B00000000000000
(1746131809.614025) can0 19F01402#0C00000000000000
(1746131809.614026) can0 19F01402#0D00000000000000
(1746131809.616036) can0 19F01402#0E00000033343839
(1746131809.618573) can0 19F01402#0F33383934323000
(1746131809.618574) can0 19F01402#1000000000000000
(1746131809.621006) can0 19F01402#1100000000000000
(1746131809.621006) can0 19F01402#1200000000000000
(1746131809.623011) can0 19F01402#130201FFFFFFFFFF
(1746131809.623012) can0 19F01402#2086D007E3535374
(1746131809.624988) can0 19F01402#2165616479436173
(1746131809.626022) can0 19F01402#2274000000000000
(1746131809.628564) can0 19F01402#2300000000000000
(1746131809.628565) can0 19F01402#2400000000000000
(1746131809.629985) can0 19F01402#250000322E333000
(1746131809.631022) can0 19F01402#2600000000000000
(1746131809.632295) can0 19F01402#2700000000000000
(1746131809.632296) can0 19F01402#2800000000000000
(1746131809.634040) can0 19F01402#2900000000000031
(1746131809.634042) can0 19F01402#2A2E300000000000
(1746131809.635867) can0 19F01402#2B00000000000000
(1746131809.638565) can0 19F01402#2C00000000000000
(1746131809.638566) can0 19F01402#2D00000000000000
(1746131809.639868) can0 19F01402#2E00000033343839
(1746131809.641009) can0 19F01402#2F33383934323000
(1746131809.642022) can0 19F01402#3000000000000000
(1746131809.642024) can0 19F01402#3100000000000000
(1746131809.644292) can0 19F01402#3200000000000000
(1746131809.644293) can0 19F01402#330201FFFFFFFFFF
(1746131809.649414) can0 09F10501#C0153038FFFF7FFF
(1746131809.649415) can0 09F10501#C1FFFFFF0B11FFFF
(1746131809.650563) can0 09F10501#C2FF7FFF7FFF7FFF
(1746131809.650564) can0 09F10501#C3FFFFFFFFFFFFFF
(1746131809.651713) can0 09F10D07#FF07FF7F52E1FFFF
(1746131809.651715) can0 09F10D00#FF07FF7F0000FFFF
(1746131809.674009) can0 04FF1901#419F640A08000000
(1746131809.678820) can0 1CFF1906#419F010300000000
(1746131809.678822) can0 09F80103#FFFFFF7FFFFFFF7F
(1746131809.679988) can0 09F80203#ECFFFFFFFFFFFFFF
(1746131809.703629) can0 08FF0005#1399040500000200
(1746131809.703631) can0 1DFF0005#00061399FF050001
(1746131809.728395) can0 09FD0205#FFFFFFFFFFF8FFFF
(1746131809.742405) can0 09F11202#FF4E910000FF7FFD
(1746131809.748282) can0 09F10D01#FF000000FF7FFFFF
(1746131809.780783) can0 09F80103#FFFFFF7FFFFFFF7F
(1746131809.798258) can0 18FF3D01#419FFFFF02FFFFFF
(1746131809.798259) can0 09F10D07#FF07FF7F52E1FFFF
(1746131809.799339) can0 09F10D00#FF07FF7F0000FFFF
(1746131809.879578) can0 09F80103#FFFFFF7FFFFFFF7F
(1746131809.879579) can0 09FD0205#FFFFFFFFFFFBFFFF
(1746131809.881005) can0 09F11202#FF95900000FF7FFD
(1746131809.897172) can0 09F10501#E0153038FFFF7FFF
(1746131809.897173) can0 09F10501#E1FFFFFF0B11FFFF
(1746131809.898454) can0 09F10501#E2FF7FFF7FFF7FFF
(1746131809.898455) can0 09F10501#E3FFFFFFFFFFFFFF
(1746131809.929296) can0 09F80203#ECFFFFFFFFFFFFFF
(1746131809.948194) can0 09F10D07#FF07FF7F52E1FFFF
(1746131809.948196) can0 09F10D00#FF07FF7F0000FFFF
(1746131809.949272) can0 09F10D01#FF000000FF7FFFFF
(1746131809.954101) can0 08FF0005#1399040500000200
(1746131809.978830) can0 09F80103#FFFFFF7FFFFFFF7F
(1746131809.998112) can0 18FF3D01#419FFFFF02FFFFFF
(1746131810.028376) can0 0DF01003#ECF0FFFFFFFFFFFF
(1746131810.028377) can0 1DEFFF02#C00CE5986C070202
(1746131810.029480) can0 1DEFFF02#C1410089000000FF
(1746131810.029481) can0 1DF11A03#EDFFFFFF2FFDFFFF
(1746131810.030647) can0 1DF11A04#EBFFFFFF2FFDFFFF
(1746131810.030648) can0 0DF80503#802BEDFFFFFFFFFF
(1746131810.031794) can0 0DF80503#81FFFFFFFFFFFFFF
(1746131810.031795) can0 0DF80503#82FF7FFFFFFFFFFF
(1746131810.032982) can0 0DF80503#83FFFF7FFFFFFFFF
(1746131810.032983) can0 0DF80503#84FFFFFF7F00FCFF
(1746131810.034126) can0 0DF80503#85FF7FFF7FFFFFFF
(1746131810.034126) can0 0DF80503#867FFFFFFFFFFFFF
(1746131810.035265) can0 09FD0205#FFFFFFFFFFF8FFFF
(1746131810.035266) can0 1DEFFF02#E00CE5986C070202
(1746131810.038684) can0 1DEFFF02#E1430000000000FF
(1746131810.038685) can0 1DEFFF02#0009E5986C070202
(1746131810.040134) can0 1DEFFF02#01280000FFFFFFFF
(1746131810.040135) can0 1DEFFF02#2009E5986C070202
(1746131810.042109) can0 1DEFFF02#21340000FFFFFFFF
(1746131810.042110) can0 1DEFFF02#4009E5986C070202
(1746131810.044132) can0 1DEFFF02#411B00FFFFFFFFFF
(1746131810.044133) can0 1DEFFF02#6009E5986C070202
(1746131810.046044) can0 1DEFFF02#611D00FFFFFFFFFF
(1746131810.048049) can0 09F11202#FF28900000FF7FFD
(1746131810.080712) can0 09F80103#FFFFFF7FFFFFFF7F
(1746131810.080714) can0 0DF90304#EB3FFFFFFF7FFFFF
(1746131810.081872) can0 0DF90404#8022EBFFFFFFFFFF
(1746131810.081873) can0 0DF90404#81FFFFFFFFFFFFFF
(1746131810.082985) can0 0DF90404#82FFFFFFFFFFFFFF
(1746131810.082986) can0 0DF90404#83FFFFFFFFFFFFFF
(1746131810.084167) can0 0DF90404#847FFFFFFF7FFF7F
(1746131810.084168) can0 19FA0303#EDFFFF7FFF7FFF7F
(1746131810.085409) can0 19FA0403#6003EDFFFFFFFFFF
(1746131810.097566) can0 09F10501#00153038FFFF7FFF
(1746131810.097567) can0 09F10501#01FFFFFF0B11FFFF
(1746131810.098694) can0 09F10501#02FF7FFF7FFF7FFF
(1746131810.098695) can0 09F10501#03FFFFFFFFFFFFFF
(1746131810.099820) can0 09F10D07#FF07FF7F52E1FFFF
(1746131810.099821) can0 09F10D00#FF07FF7F0000FFFF
(1746131810.148480) can0 1DFF2C01#2017419F00000000
(1746131810.148482) can0 1DFF2C01#2100FFFFFF7FFFFF
(1746131810.149623) can0 1DFF2C01#22FFFFFFFFFF7FFF
(1746131810.149624) can0 1DFF2C01#23FFFFFFFFFFFFFF
(1746131810.173064) can0 09F11202#FF4E900000FF7FFD
(1746131810.179625) can0 1CFF1906#419F010B00000000
(1746131810.179627) can0 09F80103#FFFFFF7FFFFFFF7F
(1746131810.180883) can0 09F80203#EDFFFFFFFFFFFFFF
(1746131810.180884) can0 09FD0205#FFFFFFFFFFFBFFFF
(1746131810.182047) can0 0DFE1105#400EFFFFFFFFFFFF
(1746131810.182048) can0 0DFE1105#41FFFFFFFFFFFFFF
(1746131810.183168) can0 0DFE1105#42FFFFFFFFFFFFFF
(1746131810.198894) can0 18FF3D01#419FFFFF02FFFFFF
(1746131810.198896) can0 09F10D07#FF07FF7F52E1FFFF
(1746131810.200050) can0 09F10D00#FF07FF7F0000FFFF
(1746131810.200051) can0 09F10D01#FF000000FF7FFFFF
(1746131810.204526) can0 08FF0005#1399040500000200
(1746131810.278849) can0 09F80103#FFFFFF7FFFFFFF7F
(1746131810.298873) can0 09F10501#20153038FFFF7FFF
(1746131810.298874) can0 09F10501#21FFFFFF0B11FFFF
(1746131810.300006) can0 09F10501#22FF7FFF7FFF7FFF
(1746131810.300007) can0 09F10501#23FFFFFFFFFFFFFF
(1746131810.318643) can0 09F11202#FFA6900000FF7FFD
(1746131810.331237) can0 09FD0205#FFFFFFFFFFF8FFFF
(1746131810.348935) can0 09F10D07#FF07FF7F52E1FFFF
(1746131810.348937) can0 09F10D00#FF07FF7F0000FFFF
(1746131810.380609) can0 09F80103#FFFFFF7FFFFFFF7F
(1746131810.430205) can0 09F80203#EDFFFFFFFFFFFFFF
(1746131810.448682) can0 18FF3D01#419FFFFF02FFFFFF
(1746131810.448683) can0 09F10D01#FF000000FF7FFFFF
(1746131810.454954) can0 08FF0005#1399040500000200
(1746131810.461126) can0 09F11202#FF8A900000FF7FFD
(1746131810.461128) can0 1DEFFF02#800AE598EE040404
(1746131810.463066) can0 1DEFFF02#8103000000FFFFFF
(1746131810.479723) can0 09F80103#FFFFFF7FFFFFFF7F
(1746131810.479725) can0 09FD0205#FFFFFFFFFFFBFFFF
(1746131810.498825) can0 09F10D07#FF07FF7F52E1FFFF
(1746131810.498826) can0 09F10D00#FF07FF7F0000FFFF
(1746131810.523196) can0 04FF1901#419F640202010000
(1746131810.528806) can0 1DEFFF02#A00CE5986C070202
(1746131810.528807) can0 1DEFFF02#A1410089000000FF
(1746131810.531099) can0 1DEFFF02#C00CE5986C070202
(1746131810.532144) can0 1DEFFF02#C1430000000000FF
(1746131810.532144) can0 1DEFFF02#E009E5986C070202
(1746131810.533968) can0 1DEFFF02#E1280000FFFFFFFF
(1746131810.535095) can0 1DEFFF02#0009E5986C070202
(1746131810.535095) can0 1DEFFF02#01340000FFFFFFFF
(1746131810.538666) can0 1DEFFF02#2009E5986C070202
(1746131810.538667) can0 1DEFFF02#211B00FFFFFFFFFF
(1746131810.540050) can0 1DEFFF02#4009E5986C070202
(1746131810.541348) can0 1DEFFF02#411D00FFFFFFFFFF
(1746131810.549241) can0 09F10501#40153038FFFF7FFF
(1746131810.549241) can0 09F10501#41FFFFFF0B11FFFF
(1746131810.550362) can0 09F10501#42FF7FFF7FFF7FFF
(1746131810.550362) can0 09F10501#43FFFFFFFFFFFFFF
(1746131810.578861) can0 09F80103#FFFFFF7FFFFFFF7F
(1746131810.597106) can0 09F10D07#FF07FF7F52E1FFFF
(1746131810.597108) can0 09F10D00#FF07FF7F0000FFFF
(1746131810.605304) can0 09F11202#FF51900000FF7FFD
(1746131810.628414) can0 09FD0205#FFFFFFFFFFF8FFFF
(1746131810.647153) can0 18FF3D01#419FFFFF02FFFFFF
(1746131810.647155) can0 09F10D01#FF000000FF7FFFFF
(1746131810.680672) can0 1CFF1906#419F010300000000
(1746131810.680673) can0 09F80103#FFFFFF7FFFFFFF7F
(1746131810.681889) can0 09F80203#EDFFFFFFFFFFFFFF
(1746131810.697181) can0 09F10D07#FF07FF7F52E1FFFF
(1746131810.697182) can0 09F10D00#FF07FF7F0000FFFF
(1746131810.705381) can0 08FF0005#1399040500000200
(1746131810.723811) can0 04FF1901#419F640A08000000
(1746131810.748093) can0 09F10501#60153038FFFF7FFF
(1746131810.748095) can0 09F10501#61FFFFFF0B11FFFF
(1746131810.749282) can0 09F10501#62FF7FFF7FFF7FFF
(1746131810.749283) can0 09F10501#63FFFFFFFFFFFFFF
(1746131810.754151) can0 09F11202#FF5C900000FF7FFD
(1746131810.782811) can0 09F80103#FFFFFF7FFFFFFF7F
(1746131810.782813) can0 09FD0205#FFFFFFFFFFFBFFFF
(1746131810.798173) can0 09F10D07#FF07FF7F52E1FFFF
(1746131810.798174) can0 09F10D00#FF07FF7F0000FFFF
(1746131810.848139) can0 18FF3D01#419FFFFF02FFFFFF
(1746131810.848142) can0 09F10D01#FF000000FF7FFFFF
(1746131810.898705) can0 09F11202#FF94900000FF7FFD
(1746131810.928222) can0 09F80103#FFFFFF7FFFFFFF7F
(1746131810.928224) can0 09F80203#EDFFFFFFFFFFFFFF
(1746131810.929324) can0 09FD0205#FFFFFFFFFFF8FFFF
(1746131810.948574) can0 09F10501#80153038FFFF7FFF
(1746131810.948575) can0 09F10501#81FFFFFF0B11FFFF
(1746131810.949740) can0 09F10501#82FF7FFF7FFF7FFF
(1746131810.949741) can0 09F10501#83FFFFFFFFFFFFFF
(1746131810.950864) can0 09F10D07#FF07FF7F52E1FFFF
(1746131810.950865) can0 09F10D00#FF07FF7F0000FFFF
(1746131810.955862) can0 08FF0005#1399040500000200
(1746131811.028869) can0 1DEFFF02#600CE5986C070202
(1746131811.028871) can0 1DEFFF02#61410089000000FF
(1746131811.030148) can0 0DF01003#EDF0FFFFFFFFFFFF
(1746131811.030149) can0 1DF11A03#EEFFFFFF2FFDFFFF
(1746131811.031254) can0 1DEFFF02#800CE5986C070202
(1746131811.031255) can0 1DF11A04#ECFFFFFF2FFDFFFF
(1746131811.032499) can0 09F80103#FFFFFF7FFFFFFF7F
(1746131811.032500) can0 0DF80503#A02BEEFFFFFFFFFF
(1746131811.033637) can0 0DF80503#A1FFFFFFFFFFFFFF
(1746131811.033638) can0 0DF80503#A2FF7FFFFFFFFFFF
(1746131811.034810) can0 0DF80503#A3FFFF7FFFFFFFFF
(1746131811.034811) can0 0DF80503#A4FFFFFF7F00FCFF
(1746131811.035963) can0 0DF80503#A5FF7FFF7FFFFFFF
(1746131811.035963) can0 0DF80503#A67FFFFFFFFFFFFF
(1746131811.037120) can0 1DEFFF02#81430000000000FF
(1746131811.037121) can0 1DEFFF02#A009E5986C070202
(1746131811.038911) can0 1DEFFF02#A1280000FFFFFFFF
(1746131811.040030) can0 1DEFFF02#C009E5986C070202
(1746131811.041063) can0 1DEFFF02#C1340000FFFFFFFF
(1746131811.041064) can0 1DEFFF02#E009E5986C070202
(1746131811.043039) can0 1DEFFF02#E11B00FFFFFFFFFF
(1746131811.043041) can0 1DEFFF02#0009E5986C070202
(1746131811.045044) can0 1DEFFF02#011D00FFFFFFFFFF
(1746131811.046288) can0 09F11202#FF9B900000FF7FFD
(1746131811.047932) can0 18FF3D01#419FFFFF02FFFFFF
(1746131811.079596) can0 0DF90304#EC3FFFFFFF7FFFFF
(1746131811.079597) can0 0DF90404#A022ECFFFFFFFFFF
(1746131811.080748) can0 0DF90404#A1FFFFFFFFFFFFFF
(1746131811.080749) can0 0DF90404#A2FFFFFFFFFFFFFF
(1746131811.081913) can0 0DF90404#A3FFFFFFFFFFFFFF
(1746131811.081914) can0 0DF90404#A47FFFFFFF7FFF7F
(1746131811.083057) can0 19FA0303#EEFFFF7FFF7FFF7F
(1746131811.083058) can0 19FA0403#8003EEFFFFFFFFFF
(1746131811.084226) can0 09FD0205#FFFFFFFFFFFBFFFF
(1746131811.098318) can0 09F10D07#FF07FF7F52E1FFFF
(1746131811.098320) can0 09F10D00#FF07FF7F0000FFFF
(1746131811.099473) can0 09F10D01#FF000000FF7FFFFF
(1746131811.129198) can0 09F80103#FFFFFF7FFFFFFF7F
(1746131811.148726) can0 1DFF2C01#4017419F00000000
(1746131811.148727) can0 1DFF2C01#4100FFFFFF7FFFFF
(1746131811.149835) can0 1DFF2C01#42FFFFFFFFFF7FFF
(1746131811.149836) can0 1DFF2C01#43FFFFFFFFFFFFFF
(1746131811.178737) can0 1CFF1906#419F010B00000000
(1746131811.178739) can0 09F80203#EEFFFFFFFFFFFFFF
(1746131811.179853) can0 0DFE1105#600EFFFFFFFFFFFF
(1746131811.179854) can0 0DFE1105#61FFFFFFFFFFFFFF
(1746131811.181018) can0 0DFE1105#62FFFFFFFFFFFFFF
(1746131811.191017) can0 09F11202#FFAC900000FF7FFD
(1746131811.197290) can0 09F10501#A0153038FFFF7FFF
(1746131811.197291) can0 09F10501#A1FFFFFF0B11FFFF
(1746131811.198458) can0 09F10501#A2FF7FFF7FFF7FFF
(1746131811.198459) can0 09F10501#A3FFFFFFFFFFFFFF
(1746131811.199580) can0 09F10D07#FF07FF7F52E1FFFF
(1746131811.199581) can0 09F10D00#FF07FF7F0000FFFF
(1746131811.203429) can0 08FF0005#1399040500000200
(1746131811.228212) can0 09F80103#FFFFFF7FFFFFFF7F
(1746131811.228213) can0 09FD0205#FFFFFFFFFFF8FFFF
(1746131811.298948) can0 18FF3D01#419FFFFF02FFFFFF
(1746131811.298950) can0 09F10D07#FF07FF7F52E1FFFF
(1746131811.300019) can0 09F10D00#FF07FF7F0000FFFF
(1746131811.300020) can0 09F10D01#FF000000FF7FFFFF
(1746131811.328928) can0 09F11202#FFD5900000FF7FFD
(1746131811.330225) can0 09F80103#FFFFFF7FFFFFFF7F
(1746131811.379458) can0 09FD0205#FFFFFFFFFFFBFFFF
(1746131811.398341) can0 09F10501#C0153038FFFF7FFF
(1746131811.398343) can0 09F10501#C1FFFFFF0B11FFFF
(1746131811.399474) can0 09F10501#C2FF7FFF7FFF7FFF
(1746131811.399475) can0 09F10501#C3FFFFFFFFFFFFFF
(1746131811.400620) can0 09F10D07#FF07FF7F52E1FFFF
(1746131811.400621) can0 09F10D00#FF07FF7F0000FFFF
(1746131811.429137) can0 09F80203#EEFFFFFFFFFFFFFF
(1746131811.453815) can0 08FF0005#1399040500000200
(1746131811.478704) can0 09F80103#FFFFFF7FFFFFFF7F
(1746131811.478706) can0 09F11202#FF04910000FF7FFD
(1746131811.523388) can0 04FF1901#419F640202010000
(1746131811.528151) can0 09FD0205#FFFFFFFFFFF8FFFF
(1746131811.528152) can0 1DEFFF02#200CE5986C070202
(1746131811.529828) can0 1DEFFF02#21410089000000FF
(1746131811.531136) can0 1DEFFF02#400CE5986C070202
(1746131811.532172) can0 1DEFFF02#41430000000000FF
(1746131811.532173) can0 1DEFFF02#6009E5986C070202
(1746131811.534141) can0 1DEFFF02#61280000FFFFFFFF
(1746131811.534142) can0 1DEFFF02#8009E5986C070202
(1746131811.536110) can0 1DEFFF02#81340000FFFFFFFF
(1746131811.538712) can0 1DEFFF02#A009E5986C070202
(1746131811.538713) can0 1DEFFF02#A11B00FFFFFFFFFF
(1746131811.541140) can0 1DEFFF02#C009E5986C070202
(1746131811.542156) can0 1DEFFF02#C11D00FFFFFFFFFF
(1746131811.548427) can0 18FF3D01#419FFFFF02FFFFFF
(1746131811.548428) can0 09F10D07#FF07FF7F52E1FFFF
(1746131811.549600) can0 09F10D00#FF07FF7F0000FFFF
(1746131811.549601) can0 09F10D01#FF000000FF7FFFFF
(1746131811.580583) can0 09F80103#FFFFFF7FFFFFFF7F
(1746131811.622096) can0 09F11202#FF1A910000FF7FFD
(1746131811.649013) can0 09F10501#E0153038FFFF7FFF
(1746131811.649014) can0 09F10501#E1FFFFFF0B11FFFF
(1746131811.650152) can0 09F10501#E2FF7FFF7FFF7FFF
(1746131811.650153) can0 09F10501#E3FFFFFFFFFFFFFF
(1746131811.679620) can0 1CFF1906#419F010300000000
(1746131811.679621) can0 09F80103#FFFFFF7FFFFFFF7F
(1746131811.680790) can0 09F80203#EEFFFFFFFFFFFFFF
(1746131811.680791) can0 09FD0205#FFFFFFFFFFFBFFFF
(1746131811.697275) can0 09F10D07#FF07FF7F52E1FFFF
(1746131811.697277) can0 09F10D00#FF07FF7F0000FFFF
(1746131811.704309) can0 08FF0005#1399040500000200
(1746131811.724107) can0 04FF1901#419F640A08000000
(1746131811.748577) can0 18FF3D01#419FFFFF02FFFFFF
(1746131811.748579) can0 09F10D01#FF000000FF7FFFFF
(1746131811.769554) can0 09F11202#FF5E910000FF7FFD
(1746131811.778735) can0 09F80103#FFFFFF7FFFFFFF7F
(1746131811.828301) can0 09FD0205#FFFFFFFFFFF8FFFF
(1746131811.849159) can0 09F10501#00153038FFFF7FFF
(1746131811.849160) can0 09F10501#01FFFFFF0B11FFFF
(1746131811.850247) can0 09F10501#02FF7FFF7FFF7FFF
(1746131811.850249) can0 09F10501#03FFFFFFFFFFFFFF
(1746131811.851412) can0 09F10D07#FF07FF7F52E1FFFF
(1746131811.851413) can0 09F10D00#FF07FF7F0000FFFF
(1746131811.880486) can0 09F80103#FFFFFF7FFFFFFF7F
(1746131811.916111) can0 09F11202#FFB9910000FF7FFD
(1746131811.918603) can0 1DEFFF02#E00AE598EE040404
(1746131811.918604) can0 1DEFFF02#E103000000FFFFFF
(1746131811.930070) can0 09F80203#EEFFFFFFFFFFFFFF
(1746131811.948538) can0 18FF3D01#419FFFFF02FFFFFF
(1746131811.948539) can0 09F10D07#FF07FF7F52E1FFFF
(1746131811.949641) can0 09F10D00#FF07FF7F0000FFFF
(1746131811.949642) can0 09F10D01#FF000000FF7FFFFF
(1746131811.954855) can0 08FF0005#1399040500000200
(1746131811.979568) can0 09F80103#FFFFFF7FFFFFFF7F
(1746131811.979569) can0 09FD0205#FFFFFFFFFFFBFFFF
(1746131812.028804) can0 1DEFFF02#000CE5986C070202
(1746131812.028806) can0 0DF01003#EEF0FFFFFFFFFFFF
(1746131812.029917) can0 1DEFFF02#01410089000000FF
(1746131812.029918) can0 1DF11A03#EFFFFFFF2FFDFFFF
(1746131812.031055) can0 1DF11A04#EDFFFFFF2FFDFFFF
(1746131812.031056) can0 0DF80503#C02BEFFFFFFFFFFF
(1746131812.032224) can0 0DF80503#C1FFFFFFFFFFFFFF
(1746131812.032225) can0 0DF80503#C2FF7FFFFFFFFFFF
(1746131812.033368) can0 0DF80503#C3FFFF7FFFFFFFFF
(1746131812.033369) can0 0DF80503#C4FFFFFF7F00FCFF
(1746131812.034514) can0 0DF80503#C5FF7FFF7FFFFFFF
(1746131812.034515) can0 0DF80503#C67FFFFFFFFFFFFF
(1746131812.035651) can0 1DEFFF02#200CE5986C070202
(1746131812.038651) can0 1DEFFF02#21430000000000FF
(1746131812.038652) can0 1DEFFF02#4009E5986C070202
(1746131812.040088) can0 1DEFFF02#41280000FFFFFFFF
(1746131812.040089) can0 1DEFFF02#6009E5986C070202
(1746131812.042060) can0 1DEFFF02#61340000FFFFFFFF
(1746131812.042062) can0 1DEFFF02#8009E5986C070202
(1746131812.044352) can0 1DEFFF02#811B00FFFFFFFFFF
(1746131812.044352) can0 1DEFFF02#A009E5986C070202
(1746131812.046055) can0 1DEFFF02#A11D00FFFFFFFFFF
(1746131812.048064) can0 09F10501#20153038FFFF7FFF
(1746131812.049392) can0 09F10501#21FFFFFF0B11FFFF
(1746131812.049394) can0 09F10501#22FF7FFF7FFF7FFF
(1746131812.050557) can0 09F10501#23FFFFFFFFFFFFFF
(1746131812.065105) can0 09F11202#FFF1910000FF7FFD
(1746131812.078679) can0 09F80103#FFFFFF7FFFFFFF7F
(1746131812.078681) can0 0DF90304#ED3FFFFFFF7FFFFF
(1746131812.079832) can0 0DF90404#C022EDFFFFFFFFFF
(1746131812.079833) can0 0DF90404#C1FFFFFFFFFFFFFF
(1746131812.080994) can0 0DF90404#C2FFFFFFFFFFFFFF
(1746131812.080995) can0 0DF90404#C3FFFFFFFFFFFFFF
(1746131812.082140) can0 0DF90404#C47FFFFFFF7FFF7F
(1746131812.082141) can0 19FA0303#EFFFFF7FFF7FFF7F
(1746131812.083330) can0 19FA0403#A003EFFFFFFFFFFF
(1746131812.098511) can0 09F10D07#FF07FF7F52E1FFFF
(1746131812.098512) can0 09F10D00#FF07FF7F0000FFFF
(1746131812.128217) can0 09FD0205#FFFFFFFFFFF8FFFF
(1746131812.148915) can0 1DFF2C01#6017419F00000000
(1746131812.148917) can0 1DFF2C01#6100FFFFFF7FFFFF
(1746131812.150038) can0 1DFF2C01#62FFFFFFFFFF7FFF
(1746131812.150039) can0 1DFF2C01#63FFFFFFFFFFFFFF
(1746131812.180542) can0 1CFF1906#419F010B00000000
(1746131812.180543) can0 09F80103#FFFFFF7FFFFFFF7F
(1746131812.181649) can0 09F80203#EFFFFFFFFFFFFFFF
(1746131812.181650) can0 0DFE1105#800EFFFFFFFFFFFF
(1746131812.182829) can0 0DFE1105#81FFFFFFFFFFFFFF
(1746131812.182830) can0 0DFE1105#82FFFFFFFFFFFFFF
(1746131812.197424) can0 18FF3D01#419FFFFF02FFFFFF
(1746131812.197426) can0 09F10D07#FF07FF7F52E1FFFF
(1746131812.198556) can0 09F10D00#FF07FF7F0000FFFF
(1746131812.198558) can0 09F10D01#FF000000FF7FFFFF
(1746131812.205057) can0 09F11202#FF21920000FF7FFD
(1746131812.205058) can0 08FF0005#1399040500000200
(1746131812.279567) can0 09F80103#FFFFFF7FFFFFFF7F
(1746131812.279569) can0 09FD0205#FFFFFFFFFFFBFFFF
(1746131812.299146) can0 09F10501#40153038FFFF7FFF
(1746131812.299148) can0 09F10501#41FFFFFF0B11FFFF
(1746131812.300242) can0 09F10501#42FF7FFF7FFF7FFF
(1746131812.300243) can0 09F10501#43FFFFFFFFFFFFFF
(1746131812.301410) can0 09F10D07#FF07FF7F52E1FFFF
(1746131812.301411) can0 09F10D00#FF07FF7F0000FFFF
(1746131812.352108) can0 09F11202#FF66920000FF7FFD
(1746131812.378590) can0 09F80103#FFFFFF7FFFFFFF7F
(1746131812.398510) can0 18FF3D01#419FFFFF02FFFFFF
(1746131812.398512) can0 09F10D07#FF07FF7F52E1FFFF
(1746131812.399580) can0 09F10D00#FF07FF7F0000FFFF
(1746131812.399581) can0 09F10D01#FF000000FF7FFFFF
(1746131812.428149) can0 09F80203#EFFFFFFFFFFFFFFF
(1746131812.428150) can0 09FD0205#FFFFFFFFFFF8FFFF
(1746131812.455871) can0 08FF0005#1399040500000200
(1746131812.480663) can0 09F80103#FFFFFF7FFFFFFF7F
(1746131812.489538) can0 09F11202#FFA8920000FF7FFD
(1746131812.499254) can0 09F10501#60153038FFFF7FFF
(1746131812.499256) can0 09F10501#61FFFFFF0B11FFFF
(1746131812.500388) can0 09F10501#62FF7FFF7FFF7FFF
(1746131812.500390) can0 09F10501#63FFFFFFFFFFFFFF
(1746131812.523928) can0 04FF1901#419F640202010000
(1746131812.528881) can0 1DEFFF02#C00CE5986C070202
(1746131812.528883) can0 1DEFFF02#C1410089000000FF
(1746131812.531153) can0 1DEFFF02#E00CE5986C070202
(1746131812.531154) can0 1DEFFF02#E1430000000000FF
(1746131812.533176) can0 1DEFFF02#0009E5986C070202
(1746131812.534202) can0 1DEFFF02#01280000FFFFFFFF
(1746131812.534203) can0 1DEFFF02#2009E5986C070202
(1746131812.536457) can0 1DEFFF02#21340000FFFFFFFF
(1746131812.538661) can0 1DEFFF02#4009E5986C070202
(1746131812.538662) can0 1DEFFF02#411B00FFFFFFFFFF
(1746131812.540099) can0 1DEFFF02#6009E5986C070202
(1746131812.541116) can0 1DEFFF02#611D00FFFFFFFFFF
(1746131812.548805) can0 09F10D07#FF07FF7F52E1FFFF
(1746131812.548806) can0 09F10D00#FF07FF7F0000FFFF
(1746131812.579635) can0 09F80103#FFFFFF7FFFFFFF7F
(1746131812.579636) can0 09FD0205#FFFFFFFFFFFBFFFF
(1746131812.643201) can0 09F11202#FFE2920000FF7FFD
(1746131812.649282) can0 18FF3D01#419FFFFF02FFFFFF
(1746131812.649284) can0 09F10D01#FF000000FF7FFFFF
(1746131812.678695) can0 1CFF1906#419F010300000000
(1746131812.678696) can0 09F80103#FFFFFF7FFFFFFF7F
(1746131812.679851) can0 09F80203#EFFFFFFFFFFFFFFF
(1746131812.698475) can0 09F10501#80153038FFFF7FFF
(1746131812.698476) can0 09F10501#81FFFFFF0B11FFFF
(1746131812.699616) can0 09F10501#82FF7FFF7FFF7FFF
(1746131812.699617) can0 09F10501#83FFFFFFFFFFFFFF
(1746131812.700766) can0 09F10D07#FF07FF7F52E1FFFF
(1746131812.700767) can0 09F10D00#FF07FF7F0000FFFF
(1746131812.703491) can0 08FF0005#1399040500000200
(1746131812.728303) can0 09FD0205#FFFFFFFFFFF8FFFF
(1746131812.773255) can0 04FF1901#419F640A08000000
(1746131812.782566) can0 09F11202#FF57930000FF7FFD
(1746131812.783637) can0 09F80103#FFFFFF7FFFFFFF7F
(1746131812.799139) can0 09F10D07#FF07FF7F52E1FFFF
(1746131812.848139) can0 18FF3D01#419FFFFF02FFFFFF
(1746131812.848141) can0 09F10D00#FF07FF7F0000FFFF
(1746131812.849267) can0 09F10D01#FF000000FF7FFFFF
(1746131812.879419) can0 09FD0205#FFFFFFFFFFFBFFFF
(1746131812.898481) can0 09F10501#A0153038FFFF7FFF
(1746131812.898482) can0 09F10501#A1FFFFFF0B11FFFF
(1746131812.899583) can0 09F10501#A2FF7FFF7FFF7FFF
(1746131812.899584) can0 09F10501#A3FFFFFFFFFFFFFF
(1746131812.900754) can0 09F10D07#FF07FF7F52E1FFFF
(1746131812.928947) can0 09F80103#FFFFFF7FFFFFFF7F
(1746131812.928948) can0 09F80203#EFFFFFFFFFFFFFFF
(1746131812.930149) can0 09F11202#FF88930000FF7FFD
(1746131812.953680) can0 08FF0005#1399040500000200
(1746131812.999047) can0 09F10D00#FF07FF7F0000FFFF
(1746131813.028036) can0 0DF01003#EFF0FFFFFFFFFFFF
(1746131813.028038) can0 1DF11A03#F0FFFFFF2FFDFFFF
(1746131813.029158) can0 1DEFFF02#800CE5986C070202
(1746131813.029159) can0 1DF11A04#EEFFFFFF2FFDFFFF
(1746131813.030301) can0 09F80103#FFFFFF7FFFFFFF7F
(1746131813.030302) can0 0DF80503#E02BF0FFFFFFFFFF
(1746131813.031453) can0 0DF80503#E1FFFFFFFFFFFFFF
(1746131813.031454) can0 0DF80503#E2FF7FFFFFFFFFFF
(1746131813.032613) can0 0DF80503#E3FFFF7FFFFFFFFF
(1746131813.032614) can0 0DF80503#E4FFFFFF7F00FCFF
(1746131813.033753) can0 0DF80503#E5FF7FFF7FFFFFFF
(1746131813.033754) can0 0DF80503#E67FFFFFFFFFFFFF
(1746131813.034909) can0 09FD0205#FFFFFFFFFFF8FFFF
(1746131813.034910) can0 1DEFFF02#81410089000000FF
(1746131813.036175) can0 1DEFFF02#A00CE5986C070202
(1746131813.038712) can0 1DEFFF02#A1430000000000FF
(1746131813.038714) can0 1DEFFF02#C009E5986C070202
(1746131813.040205) can0 1DEFFF02#C1280000FFFFFFFF
(1746131813.040206) can0 1DEFFF02#E009E5986C070202
(1746131813.042472) can0 1DEFFF02#E1340000FFFFFFFF
(1746131813.042474) can0 1DEFFF02#0009E5986C070202
(1746131813.044194) can0 1DEFFF02#011B00FFFFFFFFFF
(1746131813.044195) can0 1DEFFF02#2009E5986C070202
(1746131813.046208) can0 1DEFFF02#211D00FFFFFFFFFF
(1746131813.048179) can0 18FF3D01#419FFFFF02FFFFFF
(1746131813.049686) can0 09F10D07#FF07FF7F52E1FFFF
(1746131813.049687) can0 09F10D01#FF000000FF7FFFFF
(1746131813.076192) can0 09F11202#FF7B930000FF7FFD
(1746131813.080364) can0 0DF90304#EE3FFFFFFF7FFFFF
(1746131813.080365) can0 0DF90404#E022EEFFFFFFFFFF
(1746131813.081537) can0 0DF90404#E1FFFFFFFFFFFFFF
(1746131813.081538) can0 0DF90404#E2FFFFFFFFFFFFFF
(1746131813.082703) can0 0DF90404#E3FFFFFFFFFFFFFF
(1746131813.082704) can0 0DF90404#E47FFFFFFF7FFF7F
(1746131813.083872) can0 19FA0303#F0FFFF7FFF7FFF7F
(1746131813.083873) can0 19FA0403#C003F0FFFFFFFFFF
(1746131813.098653) can0 09F10D00#FF07FF7F0000FFFF
(1746131813.129927) can0 09F80103#FFFFFF7FFFFFFF7F
(1746131813.149199) can0 09F10501#C0153038FFFF7FFF
(1746131813.149201) can0 09F10501#C1FFFFFF0B11FFFF
(1746131813.150332) can0 09F10501#C2FF7FFF7FFF7FFF
(1746131813.150333) can0 09F10501#C3FFFFFFFFFFFFFF
(1746131813.151429) can0 09F10D07#FF07FF7F52E1FFFF
(1746131813.151430) can0 1DFF2C01#8017419F00000000
(1746131813.152639) can0 1DFF2C01#8100FFFFFF7FFFFF
(1746131813.152640) can0 1DFF2C01#82FFFFFFFFFF7FFF
(1746131813.153838) can0 1DFF2C01#83FFFFFFFFFFFFFF
(1746131813.179420) can0 1CFF1906#419F010B00000000
(1746131813.179422) can0 09F80203#F0FFFFFFFFFFFFFF
(1746131813.180601) can0 09FD0205#FFFFFFFFFFFBFFFF
(1746131813.180602) can0 0DFE1105#A00EFFFFFFFFFFFF
(1746131813.181770) can0 0DFE1105#A1FFFFFFFFFFFFFF
(1746131813.181771) can0 0DFE1105#A2FFFFFFFFFFFFFF
(1746131813.198646) can0 09F10D00#FF07FF7F0000FFFF
(1746131813.204162) can0 08FF0005#1399040500000200
(1746131813.219293) can0 09F11202#FF7C930000FF7FFD
(1746131813.228919) can0 09F80103#FFFFFF7FFFFFFF7F
(1746131813.249233) can0 18FF3D01#419FFFFF02FFFFFF
(1746131813.249236) can0 09F10D07#FF07FF7F52E1FFFF
(1746131813.250369) can0 09F10D01#FF000000FF7FFFFF
(1746131813.297982) can0 09F10D00#FF07FF7F0000FFFF
(1746131813.330798) can0 09F80103#FFFFFF7FFFFFFF7F
(1746131813.330800) can0 09FD0205#FFFFFFFFFFF8FFFF
(1746131813.348341) can0 09F10501#E0153038FFFF7FFF
(1746131813.348344) can0 09F10501#E1FFFFFF0B11FFFF
(1746131813.349527) can0 09F10501#E2FF7FFF7FFF7FFF
(1746131813.349527) can0 09F10501#E3FFFFFFFFFFFFFF
(1746131813.350697) can0 09F10D07#FF07FF7F52E1FFFF
(1746131813.369603) can0 09F11202#FF14930000FF7FFD
(1746131813.371395) can0 1DEFFF02#400AE598EE040404
(1746131813.371397) can0 1DEFFF02#4103000000FFFFFF
(1746131813.429819) can0 09F80103#FFFFFF7FFFFFFF7F
(1746131813.429821) can0 09F80203#F0FFFFFFFFFFFFFF
(1746131813.449108) can0 18FF3D01#419FFFFF02FFFFFF
(1746131813.449110) can0 09F10D00#FF07FF7F0000FFFF
(1746131813.450219) can0 09F10D01#FF000000FF7FFFFF
(1746131813.454490) can0 08FF0005#1399040500000200
(1746131813.479362) can0 09FD0205#FFFFFFFFFFFBFFFF
(1746131813.498041) can0 09F10D07#FF07FF7F52E1FFFF
(1746131813.509843) can0 09F11202#FFF6920000FF7FFD
(1746131813.524049) can0 04FF1901#419F640202010000
(1746131813.528786) can0 09F80103#FFFFFF7FFFFFFF7F
(1746131813.528787) can0 1DEFFF02#600CE5986C070202
(1746131813.529908) can0 1DF90504#4027FFFF0200FFFF
(1746131813.529910) can0 1DEFFF02#61410089000000FF
(1746131813.531052) can0 1DF90504#41FFFF01030100FF
(1746131813.531053) can0 1DEFFF02#800CE5986C070202
(1746131813.532196) can0 1DF90504#420000030100FFFF
(1746131813.532197) can0 1DF90504#43FF7FFFFFFF7F01
(1746131813.533363) can0 1DEFFF02#81430000000000FF
(1746131813.533363) can0 1DF90504#4400030100FFFFFF
(1746131813.534498) can0 1DEFFF02#A009E5986C070202
(1746131813.534499) can0 1DF90504#457FFFFFFF7FFFFF
(1746131813.535623) can0 1DEFFF02#A1280000FFFFFFFF
(1746131813.538641) can0 1DEFFF02#C009E5986C070202
(1746131813.538642) can0 1DEFFF02#C1340000FFFFFFFF
(1746131813.540126) can0 1DEFFF02#E009E5986C070202
(1746131813.541100) can0 1DEFFF02#E11B00FFFFFFFFFF
(1746131813.541101) can0 1DEFFF02#0009E5986C070202
(1746131813.543093) can0 1DEFFF02#011D00FFFFFFFFFF
(1746131813.549241) can0 09F10501#00153038FFFF7FFF
(1746131813.549242) can0 09F10501#01FFFFFF0B11FFFF
(1746131813.550385) can0 09F10501#02FF7FFF7FFF7FFF
(1746131813.550386) can0 09F10501#03FFFFFFFFFFFFFF
(1746131813.551573) can0 09F10D00#FF07FF7F0000FFFF
(1746131813.598213) can0 09F10D07#FF07FF7F52E1FFFF
(1746131813.627928) can0 09F80103#FFFFFF7FFFFFFF7F
(1746131813.627930) can0 09FD0205#FFFFFFFFFFF8FFFF
(1746131813.648522) can0 18FF3D01#419FFFFF02FFFFFF
(1746131813.648524) can0 09F10D00#FF07FF7F0000FFFF
(1746131813.649636) can0 09F10D01#FF000000FF7FFFFF
(1746131813.649637) can0 09F11202#FF9A920000FF7FFD
(1746131813.680318) can0 1CFF1906#419F010300000000
(1746131813.680320) can0 09F80203#F0FFFFFFFFFFFFFF
(1746131813.705042) can0 08FF0005#1399040500000200
(1746131813.729845) can0 09F80103#FFFFFF7FFFFFFF7F
(1746131813.749241) can0 09F10D07#FF07FF7F52E1FFFF
(1746131813.773630) can0 04FF1901#419F640A08000000
(1746131813.779435) can0 09FD0205#FFFFFFFFFFFBFFFF
(1746131813.798230) can0 09F10501#20153038FFFF7FFF
(1746131813.798232) can0 09F10501#21FFFFFF0B11FFFF
(1746131813.799385) can0 09F10501#22FF7FFF7FFF7FFF
(1746131813.799386) can0 09F11202#FF60920000FF7FFD
(1746131813.800527) can0 09F10501#23FFFFFFFFFFFFFF
(1746131813.800528) can0 09F10D00#FF07FF7F0000FFFF
(1746131813.828881) can0 09F80103#FFFFFF7FFFFFFF7F
(1746131813.848835) can0 18FF3D01#419FFFFF02FFFFFF
(1746131813.848837) can0 09F10D07#FF07FF7F52E1FFFF
(1746131813.849964) can0 09F10D01#FF000000FF7FFFFF
(1746131813.898969) can0 09F10D00#FF07FF7F0000FFFF
(1746131813.930735) can0 09F80103#FFFFFF7FFFFFFF7F
(1746131813.930737) can0 09F80203#F0FFFFFFFFFFFFFF
(1746131813.931875) can0 09FD0205#FFFFFFFFFFF8FFFF
(1746131813.936197) can0 09F11202#FF24920000FF7FFD
(1746131813.955396) can0 08FF0005#1399040500000200
(1746131813.998319) can0 09F10501#40153038FFFF7FFF
(1746131813.998321) can0 09F10501#41FFFFFF0B11FFFF
(1746131813.999381) can0 09F10501#42FF7FFF7FFF7FFF
(1746131813.999383) can0 09F10501#43FFFFFFFFFFFFFF
(1746131814.000590) can0 09F10D07#FF07FF7F52E1FFFF
(1746131814.000591) can0 09F10D00#FF07FF7F0000FFFF
(1746131814.029191) can0 1DEFFF02#200CE5986C070202
(1746131814.029193) can0 0DF01003#F0F0FFFFFFFFFFFF
(1746131814.030385) can0 1DEFFF02#21410089000000FF
(1746131814.030386) can0 1DF11A03#F1FFFFFF2FFDFFFF
(1746131814.031529) can0 1DEFFF02#400CE5986C070202
(1746131814.031530) can0 1DF11A04#EFFFFFFF2FFDFFFF
(1746131814.032679) can0 09F80103#FFFFFF7FFFFFFF7F
(1746131814.032680) can0 0DF80503#002BF1FFFFFFFFFF
(1746131814.033867) can0 0DF80503#01FFFFFFFFFFFFFF
(1746131814.033868) can0 0DF80503#02FF7FFFFFFFFFFF
(1746131814.035028) can0 0DF80503#03FFFF7FFFFFFFFF
(1746131814.035029) can0 0DF80503#04FFFFFF7F00FCFF
(1746131814.036181) can0 0DF80503#05FF7FFF7FFFFFFF
(1746131814.036182) can0 0DF80503#067FFFFFFFFFFFFF
(1746131814.037278) can0 1DEFFF02#41430000000000FF
(1746131814.038848) can0 1DEFFF02#6009E5986C070202
(1746131814.038850) can0 1DEFFF02#61280000FFFFFFFF
(1746131814.041195) can0 1DEFFF02#8009E5986C070202
(1746131814.042229) can0 1DEFFF02#81340000FFFFFFFF
(1746131814.042231) can0 1DEFFF02#A009E5986C070202
(1746131814.044221) can0 1DEFFF02#A11B00FFFFFFFFFF
(1746131814.044221) can0 1DEFFF02#C009E5986C070202
(1746131814.046203) can0 1DEFFF02#C11D00FFFFFFFFFF
(1746131814.049865) can0 18FF3D01#419FFFFF02FFFFFF
(1746131814.049866) can0 09F10D01#FF000000FF7FFFFF
(1746131814.079308) can0 0DF90304#EF3FFFFFFF7FFFFF
(1746131814.079310) can0 0DF90404#0022EFFFFFFFFFFF
(1746131814.080534) can0 0DF90404#01FFFFFFFFFFFFFF
(1746131814.080536) can0 0DF90404#02FFFFFFFFFFFFFF
(1746131814.081694) can0 0DF90404#03FFFFFFFFFFFFFF
(1746131814.081696) can0 0DF90404#047FFFFFFF7FFF7F
(1746131814.082860) can0 19FA0303#F1FFFF7FFF7FFF7F
(1746131814.082862) can0 09F11202#FFEB910000FF7FFD
(1746131814.084030) can0 19FA0403#E003F1FFFFFFFFFF
(1746131814.084032) can0 09FD0205#FFFFFFFFFFFBFFFF
(1746131814.128831) can0 09F80103#FFFFFF7FFFFFFF7F
(1746131814.148355) can0 09F10D07#FF07FF7F52E1FFFF
(1746131814.148357) can0 09F10D00#FF07FF7F0000FFFF
(1746131814.149495) can0 1DFF2C01#A017419F00000000
(1746131814.149497) can0 1DFF2C01#A100FFFFFF7FFFFF
(1746131814.150659) can0 1DFF2C01#A2FFFFFFFFFF7FFF
(1746131814.150660) can0 1DFF2C01#A3FFFFFFFFFFFFFF
(1746131814.178411) can0 1CFF1906#419F010B00000000
(1746131814.178413) can0 09F80203#F1FFFFFFFFFFFFFF
(1746131814.179548) can0 0DFE1105#C00EFFFFFFFFFFFF
(1746131814.179549) can0 0DFE1105#C1FFFFFFFFFFFFFF
(1746131814.180736) can0 0DFE1105#C2FFFFFFFFFFFFFF
(1746131814.199063) can0 09F10501#60153038FFFF7FFF
(1746131814.199065) can0 09F10501#61FFFFFF0B11FFFF
(1746131814.200223) can0 09F10501#62FF7FFF7FFF7FFF
(1746131814.200224) can0 09F10501#63FFFFFFFFFFFFFF
(1746131814.203131) can0 08FF0005#1399040500000200
(1746131814.228737) can0 09F11202#FFB7910000FF7FFD
(1746131814.230640) can0 09F80103#FFFFFF7FFFFFFF7F
(1746131814.230641) can0 09FD0205#FFFFFFFFFFF8FFFF
(1746131814.248245) can0 09F10D07#FF07FF7F52E1FFFF
(1746131814.248247) can0 09F10D00#FF07FF7F0000FFFF
(1746131814.298540) can0 18FF3D01#419FFFFF02FFFFFF
(1746131814.298541) can0 09F10D01#FF000000FF7FFFFF
(1746131814.329890) can0 09F80103#FFFFFF7FFFFFFF7F
(1746131814.371173) can0 09F11202#FF95910000FF7FFD
(1746131814.379147) can0 09FD0205#FFFFFFFFFFFBFFFF
(1746131814.398971) can0 09F10D07#FF07FF7F52E1FFFF
(1746131814.398973) can0 09F10D00#FF07FF7F0000FFFF
(1746131814.428675) can0 09F80203#F1FFFFFFFFFFFFFF
(1746131814.447187) can0 09F10501#80153038FFFF7FFF
(1746131814.447189) can0 09F10501#81FFFFFF0B11FFFF
(1746131814.448278) can0 09F10501#82FF7FFF7FFF7FFF
(1746131814.448279) can0 09F10501#83FFFFFFFFFFFFFF
(1746131814.453485) can0 08FF0005#1399040500000200
(1746131814.478344) can0 09F80103#FFFFFF7FFFFFFF7F
(1746131814.498449) can0 18FF3D01#419FFFFF02FFFFFF
(1746131814.498451) can0 09F10D07#FF07FF7F52E1FFFF
(1746131814.499544) can0 09F10D00#FF07FF7F0000FFFF
(1746131814.499545) can0 09F10D01#FF000000FF7FFFFF
(1746131814.524171) can0 09F11202#FF52910000FF7FFD
(1746131814.530640) can0 09FD0205#FFFFFFFFFFF8FFFF
(1746131814.538797) can0 1DEFFF02#E00CE5986C070202
(1746131814.538798) can0 1DEFFF02#E1410089000000FF
(1746131814.541205) can0 1DEFFF02#000CE5986C070202
(1746131814.542227) can0 1DEFFF02#01430000000000FF
(1746131814.542228) can0 1DEFFF02#2009E5986C070202
(1746131814.544236) can0 1DEFFF02#21280000FFFFFFFF
(1746131814.545387) can0 1DEFFF02#4009E5986C070202
(1746131814.545388) can0 1DEFFF02#41340000FFFFFFFF
(1746131814.548676) can0 1DEFFF02#6009E5986C070202
(1746131814.548678) can0 1DEFFF02#611B00FFFFFFFFFF
(1746131814.550138) can0 1DEFFF02#8009E5986C070202
(1746131814.551129) can0 1DEFFF02#811D00FFFFFFFFFF
(1746131814.573717) can0 04FF1901#419F640202010000
(1746131814.580153) can0 09F80103#FFFFFF7FFFFFFF7F
(1746131814.648411) can0 09F10501#A0153038FFFF7FFF
(1746131814.648412) can0 09F10501#A1FFFFFF0B11FFFF
(1746131814.649502) can0 09F10501#A2FF7FFF7FFF7FFF
(1746131814.649503) can0 09F10501#A3FFFFFFFFFFFFFF
(1746131814.650666) can0 09F10D07#FF07FF7F52E1FFFF
(1746131814.650667) can0 09F10D00#FF07FF7F0000FFFF
(1746131814.662146) can0 09F11202#FF4D910000FF7FFD
(1746131814.679213) can0 1CFF1906#419F010300000000
(1746131814.679214) can0 09F80103#FFFFFF7FFFFFFF7F
(1746131814.680497) can0 09F80203#F1FFFFFFFFFFFFFF
(1746131814.680497) can0 09FD0205#FFFFFFFFFFFBFFFF
(1746131814.704047) can0 08FF0005#1399040500000200
(1746131814.704049) can0 1DFF0005#00061399FF050001
(1746131814.747198) can0 18FF3D01#419FFFFF02FFFFFF
(1746131814.747200) can0 09F10D01#FF000000FF7FFFFF
(1746131814.773780) can0 04FF1901#419F640A08000000
(1746131814.781381) can0 09F80103#FFFFFF7FFFFFFF7F
(1746131814.798289) can0 09F10D07#FF07FF7F52E1FFFF
(1746131814.798291) can0 09F10D00#FF07FF7F0000FFFF
(1746131814.808901) can0 09F11202#FF56910000FF7FFD
(1746131814.808902) can0 1DEFFF02#A00AE598EE040404
(1746131814.810522) can0 1DEFFF02#A103000000FFFFFF
(1746131814.830716) can0 09FD0205#FFFFFFFFFFF8FFFF
(1746131814.848902) can0 09F10501#C0153038FFFF7FFF
(1746131814.848904) can0 09F10501#C1FFFFFF0B11FFFF
(1746131814.850008) can0 09F10501#C2FF7FFF7FFF7FFF
(1746131814.850010) can0 09F10501#C3FFFFFFFFFFFFFF
(1746131814.899125) can0 09F10D07#FF07FF7F52E1FFFF
(1746131814.899127) can0 09F10D00#FF07FF7F0000FFFF
(1746131814.929606) can0 09F80103#FFFFFF7FFFFFFF7F
(1746131814.929608) can0 09F80203#F1FFFFFFFFFFFFFF
(1746131814.947288) can0 18FF3D01#419FFFFF02FFFFFF
(1746131814.947289) can0 09F10D01#FF000000FF7FFFFF
(1746131814.952231) can0 09F11202#FF47910000FF7FFD
(1746131814.954395) can0 08FF0005#1399040500000200
(1746131814.979190) can0 09FD0205#FFFFFFFFFFFBFFFF
(1746131814.998511) can0 09F10D07#FF07FF7F52E1FFFF
(1746131814.998512) can0 09F10D00#FF07FF7F0000FFFF
(1746131815.028653) can0 0DF01003#F1F0FFFFFFFFFFFF
(1746131815.028655) can0 1DF11A03#F2FFFFFF2FFDFFFF
(1746131815.029797) can0 1DF11A04#F0FFFFFF2FFDFFFF
(1746131815.029799) can0 09F80103#FFFFFF7FFFFFFF7F
(1746131815.030939) can0 0DF80503#202BF2FFFFFFFFFF
(1746131815.030942) can0 0DF80503#21FFFFFFFFFFFFFF
(1746131815.032128) can0 0DF80503#22FF7FFFFFFFFFFF
(1746131815.032129) can0 0DF80503#23FFFF7FFFFFFFFF
(1746131815.033274) can0 0DF80503#24FFFFFF7F00FCFF
(1746131815.033275) can0 0DF80503#25FF7FFF7FFFFFFF
(1746131815.034443) can0 0DF80503#267FFFFFFFFFFFFF
(1746131815.039126) can0 1DEFFF02#C00CE5986C070202
(1746131815.039128) can0 1DEFFF02#C1410089000000FF
(1746131815.041148) can0 1DEFFF02#E00CE5986C070202
(1746131815.041150) can0 1DEFFF02#E1430000000000FF
(1746131815.043231) can0 1DEFFF02#0009E5986C070202
(1746131815.044130) can0 1DEFFF02#01280000FFFFFFFF
(1746131815.044130) can0 1DEFFF02#2009E5986C070202
(1746131815.046125) can0 1DEFFF02#21340000FFFFFFFF
(1746131815.048071) can0 1DEFFF02#4009E5986C070202
(1746131815.049380) can0 1DEFFF02#411B00FFFFFFFFFF
(1746131815.050399) can0 1DEFFF02#6009E5986C070202
(1746131815.050400) can0 1DEFFF02#611D00FFFFFFFFFF
(1746131815.078130) can0 0DF90304#F03FFFFFFF7FFFFF
(1746131815.078132) can0 0DF90404#2022F0FFFFFFFFFF
(1746131815.079236) can0 0DF90404#21FFFFFFFFFFFFFF
(1746131815.079237) can0 0DF90404#22FFFFFFFFFFFFFF
(1746131815.080419) can0 0DF90404#23FFFFFFFFFFFFFF
(1746131815.080420) can0 0DF90404#247FFFFFFF7FFF7F
(1746131815.081580) can0 19FA0303#F2FFFF7FFF7FFF7F
(1746131815.081581) can0 19FA0403#0003F2FFFFFFFFFF
(1746131815.089883) can0 09F11202#FF4B910000FF7FFD
(1746131815.099334) can0 09F10501#E0153038FFFF7FFF
(1746131815.099335) can0 09F10501#E1FFFFFF0B11FFFF
(1746131815.100463) can0 09F10501#E2FF7FFF7FFF7FFF
(1746131815.100466) can0 09F10501#E3FFFFFFFFFFFFFF
(1746131815.101600) can0 09F10D07#FF07FF7F52E1FFFF
(1746131815.101601) can0 09F10D00#FF07FF7F0000FFFF
(1746131815.130446) can0 09F80103#FFFFFF7FFFFFFF7F
(1746131815.130447) can0 09FD0205#FFFFFFFFFFF8FFFF
(1746131815.148655) can0 18FF3D01#419FFFFF02FFFFFF
(1746131815.148657) can0 09F10D01#FF000000FF7FFFFF
(1746131815.149755) can0 1DFF2C01#C017419F00000000
(1746131815.149757) can0 1DFF2C01#C100FFFFFF7FFFFF
(1746131815.150943) can0 1DFF2C01#C2FFFFFFFFFF7FFF
(1746131815.150943) can0 1DFF2C01#C3FFFFFFFFFFFFFF
(1746131815.179988) can0 1CFF1906#419F010B00000000
(1746131815.179990) can0 09F80203#F2FFFFFFFFFFFFFF
(1746131815.181143) can0 0DFE1105#E00EFFFFFFFFFFFF
(1746131815.181145) can0 0DFE1105#E1FFFFFFFFFFFFFF
(1746131815.182275) can0 0DFE1105#E2FFFFFFFFFFFFFF
(1746131815.204712) can0 08FF0005#1399040500000200
(1746131815.229483) can0 09F80103#FFFFFF7FFFFFFF7F
(1746131815.238714) can0 09F11202#FF4B910000FF7FFD
(1746131815.248335) can0 09F10D07#FF07FF7F52E1FFFF
(1746131815.248336) can0 09F10D00#FF07FF7F0000FFFF
(1746131815.279064) can0 09FD0205#FFFFFFFFFFFBFFFF
(1746131815.298701) can0 09F10501#00153038FFFF7FFF
(1746131815.298703) can0 09F10501#01FFFFFF0B11FFFF
(1746131815.299824) can0 09F10501#02FF7FFF7FFF7FFF
(1746131815.299825) can0 09F10501#03FFFFFFFFFFFFFF
(1746131815.331522) can0 09F80103#FFFFFF7FFFFFFF7F
(1746131815.349028) can0 09F10D07#FF07FF7F52E1FFFF
(1746131815.349030) can0 09F10D00#FF07FF7F0000FFFF
(1746131815.378771) can0 09F11202#FF5D910000FF7FFD
(1746131815.397142) can0 18FF3D01#419FFFFF02FFFFFF
(1746131815.397144) can0 09F10D01#FF000000FF7FFFFF
(1746131815.430457) can0 09F80203#F2FFFFFFFFFFFFFF
(1746131815.430459) can0 09FD0205#FFFFFFFFFFF8FFFF
(1746131815.448370) can0 09F10D07#FF07FF7F52E1FFFF
(1746131815.448372) can0 09F10D00#FF07FF7F0000FFFF
(1746131815.455161) can0 08FF0005#1399040500000200
(1746131815.479911) can0 09F80103#FFFFFF7FFFFFFF7F
(1746131815.498672) can0 09F10501#20153038FFFF7FFF
(1746131815.498674) can0 09F10501#21FFFFFF0B11FFFF
(1746131815.499793) can0 09F10501#22FF7FFF7FFF7FFF
(1746131815.499793) can0 09F10501#23FFFFFFFFFFFFFF
(1746131815.522191) can0 09F11202#FF61910000FF7FFD
(1746131815.538885) can0 1DEFFF02#800CE5986C070202
(1746131815.538886) can0 1DEFFF02#81410089000000FF
(1746131815.541158) can0 1DEFFF02#A00CE5986C070202
(1746131815.542148) can0 1DEFFF02#A1430000000000FF
(1746131815.542149) can0 1DEFFF02#C009E5986C070202
(1746131815.544125) can0 1DEFFF02#C1280000FFFFFFFF
(1746131815.544126) can0 1DEFFF02#E009E5986C070202
(1746131815.546164) can0 1DEFFF02#E1340000FFFFFFFF
(1746131815.547229) can0 09F10D07#FF07FF7F52E1FFFF
(1746131815.547230) can0 09F10D00#FF07FF7F0000FFFF
(1746131815.548710) can0 1DEFFF02#0009E5986C070202
(1746131815.548711) can0 1DEFFF02#011B00FFFFFFFFFF
(1746131815.550125) can0 1DEFFF02#2009E5986C070202
(1746131815.551125) can0 1DEFFF02#211D00FFFFFFFFFF
(1746131815.574095) can0 04FF1901#419F640202010000
(1746131815.578965) can0 09F80103#FFFFFF7FFFFFFF7F
(1746131815.578967) can0 09FD0205#FFFFFFFFFFFBFFFF
(1746131815.598566) can0 18FF3D01#419FFFFF02FFFFFF
(1746131815.598569) can0 09F10D01#FF000000FF7FFFFF
(1746131815.672233) can0 09F11202#FF5D910000FF7FFD
(1746131815.678058) can0 1CFF1906#419F010300000000
(1746131815.678059) can0 09F80103#FFFFFF7FFFFFFF7F
(1746131815.679301) can0 09F80203#F2FFFFFFFFFFFFFF
(1746131815.699144) can0 09F10D07#FF07FF7F52E1FFFF
(1746131815.699146) can0 09F10D00#FF07FF7F0000FFFF
(1746131815.702877) can0 08FF0005#1399040500000200
(1746131815.730505) can0 09FD0205#FFFFFFFFFFF8FFFF
(1746131815.748299) can0 09F10501#40153038FFFF7FFF
(1746131815.748301) can0 09F10501#41FFFFFF0B11FFFF
(1746131815.749374) can0 09F10501#42FF7FFF7FFF7FFF
(1746131815.749375) can0 09F10501#43FFFFFFFFFFFFFF
(1746131815.774206) can0 04FF1901#419F640A08000000
(1746131815.780012) can0 09F80103#FFFFFF7FFFFFFF7F
(1746131815.798728) can0 18FF3D01#419FFFFF02FFFFFF
(1746131815.798729) can0 09F10D07#FF07FF7F52E1FFFF
(1746131815.799864) can0 09F10D00#FF07FF7F0000FFFF
(1746131815.799865) can0 09F10D01#FF000000FF7FFFFF
(1746131815.812265) can0 09F11202#FF49910000FF7FFD
(1746131815.878967) can0 09F80103#FFFFFF7FFFFFFF7F
(1746131815.878969) can0 09FD0205#FFFFFFFFFFFBFFFF
(1746131815.928561) can0 09F80203#F2FFFFFFFFFFFFFF
(1746131815.948225) can0 09F10501#60153038FFFF7FFF
(1746131815.948227) can0 09F10501#61FFFFFF0B11FFFF
(1746131815.949332) can0 09F10501#62FF7FFF7FFF7FFF
(1746131815.949333) can0 09F10501#63FFFFFFFFFFFFFF
(1746131815.950513) can0 09F10D07#FF07FF7F52E1FFFF
(1746131815.950514) can0 09F10D00#FF07FF7F0000FFFF
(1746131815.953276) can0 08FF0005#1399040500000200
(1746131815.964281) can0 09F11202#FF39910000FF7FFD
(1746131815.978017) can0 09F80103#FFFFFF7FFFFFFF7F
(1746131815.998806) can0 18FF3D01#419FFFFF02FFFFFF
(1746131815.998808) can0 09F10D01#FF000000FF7FFFFF
(1746131816.030444) can0 0DF01003#F2F0FFFFFFFFFFFF
(1746131816.030445) can0 1DF11A03#F3FFFFFF2FFDFFFF
(1746131816.031576) can0 1DF11A04#F1FFFFFF2FFDFFFF
(1746131816.031578) can0 0DF80503#402BF3FFFFFFFFFF
(1746131816.032750) can0 0DF80503#41FFFFFFFFFFFFFF
(1746131816.032751) can0 0DF80503#42FF7FFFFFFFFFFF
(1746131816.033892) can0 0DF80503#43FFFF7FFFFFFFFF
(1746131816.033893) can0 0DF80503#44FFFFFF7F00FCFF
(1746131816.035067) can0 0DF80503#45FF7FFF7FFFFFFF
(1746131816.035067) can0 0DF80503#467FFFFFFFFFFFFF
(1746131816.036232) can0 09FD0205#FFFFFFFFFFF8FFFF
(1746131816.038901) can0 1DEFFF02#400CE5986C070202
(1746131816.038903) can0 1DEFFF02#41410089000000FF
(1746131816.041236) can0 1DEFFF02#600CE5986C070202
(1746131816.042269) can0 1DEFFF02#61430000000000FF
(1746131816.042270) can0 1DEFFF02#8009E5986C070202
(1746131816.044287) can0 1DEFFF02#81280000FFFFFFFF
(1746131816.044288) can0 1DEFFF02#A009E5986C070202
(1746131816.046213) can0 1DEFFF02#A1340000FFFFFFFF
(1746131816.047900) can0 09F10D07#FF07FF7F52E1FFFF
(1746131816.047901) can0 09F10D00#FF07FF7F0000FFFF
(1746131816.048898) can0 1DEFFF02#C009E5986C070202
(1746131816.050295) can0 1DEFFF02#C11B00FFFFFFFFFF
(1746131816.050296) can0 1DEFFF02#E009E5986C070202
(1746131816.052270) can0 1DEFFF02#E11D00FFFFFFFFFF
(1746131816.079909) can0 09F80103#FFFFFF7FFFFFFF7F
(1746131816.079910) can0 0DF90304#F13FFFFFFF7FFFFF
(1746131816.081024) can0 0DF90404#4022F1FFFFFFFFFF
(1746131816.081024) can0 0DF90404#41FFFFFFFFFFFFFF
(1746131816.082212) can0 0DF90404#42FFFFFFFFFFFFFF
(1746131816.082213) can0 0DF90404#43FFFFFFFFFFFFFF
(1746131816.083354) can0 0DF90404#447FFFFFFF7FFF7F
(1746131816.083354) can0 19FA0303#F3FFFF7FFF7FFF7F
(1746131816.084542) can0 19FA0403#2003F3FFFFFFFFFF
(1746131816.105182) can0 09F11202#FF4A910000FF7FFD
(1746131816.148769) can0 09F10501#80153038FFFF7FFF
(1746131816.148770) can0 09F10501#81FFFFFF0B11FFFF
(1746131816.149874) can0 09F10501#82FF7FFF7FFF7FFF
(1746131816.149875) can0 09F10501#83FFFFFFFFFFFFFF
(1746131816.151021) can0 09F10D07#FF07FF7F52E1FFFF
(1746131816.151022) can0 09F10D00#FF07FF7F0000FFFF
(1746131816.152190) can0 1DFF2C01#E017419F00000000
(1746131816.152191) can0 1DFF2C01#E100FFFFFF7FFFFF
(1746131816.153310) can0 1DFF2C01#E2FFFFFFFFFF7FFF
(1746131816.153311) can0 1DFF2C01#E3FFFFFFFFFFFFFF
(1746131816.179034) can0 1CFF1906#419F010B00000000
(1746131816.179036) can0 09F80103#FFFFFF7FFFFFFF7F
(1746131816.180152) can0 09F80203#F3FFFFFFFFFFFFFF
(1746131816.180154) can0 09FD0205#FFFFFFFFFFFBFFFF
(1746131816.181372) can0 0DFE1105#000EFFFFFFFFFFFF
(1746131816.181373) can0 0DFE1105#01FFFFFFFFFFFFFF
(1746131816.182547) can0 0DFE1105#02FFFFFFFFFFFFFF
(1746131816.203791) can0 08FF0005#1399040500000200
(1746131816.248710) can0 18FF3D01#419FFFFF02FFFFFF
(1746131816.248712) can0 09F10D07#FF07FF7F52E1FFFF
(1746131816.249794) can0 09F10D00#FF07FF7F0000FFFF
(1746131816.249794) can0 09F10D01#FF000000FF7FFFFF
(1746131816.250936) can0 09F11202#FF47910000FF7FFD
(1746131816.252148) can0 1DEFFF02#000AE598EE040404
(1746131816.253184) can0 1DEFFF02#0103000000FFFFFF
(1746131816.277989) can0 09F80103#FFFFFF7FFFFFFF7F
(1746131816.330427) can0 09FD0205#FFFFFFFFFFF8FFFF
(1746131816.379728) can0 09F80103#FFFFFF7FFFFFFF7F
(1746131816.398093) can0 09F10501#A0153038FFFF7FFF
(1746131816.398094) can0 09F10501#A1FFFFFF0B11FFFF
(1746131816.399216) can0 09F10501#A2FF7FFF7FFF7FFF
(1746131816.399217) can0 09F10501#A3FFFFFFFFFFFFFF
(1746131816.400332) can0 09F10D07#FF07FF7F52E1FFFF
(1746131816.400333) can0 09F10D00#FF07FF7F0000FFFF
(1746131816.401478) can0 09F11202#FF55910000FF7FFD
(1746131816.429268) can0 09F80203#F3FFFFFFFFFFFFFF
(1746131816.448745) can0 18FF3D01#419FFFFF02FFFFFF
(1746131816.448747) can0 09F10D01#FF000000FF7FFFFF
(1746131816.454175) can0 08FF0005#1399040500000200
(1746131816.478953) can0 09F80103#FFFFFF7FFFFFFF7F
(1746131816.478956) can0 09FD0205#FFFFFFFFFFFBFFFF
(1746131816.499082) can0 09F10D07#FF07FF7F52E1FFFF
(1746131816.499084) can0 09F10D00#FF07FF7F0000FFFF
(1746131816.538904) can0 1DEFFF02#200CE5986C070202
(1746131816.538906) can0 1DEFFF02#21410089000000FF
(1746131816.541470) can0 1DEFFF02#400CE5986C070202
(1746131816.541471) can0 1DEFFF02#41430000000000FF
(1746131816.543144) can0 1DEFFF02#6009E5986C070202
(1746131816.544184) can0 1DEFFF02#61280000FFFFFFFF
(1746131816.544185) can0 1DEFFF02#8009E5986C070202
(1746131816.546188) can0 1DEFFF02#81340000FFFFFFFF
(1746131816.548083) can0 1DEFFF02#A009E5986C070202
(1746131816.548084) can0 1DEFFF02#A11B00FFFFFFFFFF
(1746131816.550193) can0 1DEFFF02#C009E5986C070202
(1746131816.551186) can0 1DEFFF02#C11D00FFFFFFFFFF
(1746131816.551187) can0 09F11202#FF55910000FF7FFD
(1746131816.574202) can0 04FF1901#419F640202010000
(1746131816.577900) can0 09F80103#FFFFFF7FFFFFFF7F
(1746131816.598761) can0 09F10501#C0153038FFFF7FFF
(1746131816.598763) can0 09F10501#C1FFFFFF0B11FFFF
(1746131816.599904) can0 09F10501#C2FF7FFF7FFF7FFF
(1746131816.599906) can0 09F10501#C3FFFFFFFFFFFFFF
(1746131816.601020) can0 09F10D07#FF07FF7F52E1FFFF
(1746131816.601023) can0 09F10D00#FF07FF7F0000FFFF
(1746131816.630409) can0 09FD0205#FFFFFFFFFFF8FFFF
(1746131816.679883) can0 1CFF1906#419F010300000000
(1746131816.679885) can0 09F80103#FFFFFF7FFFFFFF7F
(1746131816.680976) can0 09F80203#F3FFFFFFFFFFFFFF
(1746131816.691210) can0 09F11202#FF8D910000FF7FFD
(1746131816.697294) can0 18FF3D01#419FFFFF02FFFFFF
(1746131816.697296) can0 09F10D01#FF000000FF7FFFFF
(1746131816.704610) can0 08FF0005#1399040500000200
(1746131816.748603) can0 09F10D07#FF07FF7F52E1FFFF
(1746131816.748603) can0 09F10D00#FF07FF7F0000FFFF
(1746131816.774401) can0 04FF1901#419F640A08000000
(1746131816.782151) can0 09F80103#FFFFFF7FFFFFFF7F
(1746131816.782152) can0 09FD0205#FFFFFFFFFFFBFFFF
(1746131816.799003) can0 09F10501#E0153038FFFF7FFF
(1746131816.799005) can0 09F10501#E1FFFFFF0B11FFFF
(1746131816.800146) can0 09F10501#E2FF7FFF7FFF7FFF
(1746131816.800148) can0 09F10501#E3FFFFFFFFFFFFFF
(1746131816.834225) can0 09F11202#FFB3910000FF7FFD
(1746131816.898120) can0 18FF3D01#419FFFFF02FFFFFF
(1746131816.898122) can0 09F10D07#FF07FF7F52E1FFFF
(1746131816.899208) can0 09F10D00#FF07FF7F0000FFFF
(1746131816.899210) can0 09F10D01#FF000000FF7FFFFF
(1746131816.930181) can0 09F80103#FFFFFF7FFFFFFF7F
(1746131816.930182) can0 09F80203#F3FFFFFFFFFFFFFF
(1746131816.931295) can0 09FD0205#FFFFFFFFFFF8FFFF
(1746131816.954911) can0 08FF0005#1399040500000200
(1746131816.975241) can0 09F11202#FFC3910000FF7FFD
(1746131816.998837) can0 09F10501#00153038FFFF7FFF
(1746131816.998838) can0 09F10501#01FFFFFF0B11FFFF
(1746131816.999937) can0 09F10501#02FF7FFF7FFF7FFF
(1746131816.999938) can0 09F10501#03FFFFFFFFFFFFFF
(1746131817.001102) can0 09F10D07#FF07FF7F52E1FFFF
(1746131817.001104) can0 09F10D00#FF07FF7F0000FFFF
(1746131817.029258) can0 0DF01003#F3F0FFFFFFFFFFFF
(1746131817.029260) can0 1DF11A03#F4FFFFFF2FFDFFFF
(1746131817.030391) can0 1DF11A04#F2FFFFFF2FFDFFFF
(1746131817.030392) can0 09F80103#FFFFFF7FFFFFFF7F
(1746131817.031521) can0 0DF80503#602BF4FFFFFFFFFF
(1746131817.031522) can0 0DF80503#61FFFFFFFFFFFFFF
(1746131817.032661) can0 0DF80503#62FF7FFFFFFFFFFF
(1746131817.032662) can0 0DF80503#63FFFF7FFFFFFFFF
(1746131817.033808) can0 0DF80503#64FFFFFF7F00FCFF
(1746131817.033809) can0 0DF80503#65FF7FFF7FFFFFFF
(1746131817.034975) can0 0DF80503#667FFFFFFFFFFFFF
(1746131817.038876) can0 1DEFFF02#E00CE5986C070202
(1746131817.038877) can0 1DEFFF02#E1410089000000FF
(1746131817.041189) can0 1DEFFF02#000CE5986C070202
(1746131817.042205) can0 1DEFFF02#01430000000000FF
(1746131817.042206) can0 1DEFFF02#2009E5986C070202
(1746131817.044191) can0 1DEFFF02#21280000FFFFFFFF
(1746131817.045457) can0 1DEFFF02#4009E5986C070202
(1746131817.045458) can0 1DEFFF02#41340000FFFFFFFF
(1746131817.048104) can0 1DEFFF02#6009E5986C070202
(1746131817.049415) can0 1DEFFF02#611B00FFFFFFFFFF
(1746131817.049417) can0 1DEFFF02#8009E5986C070202
(1746131817.051182) can0 1DEFFF02#811D00FFFFFFFFFF
(1746131817.078714) can0 0DF90304#F23FFFFFFF7FFFFF
(1746131817.078716) can0 0DF90404#6022F2FFFFFFFFFF
(1746131817.079829) can0 0DF90404#61FFFFFFFFFFFFFF
(1746131817.079830) can0 0DF90404#62FFFFFFFFFFFFFF
(1746131817.080997) can0 0DF90404#63FFFFFFFFFFFFFF
(1746131817.080999) can0 0DF90404#647FFFFFFF7FFF7F
(1746131817.082173) can0 19FA0303#F4FFFF7FFF7FFF7F
(1746131817.082175) can0 19FA0403#4003F4FFFFFFFFFF
(1746131817.083329) can0 09FD0205#FFFFFFFFFFFBFFFF
(1746131817.097612) can0 18FF3D01#419FFFFF02FFFFFF
(1746131817.097614) can0 09F10D01#FF000000FF7FFFFF
(1746131817.125242) can0 09F11202#FF02920000FF7FFD
(1746131817.128254) can0 09F80103#FFFFFF7FFFFFFF7F
(1746131817.148845) can0 09F10D07#FF07FF7F52E1FFFF
(1746131817.148847) can0 09F10D00#FF07FF7F0000FFFF
(1746131817.177764) can0 1CFF1906#419F010B00000000
(1746131817.177766) can0 09F80203#F4FFFFFFFFFFFFFF
(1746131817.178875) can0 0DFE1105#200EFFFFFFFFFFFF
(1746131817.178877) can0 0DFE1105#21FFFFFFFFFFFFFF
(1746131817.180057) can0 0DFE1105#22FFFFFFFFFFFFFF
(1746131817.199371) can0 1DFF2C01#0017419F00000000
(1746131817.199372) can0 1DFF2C01#0100FFFFFF7FFFFF
(1746131817.200498) can0 1DFF2C01#02FFFFFFFFFF7FFF
(1746131817.200499) can0 1DFF2C01#03FFFFFFFFFFFFFF
(1746131817.205329) can0 08FF0005#1399040500000200
(1746131817.230112) can0 09F80103#FFFFFF7FFFFFFF7F
(1746131817.230113) can0 09FD0205#FFFFFFFFFFF8FFFF
(1746131817.248713) can0 09F10501#20153038FFFF7FFF
(1746131817.248714) can0 09F10501#21FFFFFF0B11FFFF
(1746131817.249851) can0 09F10501#22FF7FFF7FFF7FFF
(1746131817.249853) can0 09F10501#23FFFFFFFFFFFFFF
(1746131817.251013) can0 09F10D07#FF07FF7F52E1FFFF
(1746131817.251013) can0 09F10D00#FF07FF7F0000FFFF
(1746131817.262607) can0 09F11202#FF14920000FF7FFD
(1746131817.297076) can0 18FF3D01#419FFFFF02FFFFFF
(1746131817.297077) can0 09F10D01#FF000000FF7FFFFF
(1746131817.332209) can0 09F80103#FFFFFF7FFFFFFF7F
(1746131817.378616) can0 09FD0205#FFFFFFFFFFFBFFFF
(1746131817.398237) can0 09F10D07#FF07FF7F52E1FFFF
(1746131817.398239) can0 09F10D00#FF07FF7F0000FFFF
(1746131817.412592) can0 09F11202#FF3F920000FF7FFD
(1746131817.428198) can0 09F80203#F4FFFFFFFFFFFFFF
(1746131817.448794) can0 09F10501#40153038FFFF7FFF
(1746131817.448796) can0 09F10501#41FFFFFF0B11FFFF
(1746131817.449927) can0 09F10501#42FF7FFF7FFF7FFF
(1746131817.449928) can0 09F10501#43FFFFFFFFFFFFFF
(1746131817.452982) can0 08FF0005#1399040500000200
(1746131817.480561) can0 09F80103#FFFFFF7FFFFFFF7F
(1746131817.499209) can0 18FF3D01#419FFFFF02FFFFFF
(1746131817.499211) can0 09F10D07#FF07FF7F52E1FFFF
(1746131817.500375) can0 09F10D00#FF07FF7F0000FFFF
(1746131817.500376) can0 09F10D01#FF000000FF7FFFFF
(1746131817.529993) can0 09FD0205#FFFFFFFFFFF8FFFF
(1746131817.538951) can0 1DEFFF02#A00CE5986C070202
(1746131817.538952) can0 1DEFFF02#A1410089000000FF
(1746131817.541235) can0 1DEFFF02#C00CE5986C070202
(1746131817.542310) can0 1DEFFF02#C1430000000000FF
(1746131817.542311) can0 1DEFFF02#E009E5986C070202
(1746131817.544308) can0 1DEFFF02#E1280000FFFFFFFF
(1746131817.544310) can0 1DEFFF02#0009E5986C070202
(1746131817.546326) can0 1DEFFF02#01340000FFFFFFFF
(1746131817.548855) can0 1DEFFF02#2009E5986C070202
(1746131817.548857) can0 1DEFFF02#211B00FFFFFFFFFF
