(1746132882.967475) can0 18FF3D01#419FFFFF02FFFFFF
(1746132882.967476) can0 09F10501#C0153038FFFF7FFF
(1746132882.968560) can0 09F10501#C1FFFFFF0B11FFFF
(1746132882.968560) can0 09F10501#C2FF7FFF7FFF7FFF
(1746132882.969749) can0 09F10501#C3FFFFFFFFFFFFFF
(1746132883.017780) can0 09F10D07#FF07FF7F52E1FFFF
(1746132883.017782) can0 09F10D00#FF07FF7F0000FFFF
(1746132883.018873) can0 09F10D01#FF000000FF7FFFFF
(1746132883.115872) can0 09F10D07#FF07FF7F52E1FFFF
(1746132883.115874) can0 09F10D00#FF07FF7F0000FFFF
(1746132883.142552) can0 04FF1901#419F640A08000000
(1746132883.142554) can0 04FF1901#419F640202010000
(1746132883.167116) can0 18FF3D01#419FFFFF02FFFFFF
(1746132883.167117) can0 09F10501#E0153038FFFF7FFF
(1746132883.168300) can0 09F10501#E1FFFFFF0B11FFFF
(1746132883.168301) can0 09F10501#E2FF7FFF7FFF7FFF
(1746132883.169474) can0 09F10501#E3FFFFFFFFFFFFFF
(1746132883.217474) can0 09F10D07#FF07FF7F52E1FFFF
(1746132883.217475) can0 09F10D00#FF07FF7F0000FFFF
(1746132883.218598) can0 09F10D01#FF000000FF7FFFFF
(1746132883.367780) can0 09F10D07#FF07FF7F52E1FFFF
(1746132883.367782) can0 09F10D00#FF07FF7F0000FFFF
(1746132883.415832) can0 18FF3D01#419FFFFF02FFFFFF
(1746132883.415834) can0 09F10501#00153038FFFF7FFF
(1746132883.416948) can0 09F10501#01FFFFFF0B11FFFF
(1746132883.416949) can0 09F10501#02FF7FFF7FFF7FFF
(1746132883.418120) can0 09F10501#03FFFFFFFFFFFFFF
(1746132883.467042) can0 09F10D07#FF07FF7F52E1FFFF
(1746132883.467045) can0 09F10D00#FF07FF7F0000FFFF
(1746132883.468166) can0 09F10D01#FF000000FF7FFFFF
(1746132883.567144) can0 09F10D07#FF07FF7F52E1FFFF
(1746132883.567146) can0 09F10D00#FF07FF7F0000FFFF
(1746132883.617345) can0 18FF3D01#419FFFFF02FFFFFF
(1746132883.617346) can0 09F10501#20153038FFFF7FFF
(1746132883.618470) can0 09F10501#21FFFFFF0B11FFFF
(1746132883.618471) can0 09F10501#22FF7FFF7FFF7FFF
(1746132883.619633) can0 09F10501#23FFFFFFFFFFFFFF
(1746132883.667726) can0 09F10D01#FF000000FF7FFFFF
(1746132883.717840) can0 09F10D07#FF07FF7F52E1FFFF
(1746132883.717842) can0 09F10D00#FF07FF7F0000FFFF
(1746132883.719004) can0 1DFF2C01#0017419F00000000
(1746132883.719005) can0 1DFF2C01#0100FFFFFF7FFFFF
(1746132883.720095) can0 1DFF2C01#02FFFFFFFFFF7F61
(1746132883.720096) can0 1DFF2C01#03737320FFFFFFFF
(1746132883.816783) can0 09F10D07#FF07FF7F52E1FFFF
(1746132883.816784) can0 09F10D00#FF07FF7F0000FFFF
(1746132883.867083) can0 18FF3D01#419FFFFF02FFFFFF
(1746132883.867084) can0 09F10501#40153038FFFF7FFF
(1746132883.868229) can0 09F10501#41FFFFFF0B11FFFF
(1746132883.868230) can0 09F10501#42FF7FFF7FFF7FFF
(1746132883.869402) can0 09F10501#43FFFFFFFFFFFFFF
(1746132883.869403) can0 09F10D01#FF000000FF7FFFFF
(1746132883.917449) can0 09F10D07#FF07FF7F52E1FFFF
(1746132883.917450) can0 09F10D00#FF07FF7F0000FFFF
(1746132884.067582) can0 09F10D07#FF07FF7F52E1FFFF
(1746132884.067583) can0 09F10D00#FF07FF7F0000FFFF
(1746132884.117905) can0 18FF3D01#419FFFFF02FFFFFF
(1746132884.117906) can0 09F10501#60153038FFFF7FFF
(1746132884.119048) can0 09F10501#61FFFFFF0B11FFFF
(1746132884.119049) can0 09F10501#62FF7FFF7FFF7FFF
(1746132884.120224) can0 09F10501#63FFFFFFFFFFFFFF
(1746132884.120225) can0 09F10D01#FF000000FF7FFFFF
(1746132884.142530) can0 04FF1901#419F640A08000000
(1746132884.142532) can0 04FF1901#419F640202010000
(1746132884.167059) can0 09F10D07#FF07FF7F52E1FFFF
(1746132884.167061) can0 09F10D00#FF07FF7F0000FFFF
(1746132884.267291) can0 09F10D07#FF07FF7F52E1FFFF
(1746132884.267292) can0 09F10D00#FF07FF7F0000FFFF
(1746132884.317620) can0 18FF3D01#419FFFFF02FFFFFF
(1746132884.317621) can0 09F10501#80153038FFFF7FFF
(1746132884.318710) can0 09F10501#81FFFFFF0B11FFFF
(1746132884.318711) can0 09F10501#82FF7FFF7FFF7FFF
(1746132884.319855) can0 09F10501#83FFFFFFFFFFFFFF
(1746132884.319856) can0 09F10D01#FF000000FF7FFFFF
(1746132884.417839) can0 09F10D07#FF07FF7F52E1FFFF
(1746132884.417840) can0 09F10D00#FF07FF7F0000FFFF
(1746132884.515935) can0 09F10D07#FF07FF7F52E1FFFF
(1746132884.515937) can0 09F10D00#FF07FF7F0000FFFF
(1746132884.567065) can0 18FF3D01#419FFFFF02FFFFFF
(1746132884.567067) can0 09F10501#A0153038FFFF7FFF
(1746132884.568149) can0 09F10501#A1FFFFFF0B11FFFF
(1746132884.568150) can0 09F10501#A2FF7FFF7FFF7FFF
(1746132884.569249) can0 09F10501#A3FFFFFFFFFFFFFF
(1746132884.569251) can0 09F10D01#FF000000FF7FFFFF
(1746132884.617319) can0 09F10D07#FF07FF7F52E1FFFF
(1746132884.617320) can0 09F10D00#FF07FF7F0000FFFF
(1746132884.767573) can0 09F10D07#FF07FF7F52E1FFFF
(1746132884.767575) can0 09F10D00#FF07FF7F0000FFFF
(1746132884.768703) can0 1DFF2C01#2017419F00000000
(1746132884.768704) can0 1DFF2C01#2100FFFFFF7FFFFF
(1746132884.769777) can0 1DFF2C01#22FFFFFFFFFF7F61
(1746132884.769778) can0 1DFF2C01#23737320FFFFFFFF
(1746132884.815833) can0 18FF3D01#419FFFFF02FFFFFF
(1746132884.815834) can0 09F10501#C0153038FFFF7FFF
(1746132884.816984) can0 09F10501#C1FFFFFF0B11FFFF
(1746132884.816984) can0 09F10501#C2FF7FFF7FFF7FFF
(1746132884.818165) can0 09F10501#C3FFFFFFFFFFFFFF
(1746132884.818167) can0 09F10D01#FF000000FF7FFFFF
(1746132884.867043) can0 09F10D07#FF07FF7F52E1FFFF
(1746132884.867045) can0 09F10D00#FF07FF7F0000FFFF
(1746132884.967193) can0 09F10D07#FF07FF7F52E1FFFF
(1746132884.967195) can0 09F10D00#FF07FF7F0000FFFF
(1746132885.017354) can0 18FF3D01#419FFFFF02FFFFFF
(1746132885.017355) can0 09F10501#E0153038FFFF7FFF
(1746132885.018536) can0 09F10501#E1FFFFFF0B11FFFF
(1746132885.018537) can0 09F10501#E2FF7FFF7FFF7FFF
(1746132885.019646) can0 09F10501#E3FFFFFFFFFFFFFF
(1746132885.019647) can0 09F10D01#FF000000FF7FFFFF
(1746132885.117804) can0 09F10D07#FF07FF7F52E1FFFF
(1746132885.117806) can0 09F10D00#FF07FF7F0000FFFF
(1746132885.142326) can0 04FF1901#419F640A08000000
(1746132885.142328) can0 04FF1901#419F640202010000
(1746132885.215974) can0 09F10D07#FF07FF7F52E1FFFF
(1746132885.215976) can0 09F10D00#FF07FF7F0000FFFF
(1746132885.267085) can0 18FF3D01#419FFFFF02FFFFFF
(1746132885.267087) can0 09F10501#00153038FFFF7FFF
(1746132885.268176) can0 09F10501#01FFFFFF0B11FFFF
(1746132885.268177) can0 09F10501#02FF7FFF7FFF7FFF
(1746132885.269354) can0 09F10501#03FFFFFFFFFFFFFF
(1746132885.269355) can0 09F10D01#FF000000FF7FFFFF
(1746132885.317359) can0 09F10D07#FF07FF7F52E1FFFF
(1746132885.317361) can0 09F10D00#FF07FF7F0000FFFF
(1746132885.467601) can0 09F10D07#FF07FF7F52E1FFFF
(1746132885.467603) can0 09F10D00#FF07FF7F0000FFFF
(1746132885.517901) can0 18FF3D01#419FFFFF02FFFFFF
(1746132885.517903) can0 09F10501#20153038FFFF7FFF
(1746132885.518974) can0 09F10501#21FFFFFF0B11FFFF
(1746132885.518976) can0 09F10501#22FF7FFF7FFF7FFF
(1746132885.520185) can0 09F10501#23FFFFFFFFFFFFFF
(1746132885.520186) can0 09F10D01#FF000000FF7FFFFF
(1746132885.566815) can0 09F10D07#FF07FF7F52E1FFFF
(1746132885.566816) can0 09F10D00#FF07FF7F0000FFFF
(1746132885.667024) can0 09F10D07#FF07FF7F52E1FFFF
(1746132885.667025) can0 09F10D00#FF07FF7F0000FFFF
(1746132885.717362) can0 18FF3D01#419FFFFF02FFFFFF
(1746132885.717363) can0 09F10501#40153038FFFF7FFF
(1746132885.718490) can0 09F10501#41FFFFFF0B11FFFF
(1746132885.718491) can0 09F10501#42FF7FFF7FFF7FFF
(1746132885.719646) can0 09F10501#43FFFFFFFFFFFFFF
(1746132885.719647) can0 09F10D01#FF000000FF7FFFFF
(1746132885.767716) can0 09F10D07#FF07FF7F52E1FFFF
(1746132885.767717) can0 09F10D00#FF07FF7F0000FFFF
(1746132885.768797) can0 1DFF2C01#4017419F00000000
(1746132885.768798) can0 1DFF2C01#4100FFFFFF7FFFFF
(1746132885.769968) can0 1DFF2C01#42FFFFFFFFFF7F61
(1746132885.769969) can0 1DFF2C01#43737320FFFFFFFF
(1746132885.865820) can0 09F10D07#FF07FF7F52E1FFFF
(1746132885.865821) can0 09F10D00#FF07FF7F0000FFFF
(1746132885.967040) can0 18FF3D01#419FFFFF02FFFFFF
(1746132885.967041) can0 09F10501#60153038FFFF7FFF
(1746132885.968139) can0 09F10501#61FFFFFF0B11FFFF
(1746132885.968140) can0 09F10501#62FF7FFF7FFF7FFF
(1746132885.969326) can0 09F10501#63FFFFFFFFFFFFFF
(1746132885.969327) can0 09F10D07#FF07FF7F52E1FFFF
(1746132885.970452) can0 09F10D00#FF07FF7F0000FFFF
(1746132885.970453) can0 09F10D01#FF000000FF7FFFFF
(1746132886.117408) can0 09F10D07#FF07FF7F52E1FFFF
(1746132886.117410) can0 09F10D00#FF07FF7F0000FFFF
(1746132886.141975) can0 09FF2201#E00C419FFFFF01FF
(1746132886.141977) can0 04FF1901#419F640A08000000
(1746132886.143049) can0 04FF1901#419F640202010000
(1746132886.143050) can0 09FF2201#E1390016000100FF
(1746132886.144197) can0 1DFF2801#201E419F16001A01
(1746132886.144198) can0 1DFF2801#215374656572696E
(1746132886.145299) can0 1DFF2801#226720636F6D7061
(1746132886.145300) can0 1DFF2801#237373206D697373
(1746132886.146423) can0 1DFF2801#24696E67FFFFFFFF
(1746132886.166936) can0 18FF3D01#419FFFFF02FFFFFF
(1746132886.166937) can0 09F10501#80153038FFFF7FFF
(1746132886.168032) can0 09F10501#81FFFFFF0B11FFFF
(1746132886.168033) can0 09F10501#82FF7FFF7FFF7FFF
(1746132886.169198) can0 09F10501#83FFFFFFFFFFFFFF
(1746132886.217202) can0 09F10D07#FF07FF7F52E1FFFF
(1746132886.217203) can0 09F10D00#FF07FF7F0000FFFF
(1746132886.218312) can0 09F10D01#FF000000FF7FFFFF
(1746132886.367504) can0 09F10D07#FF07FF7F52E1FFFF
(1746132886.367505) can0 09F10D00#FF07FF7F0000FFFF
(1746132886.417646) can0 18FF3D01#419FFFFF02FFFFFF
(1746132886.417648) can0 09F10501#A0153038FFFF7FFF
(1746132886.418739) can0 09F10501#A1FFFFFF0B11FFFF
(1746132886.418741) can0 09F10501#A2FF7FFF7FFF7FFF
(1746132886.419875) can0 09F10501#A3FFFFFFFFFFFFFF
(1746132886.465844) can0 09F10D07#FF07FF7F52E1FFFF
(1746132886.465846) can0 09F10D00#FF07FF7F0000FFFF
(1746132886.467038) can0 09F10D01#FF000000FF7FFFFF
(1746132886.566885) can0 09F10D07#FF07FF7F52E1FFFF
(1746132886.566888) can0 09F10D00#FF07FF7F0000FFFF
(1746132886.617091) can0 18FF3D01#419FFFFF02FFFFFF
(1746132886.617093) can0 09F10501#C0153038FFFF7FFF
(1746132886.618192) can0 09F10501#C1FFFFFF0B11FFFF
(1746132886.618193) can0 09F10501#C2FF7FFF7FFF7FFF
(1746132886.619371) can0 09F10501#C3FFFFFFFFFFFFFF
(1746132886.717447) can0 09F10D07#FF07FF7F52E1FFFF
(1746132886.717449) can0 09F10D00#FF07FF7F0000FFFF
(1746132886.718551) can0 09F10D01#FF000000FF7FFFFF
(1746132886.767700) can0 1DFF2C01#6017419F00000000
(1746132886.767701) can0 1DFF2C01#6100FFFFFF7FFFFF
(1746132886.768860) can0 1DFF2C01#62FFFFFFFFFF7F61
(1746132886.768861) can0 1DFF2C01#63737320FFFFFFFF
(1746132886.817830) can0 18FF3D01#419FFFFF02FFFFFF
(1746132886.865863) can0 09F10501#E0153038FFFF7FFF
(1746132886.865864) can0 09F10501#E1FFFFFF0B11FFFF
(1746132886.866970) can0 09F10501#E2FF7FFF7FFF7FFF
(1746132886.866979) can0 09F10501#E3FFFFFFFFFFFFFF
(1746132886.868109) can0 09F10D07#FF07FF7F52E1FFFF
(1746132886.868110) can0 09F10D00#FF07FF7F0000FFFF
(1746132886.967084) can0 09F10D07#FF07FF7F52E1FFFF
(1746132886.967085) can0 09F10D00#FF07FF7F0000FFFF
(1746132886.968176) can0 09F10D01#FF000000FF7FFFFF
(1746132887.017157) can0 18FF3D01#419FFFFF02FFFFFF
(1746132887.067542) can0 09F10501#00153038FFFF7FFF
(1746132887.067543) can0 09F10501#01FFFFFF0B11FFFF
(1746132887.068723) can0 09F10501#02FF7FFF7FFF7FFF
(1746132887.068724) can0 09F10501#03FFFFFFFFFFFFFF
(1746132887.069810) can0 09F10D07#FF07FF7F52E1FFFF
(1746132887.069811) can0 09F10D00#FF07FF7F0000FFFF
(1746132887.142213) can0 04FF1901#419F640A08000000
(1746132887.142215) can0 04FF1901#419F640202010000
(1746132887.215827) can0 09F10D07#FF07FF7F52E1FFFF
(1746132887.215829) can0 09F10D00#FF07FF7F0000FFFF
(1746132887.216947) can0 09F10D01#FF000000FF7FFFFF
(1746132887.266870) can0 18FF3D01#419FFFFF02FFFFFF
(1746132887.317109) can0 09F10501#20153038FFFF7FFF
(1746132887.317111) can0 09F10501#21FFFFFF0B11FFFF
(1746132887.318209) can0 09F10501#22FF7FFF7FFF7FFF
(1746132887.318210) can0 09F10501#23FFFFFFFFFFFFFF
(1746132887.319365) can0 09F10D07#FF07FF7F52E1FFFF
(1746132887.319366) can0 09F10D00#FF07FF7F0000FFFF
(1746132887.417457) can0 09F10D07#FF07FF7F52E1FFFF
(1746132887.417458) can0 09F10D00#FF07FF7F0000FFFF
(1746132887.418544) can0 09F10D01#FF000000FF7FFFFF
(1746132887.467719) can0 18FF3D01#419FFFFF02FFFFFF
(1746132887.517853) can0 09F10501#40153038FFFF7FFF
(1746132887.517855) can0 09F10501#41FFFFFF0B11FFFF
(1746132887.518940) can0 09F10501#42FF7FFF7FFF7FFF
(1746132887.518941) can0 09F10501#43FFFFFFFFFFFFFF
(1746132887.565944) can0 09F10D07#FF07FF7F52E1FFFF
(1746132887.565945) can0 09F10D00#FF07FF7F0000FFFF
(1746132887.667090) can0 18FF3D01#419FFFFF02FFFFFF
(1746132887.667092) can0 09F10D07#FF07FF7F52E1FFFF
(1746132887.668139) can0 09F10D00#FF07FF7F0000FFFF
(1746132887.668140) can0 09F10D01#FF000000FF7FFFFF
(1746132887.717337) can0 09F10501#60153038FFFF7FFF
(1746132887.717339) can0 09F10501#61FFFFFF0B11FFFF
(1746132887.718470) can0 09F10501#62FF7FFF7FFF7FFF
(1746132887.718471) can0 09F10501#63FFFFFFFFFFFFFF
(1746132887.817466) can0 09F10D07#FF07FF7F52E1FFFF
(1746132887.817468) can0 09F10D00#FF07FF7F0000FFFF
(1746132887.818621) can0 1DFF2C01#8017419F00000000
(1746132887.818621) can0 1DFF2C01#8100FFFFFF7FFFFF
(1746132887.819740) can0 1DFF2C01#82FFFFFFFFFF7F61
(1746132887.819741) can0 1DFF2C01#83737320FFFFFFFF
(1746132887.867974) can0 18FF3D01#419FFFFF02FFFFFF
(1746132887.867975) can0 09F10D01#FF000000FF7FFFFF
(1746132887.966815) can0 09F10501#80153038FFFF7FFF
(1746132887.966818) can0 09F10501#81FFFFFF0B11FFFF
(1746132887.968034) can0 09F10501#82FF7FFF7FFF7FFF
(1746132887.968035) can0 09F10501#83FFFFFFFFFFFFFF
(1746132887.969098) can0 09F10D07#FF07FF7F52E1FFFF
(1746132887.969100) can0 09F10D00#FF07FF7F0000FFFF
(1746132888.067213) can0 18FF3D01#419FFFFF02FFFFFF
(1746132888.067215) can0 09F10D07#FF07FF7F52E1FFFF
(1746132888.068361) can0 09F10D00#FF07FF7F0000FFFF
(1746132888.068362) can0 09F10D01#FF000000FF7FFFFF
(1746132888.193132) can0 04FF1901#419F640A08000000
(1746132888.193134) can0 04FF1901#419F640202010000
(1746132888.217717) can0 09F10501#A0153038FFFF7FFF
(1746132888.217719) can0 09F10501#A1FFFFFF0B11FFFF
(1746132888.218815) can0 09F10501#A2FF7FFF7FFF7FFF
(1746132888.218816) can0 09F10501#A3FFFFFFFFFFFFFF
(1746132888.219961) can0 09F10D07#FF07FF7F52E1FFFF
(1746132888.219962) can0 09F10D00#FF07FF7F0000FFFF
(1746132888.316044) can0 18FF3D01#419FFFFF02FFFFFF
(1746132888.316046) can0 09F10D01#FF000000FF7FFFFF
(1746132888.367013) can0 09F10D07#FF07FF7F52E1FFFF
(1746132888.367014) can0 09F10D00#FF07FF7F0000FFFF
(1746132888.467318) can0 09F10501#C0153038FFFF7FFF
(1746132888.467320) can0 09F10501#C1FFFFFF0B11FFFF
(1746132888.468472) can0 09F10501#C2FF7FFF7FFF7FFF
(1746132888.468473) can0 09F10501#C3FFFFFFFFFFFFFF
(1746132888.469577) can0 09F10D07#FF07FF7F52E1FFFF
(1746132888.469579) can0 09F10D00#FF07FF7F0000FFFF
(1746132888.567601) can0 18FF3D01#419FFFFF02FFFFFF
(1746132888.567603) can0 09F10D01#FF000000FF7FFFFF
(1746132888.617743) can0 09F10D07#FF07FF7F52E1FFFF
(1746132888.617745) can0 09F10D00#FF07FF7F0000FFFF
(1746132888.668063) can0 09F10501#E0153038FFFF7FFF
(1746132888.668064) can0 09F10501#E1FFFFFF0B11FFFF
(1746132888.669151) can0 09F10501#E2FF7FFF7FFF7FFF
(1746132888.669152) can0 09F10501#E3FFFFFFFFFFFFFF
(1746132888.716894) can0 09F10D07#FF07FF7F52E1FFFF
(1746132888.716896) can0 09F10D00#FF07FF7F0000FFFF
(1746132888.767054) can0 18FF3D01#419FFFFF02FFFFFF
(1746132888.767057) can0 09F10D01#FF000000FF7FFFFF
(1746132888.817218) can0 09F10D07#FF07FF7F52E1FFFF
(1746132888.817220) can0 09F10D00#FF07FF7F0000FFFF
(1746132888.818314) can0 1DFF2C01#A017419F00000000
(1746132888.818314) can0 1DFF2C01#A100FFFFFF7FFFFF
(1746132888.819435) can0 1DFF2C01#A2FFFFFFFFFF7F61
(1746132888.819436) can0 1DFF2C01#A3737320FFFFFFFF
(1746132888.917705) can0 09F10501#00153038FFFF7FFF
(1746132888.917705) can0 09F10501#01FFFFFF0B11FFFF
(1746132888.918835) can0 09F10501#02FF7FFF7FFF7FFF
(1746132888.918835) can0 09F10501#03FFFFFFFFFFFFFF
(1746132888.967971) can0 18FF3D01#419FFFFF02FFFFFF
(1746132888.967973) can0 09F10D07#FF07FF7F52E1FFFF
(1746132888.969099) can0 09F10D00#FF07FF7F0000FFFF
(1746132888.969100) can0 09F10D01#FF000000FF7FFFFF
(1746132889.066912) can0 09F10D07#FF07FF7F52E1FFFF
(1746132889.066915) can0 09F10D00#FF07FF7F0000FFFF
(1746132889.117127) can0 09F10501#20153038FFFF7FFF
(1746132889.117129) can0 09F10501#21FFFFFF0B11FFFF
(1746132889.118250) can0 09F10501#22FF7FFF7FFF7FFF
(1746132889.118251) can0 09F10501#23FFFFFFFFFFFFFF
(1746132889.167457) can0 18FF3D01#419FFFFF02FFFFFF
(1746132889.167458) can0 09F10D07#FF07FF7F52E1FFFF
(1746132889.168522) can0 09F10D00#FF07FF7F0000FFFF
(1746132889.168523) can0 09F10D01#FF000000FF7FFFFF
(1746132889.242048) can0 04FF1901#419F640A08000000
(1746132889.242049) can0 04FF1901#419F640202010000
(1746132889.317998) can0 09F10501#40153038FFFF7FFF
(1746132889.317999) can0 09F10501#41FFFFFF0B11FFFF
(1746132889.319070) can0 09F10501#42FF7FFF7FFF7FFF
(1746132889.319071) can0 09F10501#43FFFFFFFFFFFFFF
(1746132889.320207) can0 09F10D07#FF07FF7F52E1FFFF
(1746132889.320207) can0 09F10D00#FF07FF7F0000FFFF
(1746132889.417030) can0 18FF3D01#419FFFFF02FFFFFF
(1746132889.417032) can0 09F10D07#FF07FF7F52E1FFFF
(1746132889.418154) can0 09F10D00#FF07FF7F0000FFFF
(1746132889.418155) can0 09F10D01#FF000000FF7FFFFF
(1746132889.517429) can0 09F10501#60153038FFFF7FFF
(1746132889.517431) can0 09F10501#61FFFFFF0B11FFFF
(1746132889.518555) can0 09F10501#62FF7FFF7FFF7FFF
(1746132889.518556) can0 09F10501#63FFFFFFFFFFFFFF
(1746132889.519669) can0 09F10D07#FF07FF7F52E1FFFF
(1746132889.519671) can0 09F10D00#FF07FF7F0000FFFF
(1746132889.667901) can0 18FF3D01#419FFFFF02FFFFFF
(1746132889.667902) can0 09F10D07#FF07FF7F52E1FFFF
(1746132889.668961) can0 09F10D00#FF07FF7F0000FFFF
(1746132889.668961) can0 09F10D01#FF000000FF7FFFFF
(1746132889.766906) can0 09F10501#80153038FFFF7FFF
(1746132889.766908) can0 09F10501#81FFFFFF0B11FFFF
(1746132889.768060) can0 09F10501#82FF7FFF7FFF7FFF
(1746132889.768067) can0 09F10501#83FFFFFFFFFFFFFF
(1746132889.769224) can0 09F10D07#FF07FF7F52E1FFFF
(1746132889.769225) can0 09F10D00#FF07FF7F0000FFFF
(1746132889.817089) can0 1DFF2C01#C017419F00000000
(1746132889.817090) can0 1DFF2C01#C100FFFFFF7FFFFF
(1746132889.818303) can0 1DFF2C01#C2FFFFFFFFFF7F61
(1746132889.818304) can0 1DFF2C01#C3737320FFFFFFFF
(1746132889.867573) can0 18FF3D01#419FFFFF02FFFFFF
(1746132889.867574) can0 09F10D07#FF07FF7F52E1FFFF
(1746132889.868618) can0 09F10D00#FF07FF7F0000FFFF
(1746132889.868619) can0 09F10D01#FF000000FF7FFFFF
(1746132889.967853) can0 09F10501#A0153038FFFF7FFF
(1746132889.967854) can0 09F10501#A1FFFFFF0B11FFFF
(1746132889.968915) can0 09F10501#A2FF7FFF7FFF7FFF
(1746132889.968916) can0 09F10501#A3FFFFFFFFFFFFFF
(1746132890.018027) can0 09F10D07#FF07FF7F52E1FFFF
(1746132890.018028) can0 09F10D00#FF07FF7F0000FFFF
(1746132890.116928) can0 18FF3D01#419FFFFF02FFFFFF
(1746132890.116930) can0 09F10D07#FF07FF7F52E1FFFF
(1746132890.118068) can0 09F10D00#FF07FF7F0000FFFF
(1746132890.118069) can0 09F10D01#FF000000FF7FFFFF
(1746132890.167240) can0 09F10501#C0153038FFFF7FFF
(1746132890.167241) can0 09F10501#C1FFFFFF0B11FFFF
(1746132890.168306) can0 09F10501#C2FF7FFF7FFF7FFF
(1746132890.168308) can0 09F10501#C3FFFFFFFFFFFFFF
(1746132890.217441) can0 09F10D07#FF07FF7F52E1FFFF
(1746132890.217442) can0 09F10D00#FF07FF7F0000FFFF
(1746132890.291127) can0 04FF1901#419F640A08000000
(1746132890.291128) can0 04FF1901#419F640202010000
(1746132890.367957) can0 18FF3D01#419FFFFF02FFFFFF
(1746132890.367959) can0 09F10D07#FF07FF7F52E1FFFF
(1746132890.369017) can0 09F10D00#FF07FF7F0000FFFF
(1746132890.369018) can0 09F10D01#FF000000FF7FFFFF
(1746132890.416005) can0 09F10501#E0153038FFFF7FFF
(1746132890.416006) can0 09F10501#E1FFFFFF0B11FFFF
(1746132890.417132) can0 09F10501#E2FF7FFF7FFF7FFF
(1746132890.417133) can0 09F10501#E3FFFFFFFFFFFFFF
(1746132890.467161) can0 09F10D07#FF07FF7F52E1FFFF
(1746132890.467163) can0 09F10D00#FF07FF7F0000FFFF
(1746132890.567396) can0 18FF3D01#419FFFFF02FFFFFF
(1746132890.567397) can0 09F10D07#FF07FF7F52E1FFFF
(1746132890.568462) can0 09F10D00#FF07FF7F0000FFFF
(1746132890.568463) can0 09F10D01#FF000000FF7FFFFF
(1746132890.667728) can0 09F10501#00153038FFFF7FFF
(1746132890.667729) can0 09F10501#01FFFFFF0B11FFFF
(1746132890.668850) can0 09F10501#02FF7FFF7FFF7FFF
(1746132890.668852) can0 09F10501#03FFFFFFFFFFFFFF
(1746132890.717926) can0 09F10D07#FF07FF7F52E1FFFF
(1746132890.717928) can0 09F10D00#FF07FF7F0000FFFF
(1746132890.815951) can0 18FF3D01#419FFFFF02FFFFFF
(1746132890.815953) can0 09F10D07#FF07FF7F52E1FFFF
(1746132890.817065) can0 09F10D00#FF07FF7F0000FFFF
(1746132890.817066) can0 09F10D01#FF000000FF7FFFFF
(1746132890.867216) can0 09F10501#20153038FFFF7FFF
(1746132890.867217) can0 09F10501#21FFFFFF0B11FFFF
(1746132890.868362) can0 09F10501#22FF7FFF7FFF7FFF
(1746132890.868363) can0 09F10501#23FFFFFFFFFFFFFF
(1746132890.869502) can0 1DFF2C01#E017419F00000000
(1746132890.869504) can0 1DFF2C01#E100FFFFFF7FFFFF
(1746132890.870687) can0 1DFF2C01#E2FFFFFFFFFF7F61
(1746132890.870688) can0 1DFF2C01#E3737320FFFFFFFF
(1746132890.917563) can0 09F10D07#FF07FF7F52E1FFFF
(1746132890.917565) can0 09F10D00#FF07FF7F0000FFFF
(1746132891.067810) can0 18FF3D01#419FFFFF02FFFFFF
(1746132891.067813) can0 09F10D07#FF07FF7F52E1FFFF
(1746132891.068987) can0 09F10D00#FF07FF7F0000FFFF
(1746132891.068988) can0 09F10D01#FF000000FF7FFFFF
(1746132891.115948) can0 09F10501#40153038FFFF7FFF
(1746132891.115950) can0 09F10501#41FFFFFF0B11FFFF
(1746132891.117119) can0 09F10501#42FF7FFF7FFF7FFF
(1746132891.117120) can0 09F10501#43FFFFFFFFFFFFFF
(1746132891.166981) can0 09F10D07#FF07FF7F52E1FFFF
(1746132891.166983) can0 09F10D00#FF07FF7F0000FFFF
(1746132891.267241) can0 18FF3D01#419FFFFF02FFFFFF
(1746132891.267243) can0 09F10D07#FF07FF7F52E1FFFF
(1746132891.268371) can0 09F10D00#FF07FF7F0000FFFF
(1746132891.268372) can0 09F10D01#FF000000FF7FFFFF
(1746132891.293254) can0 04FF1901#419F640A08000000
(1746132891.293256) can0 04FF1901#419F640202010000
(1746132891.317758) can0 09F10501#60153038FFFF7FFF
(1746132891.317760) can0 09F10501#61FFFFFF0B11FFFF
(1746132891.318892) can0 09F10501#62FF7FFF7FFF7FFF
(1746132891.318893) can0 09F10501#63FFFFFFFFFFFFFF
(1746132891.367864) can0 09F10D07#FF07FF7F52E1FFFF
(1746132891.417909) can0 09F10D00#FF07FF7F0000FFFF
(1746132891.465888) can0 18FF3D01#419FFFFF02FFFFFF
(1746132891.465890) can0 09F10D07#FF07FF7F52E1FFFF
(1746132891.516889) can0 09F10D00#FF07FF7F0000FFFF
(1746132891.516891) can0 09F10D01#FF000000FF7FFFFF
(1746132891.567187) can0 09F10501#80153038FFFF7FFF
(1746132891.567189) can0 09F10501#81FFFFFF0B11FFFF
(1746132891.568287) can0 09F10501#82FF7FFF7FFF7FFF
(1746132891.568287) can0 09F10501#83FFFFFFFFFFFFFF
(1746132891.569404) can0 09F10D07#FF07FF7F52E1FFFF
(1746132891.617428) can0 09F10D00#FF07FF7F0000FFFF
(1746132891.717726) can0 18FF3D01#419FFFFF02FFFFFF
(1746132891.717726) can0 09F10D07#FF07FF7F52E1FFFF
(1746132891.718810) can0 09F10D00#FF07FF7F0000FFFF
(1746132891.718810) can0 09F10D01#FF000000FF7FFFFF
(1746132891.768004) can0 09F10501#A0153038FFFF7FFF
(1746132891.768005) can0 09F10501#A1FFFFFF0B11FFFF
(1746132891.769135) can0 09F10501#A2FF7FFF7FFF7FFF
(1746132891.769135) can0 09F10501#A3FFFFFFFFFFFFFF
(1746132891.865983) can0 09F10D07#FF07FF7F52E1FFFF
(1746132891.865985) can0 09F10D00#FF07FF7F0000FFFF
(1746132891.916997) can0 1DFF2C01#0017419F00000000
(1746132891.916999) can0 1DFF2C01#0100FFFFFF7FFFFF
(1746132891.918132) can0 1DFF2C01#02FFFFFFFFFF7F61
(1746132891.918133) can0 1DFF2C01#03737320FFFFFFFF
(1746132891.967423) can0 18FF3D01#419FFFFF02FFFFFF
(1746132891.967425) can0 09F10501#C0153038FFFF7FFF
(1746132891.968600) can0 09F10501#C1FFFFFF0B11FFFF
(1746132891.968602) can0 09F10501#C2FF7FFF7FFF7FFF
(1746132891.969751) can0 09F10501#C3FFFFFFFFFFFFFF
(1746132891.969753) can0 09F10D07#FF07FF7F52E1FFFF
(1746132891.970835) can0 09F10D00#FF07FF7F0000FFFF
(1746132891.970836) can0 09F10D01#FF000000FF7FFFFF
(1746132892.117784) can0 09F10D07#FF07FF7F52E1FFFF
(1746132892.117786) can0 09F10D00#FF07FF7F0000FFFF
(1746132892.216002) can0 18FF3D01#419FFFFF02FFFFFF
(1746132892.216003) can0 09F10501#E0153038FFFF7FFF
(1746132892.217199) can0 09F10501#E1FFFFFF0B11FFFF
(1746132892.217200) can0 09F10501#E2FF7FFF7FFF7FFF
(1746132892.218384) can0 09F10501#E3FFFFFFFFFFFFFF
(1746132892.218385) can0 09F10D07#FF07FF7F52E1FFFF
(1746132892.219502) can0 09F10D00#FF07FF7F0000FFFF
(1746132892.219503) can0 09F10D01#FF000000FF7FFFFF
(1746132892.293023) can0 04FF1901#419F640A08000000
(1746132892.293024) can0 04FF1901#419F640202010000
(1746132892.317505) can0 09F10D07#FF07FF7F52E1FFFF
(1746132892.317506) can0 09F10D00#FF07FF7F0000FFFF
(1746132892.325536) can0 18EEFF03#E1C331E8009178C0
(1746132892.325538) can0 18EEFF06#E1C333E8008C50C0
(1746132892.350380) can0 18EEFF04#E18338E800AA78C0
(1746132892.375097) can0 18EEFF05#E14331E800D278C0
(1746132892.416950) can0 18FF3D01#419FFFFF02FFFFFF
(1746132892.416952) can0 09F10501#00153038FFFF7FFF
(1746132892.418147) can0 09F10501#01FFFFFF0B11FFFF
(1746132892.418147) can0 09F10501#02FF7FFF7FFF7FFF
(1746132892.419287) can0 09F10501#03FFFFFFFFFFFFFF
(1746132892.419288) can0 09F10D01#FF000000FF7FFFFF
(1746132892.467420) can0 09F10D07#FF07FF7F52E1FFFF
(1746132892.467422) can0 09F10D00#FF07FF7F0000FFFF
(1746132892.617710) can0 18FF3D01#419FFFFF02FFFFFF
(1746132892.617712) can0 09F10501#20153038FFFF7FFF
(1746132892.618837) can0 09F10501#21FFFFFF0B11FFFF
(1746132892.618838) can0 09F10501#22FF7FFF7FFF7FFF
(1746132892.619937) can0 09F10501#23FFFFFFFFFFFFFF
(1746132892.619938) can0 09F10D07#FF07FF7F52E1FFFF
(1746132892.621131) can0 09F10D00#FF07FF7F0000FFFF
(1746132892.621133) can0 09F10D01#FF000000FF7FFFFF
(1746132892.625808) can0 0DFF1D06#A00E419F01FFFFFF
(1746132892.625809) can0 0DFF1D06#A119110000FFFFFF
(1746132892.626963) can0 0DFF1D06#A2FFFFFFFFFFFFFF
(1746132892.650630) can0 0DFF1D06#C00E419F01FFFFFF
(1746132892.650631) can0 0DFF1D06#C11C110000FFFFFF
(1746132892.651764) can0 0DFF1D06#C2FFFFFFFFFFFFFF
(1746132892.675421) can0 0DFF1D06#E00E419F01FFFFFF
(1746132892.675423) can0 0DFF1D06#E118060000FFFFFF
(1746132892.676554) can0 0DFF1D06#E2FFFFFFFFFFFFFF
(1746132892.676555) can0 09F80103#FFFFFF7FFFFFFF7F
(1746132892.677720) can0 09FD0205#FFFFFFFFFFF8FFFF
(1746132892.700221) can0 0DFF1D06#000E419F01FFFFFF
(1746132892.700222) can0 0DFF1D06#0114060000FFFFFF
(1746132892.701363) can0 0DFF1D06#02FFFFFFFFFFFFFF
(1746132892.701364) can0 09FF2205#600C419FFFFF01FF
(1746132892.702477) can0 09FF2205#613A002200F20FFF
(1746132892.718268) can0 09F10D07#FF07FF7F52E1FFFF
(1746132892.718270) can0 09F10D00#FF07FF7F0000FFFF
(1746132892.724954) can0 0DFF1D06#200E419F07FFFFFF
(1746132892.724955) can0 0DFF1D06#2109010000FFFFFF
(1746132892.726115) can0 0DFF1D06#22FFFFFFFFFFFFFF
(1746132892.726116) can0 0DFF1D06#400E419F01FFFFFF
(1746132892.727272) can0 0DFF1D06#4114010000FFFFFF
(1746132892.727273) can0 0DFF1D06#42FFFFFFFFFFFFFF
(1746132892.728420) can0 0DFF0605#400F1399FF010008
(1746132892.728422) can0 0DFF0605#4100450202C60500
(1746132892.729567) can0 0DFF0605#426441FFFFFFFFFF
(1746132892.741366) can0 0DFF1D01#000E419FFFFFFF00
(1746132892.741367) can0 0DFF1D01#0114060002AC0000
(1746132892.742523) can0 0DFF1D01#0200FFFFFFFFFFFF
(1746132892.752576) can0 0DFF1D06#600E419F07FFFFFF
(1746132892.752577) can0 0DFF1D06#6109020000FFFFFF
(1746132892.753652) can0 0DFF1D06#62FFFFFFFFFFFFFF
(1746132892.753654) can0 0DFF1D06#800E419F01FFFFFF
(1746132892.754878) can0 0DFF1D06#81141D0000FFFFFF
(1746132892.754880) can0 0DFF1D06#82FFFFFFFFFFFFFF
(1746132892.755993) can0 08FF0005#1399040000000200
(1746132892.767577) can0 0DFF1D07#400E419FFFFFFF00
(1746132892.767578) can0 0DFF1D07#4109010002AE1E00
(1746132892.768720) can0 0DFF1D07#4200FFFFFFFFFFFF
(1746132892.768722) can0 0DFF1D01#200E419FFFFFFF00
(1746132892.769808) can0 0DFF1D01#2114010002640000
(1746132892.769810) can0 0DFF1D01#2200FFFFFFFFFFFF
(1746132892.777410) can0 0DFF1D06#A00E419F01FFFFFF
(1746132892.777411) can0 0DFF1D06#A1180A0000FFFFFF
(1746132892.778550) can0 0DFF1D06#A2FFFFFFFFFFFFFF
(1746132892.778551) can0 0DFF1D06#C00E419F01FFFFFF
(1746132892.779666) can0 0DFF1D06#C11C010000FFFFFF
(1746132892.779667) can0 0DFF1D06#C2FFFFFFFFFFFFFF
(1746132892.780893) can0 1CFF1906#419F010B00000000
(1746132892.780894) can0 09F80103#FFFFFF7FFFFFFF7F
(1746132892.782061) can0 09F80203#40FFFFFFFFFFFFFF
(1746132892.793251) can0 0DFF1D07#600E419FFFFFFF00
(1746132892.793252) can0 0DFF1D07#610902000252E100
(1746132892.794350) can0 0DFF1D07#6200FFFFFFFFFFFF
(1746132892.794351) can0 0DFF1D01#400E419FFFFFFF03
(1746132892.795470) can0 0DFF1D01#41141D0002B00400
(1746132892.795471) can0 0DFF1D01#4200FFFFFFFFFFFF
(1746132892.802140) can0 0DFF1D06#E00E419F01FFFFFF
(1746132892.802141) can0 0DFF1D06#E11A0D0000FFFFFF
(1746132892.803155) can0 0DFF1D06#E2FFFFFFFFFFFFFF
(1746132892.803157) can0 0DFF1D06#000E419F01FFFFFF
(1746132892.804359) can0 0DFF1D06#011C020000FFFFFF
(1746132892.804360) can0 0DFF1D06#02FFFFFFFFFFFFFF
(1746132892.817586) can0 0DFF1D01#600E419FFFFFFF20
(1746132892.817587) can0 0DFF1D01#61180A0002030000
(1746132892.818764) can0 0DFF1D01#6200FFFFFFFFFFFF
(1746132892.818765) can0 18FF3D01#419FFFFF02FFFFFF
(1746132892.819860) can0 09F10501#40153038FFFF7FFF
(1746132892.819861) can0 09F10501#41FFFFFF0B11FFFF
(1746132892.821057) can0 09F10501#42FF7FFF7FFF7FFF
(1746132892.821058) can0 09F10501#43FFFFFFFFFFFFFF
(1746132892.822186) can0 09F10D07#FF07FF7F52E1FFFF
(1746132892.822186) can0 09F10D00#FF07FF7F0000FFFF
(1746132892.823333) can0 09F10D01#FF000000FF7FFFFF
(1746132892.826715) can0 18EA4305#00EE00
(1746132892.826716) can0 0DFF1D06#200E419F01FFFFFF
(1746132892.827845) can0 0DFF1D06#21190D0000FFFFFF
(1746132892.827846) can0 0DFF1D06#22FFFFFFFFFFFFFF
(1746132892.829008) can0 0DFF1D06#400E419F01FFFFFF
(1746132892.829009) can0 0DFF1D06#411C080000FFFFFF
(1746132892.830165) can0 0DFF1D06#42FFFFFFFFFFFFFF
(1746132892.830167) can0 09FD0205#FFFFFFFFFFFBFFFF
(1746132892.831311) can0 18EEFF43#3639A959008932C0
(1746132892.843804) can0 0DFF1D01#800E419FFFFFFF20
(1746132892.843806) can0 0DFF1D01#811A0D0002410000
(1746132892.844939) can0 0DFF1D01#8200FFFFFFFFFFFF
(1746132892.851593) can0 0DFF1D06#600E419F01FFFFFF
(1746132892.851594) can0 0DFF1D06#611A0F0000FFFFFF
(1746132892.852734) can0 0DFF1D06#62FFFFFFFFFFFFFF
(1746132892.852735) can0 0DFF1D06#800E419F01FFFFFF
(1746132892.853890) can0 0DFF1D06#81180B0000FFFFFF
(1746132892.853891) can0 0DFF1D06#82FFFFFFFFFFFFFF
(1746132892.876412) can0 0DFF1D06#A00E419F01FFFFFF
(1746132892.876413) can0 0DFF1D06#A1190F0000FFFFFF
(1746132892.877524) can0 0DFF1D06#A2FFFFFFFFFFFFFF
(1746132892.877525) can0 0DFF1D06#C00E419F01FFFFFF
(1746132892.878688) can0 0DFF1D06#C11C090000FFFFFF
(1746132892.878689) can0 0DFF1D06#C2FFFFFFFFFFFFFF
(1746132892.879797) can0 09F80103#FFFFFF7FFFFFFF7F
(1746132892.891400) can0 0DFF1D01#A00E419FFFFFFF20
(1746132892.891402) can0 0DFF1D01#A11A0F0002550000
(1746132892.892569) can0 0DFF1D01#A200FFFFFFFFFFFF
(1746132892.901292) can0 0DFF1D06#E00E419F01FFFFFF
(1746132892.901293) can0 0DFF1D06#E11A0E0000FFFFFF
(1746132892.902444) can0 0DFF1D06#E2FFFFFFFFFFFFFF
(1746132892.902445) can0 0DFF1D06#000E419F01FFFFFF
(1746132892.903505) can0 0DFF1D06#011B0C0000FFFFFF
(1746132892.903507) can0 0DFF1D06#02FFFFFFFFFFFFFF
(1746132892.917531) can0 1DFF2C01#2017419F00000000
(1746132892.917533) can0 1DFF2C01#2100FFFFFF7FFFFF
(1746132892.918596) can0 1DFF2C01#22FFFFFFFFFF7F61
(1746132892.918597) can0 1DFF2C01#23737320FFFFFFFF
(1746132892.926238) can0 0DFF1D06#200E419F01FFFFFF
(1746132892.926240) can0 0DFF1D06#21190E0000FFFFFF
(1746132892.927400) can0 0DFF1D06#22FFFFFFFFFFFFFF
(1746132892.927401) can0 0DFF1D06#400E419F01FFFFFF
(1746132892.928535) can0 0DFF1D06#41180C0000FFFFFF
(1746132892.928537) can0 0DFF1D06#42FFFFFFFFFFFFFF
(1746132892.942807) can0 0DFF1D01#C00E419FFFFFFF34
(1746132892.942809) can0 0DFF1D01#C11A0E0002320000
(1746132892.943878) can0 0DFF1D01#C200FFFFFFFFFFFF
(1746132892.943879) can0 0DFF1D01#E00E419FFFFFFF7C
(1746132892.945046) can0 0DFF1D01#E11B0C0002000000
(1746132892.945047) can0 0DFF1D01#E200FFFFFFFFFFFF
(1746132892.950852) can0 0DFF1D06#600E419F01FFFFFF
(1746132892.950853) can0 0DFF1D06#611A100000FFFFFF
(1746132892.951946) can0 0DFF1D06#62FFFFFFFFFFFFFF
(1746132892.951947) can0 0DFF1D06#800E419F01FFFFFF
(1746132892.953087) can0 0DFF1D06#8114090000FFFFFF
(1746132892.953087) can0 0DFF1D06#82FFFFFFFFFFFFFF
(1746132892.968255) can0 0DFF1D01#000E419FFFFFFFFF
(1746132892.968257) can0 0DFF1D01#01180C0002690200
(1746132892.969379) can0 0DFF1D01#0200FFFFFFFFFFFF
(1746132892.969380) can0 09F10D07#FF07FF7F52E1FFFF
(1746132892.970533) can0 09F10D00#FF07FF7F0000FFFF
(1746132892.975615) can0 0DFF1D06#A00E419F01FFFFFF
(1746132892.975617) can0 0DFF1D06#A119100000FFFFFF
(1746132892.976752) can0 0DFF1D06#A2FFFFFFFFFFFFFF
(1746132892.976753) can0 0DFF1D06#C00E419F01FFFFFF
(1746132892.977899) can0 0DFF1D06#C118090000FFFFFF
(1746132892.977900) can0 0DFF1D06#C2FFFFFFFFFFFFFF
(1746132892.979045) can0 09F80103#FFFFFF7FFFFFFF7F
(1746132892.979045) can0 09FD0205#FFFFFFFFFFF8FFFF
(1746132892.992356) can0 0DFF1D01#200E419FFFFFFF62
(1746132892.992357) can0 0DFF1D01#211A100002002233
(1746132892.993484) can0 0DFF1D01#2200FFFFFFFFFFFF
(1746132892.993486) can0 0DFF1D01#400E419FFFFFFF30
(1746132892.994606) can0 0DFF1D01#4114090002411900
(1746132892.994607) can0 0DFF1D01#4200FFFFFFFFFFFF
(1746132893.000528) can0 0DFF1D06#E00E419F01FFFFFF
(1746132893.000529) can0 0DFF1D06#E118020000FFFFFF
(1746132893.001669) can0 0DFF1D06#E2FFFFFFFFFFFFFF
(1746132893.001670) can0 0DFF1D06#000E419F01FFFFFF
(1746132893.002793) can0 0DFF1D06#0121190000FFFFFF
(1746132893.002794) can0 0DFF1D06#02FFFFFFFFFFFFFF
(1746132893.025289) can0 0DFF1D06#200E419F01FFFFFF
(1746132893.025291) can0 0DFF1D06#211A110000FFFFFF
(1746132893.026400) can0 0DFF1D06#22FFFFFFFFFFFFFF
(1746132893.026400) can0 0DFF1D06#400E419F01FFFFFF
(1746132893.027542) can0 0DFF1D06#411F1B0000FFFFFF
(1746132893.027543) can0 0DFF1D06#42FFFFFFFFFFFFFF
(1746132893.028691) can0 0DFF0605#600F1399FF011180
(1746132893.028691) can0 0DFF0605#610000FC12B10100
(1746132893.029821) can0 0DFF0605#629EBEFFFFFFFFFF
(1746132893.029823) can0 09F80203#40FFFFFFFFFFFFFF
(1746132893.042968) can0 0DFF1D01#600E419FFFFFFF20
(1746132893.042970) can0 0DFF1D01#61211900027FC80C
(1746132893.044066) can0 0DFF1D01#6200FFFFFFFFFFFF
(1746132893.049991) can0 0DFF1D06#600E419F01FFFFFF
(1746132893.049992) can0 0DFF1D06#6119110000FFFFFF
(1746132893.051126) can0 0DFF1D06#62FFFFFFFFFFFFFF
(1746132893.051127) can0 0DFF1D06#800E419F01FFFFFF
(1746132893.052254) can0 0DFF1D06#811F1A0000FFFFFF
(1746132893.052254) can0 0DFF1D06#82FFFFFFFFFFFFFF
(1746132893.067214) can0 0DFF1D01#800E419FFFFFFF89
(1746132893.067216) can0 0DFF1D01#811F1B0002D00700
(1746132893.068338) can0 0DFF1D01#8200FFFFFFFFFFFF
(1746132893.068339) can0 18FF3D01#419FFFFF02FFFFFF
(1746132893.069502) can0 09F10501#60153038FFFF7FFF
(1746132893.069503) can0 09F10501#61FFFFFF0B11FFFF
(1746132893.070669) can0 09F10501#62FF7FFF7FFF7FFF
(1746132893.070670) can0 09F10501#63FFFFFFFFFFFFFF
(1746132893.071799) can0 09F10D07#FF07FF7F52E1FFFF
(1746132893.071800) can0 09F10D00#FF07FF7F0000FFFF
(1746132893.072962) can0 09F10D01#FF000000FF7FFFFF
(1746132893.077587) can0 0DFF1D06#A00E419F01FFFFFF
(1746132893.077588) can0 0DFF1D06#A11C110000FFFFFF
(1746132893.078731) can0 0DFF1D06#A2FFFFFFFFFFFFFF
(1746132893.078732) can0 0DFF1D06#C00E419F01FFFFFF
(1746132893.079897) can0 0DFF1D06#C1220B0000FFFFFF
(1746132893.079898) can0 0DFF1D06#C2FFFFFFFFFFFFFF
(1746132893.081067) can0 09F80103#FFFFFF7FFFFFFF7F
(1746132893.092860) can0 0DFF1D01#A00E419FFFFFFF7C
(1746132893.092862) can0 0DFF1D01#A11F1A0002D00000
(1746132893.093964) can0 0DFF1D01#A200FFFFFFFFFFFF
(1746132893.102369) can0 0DFF1D06#E00E419F01FFFFFF
(1746132893.102370) can0 0DFF1D06#E118060000FFFFFF
(1746132893.103495) can0 0DFF1D06#E2FFFFFFFFFFFFFF
(1746132893.103496) can0 0DFF1D06#000E419F01FFFFFF
(1746132893.104654) can0 0DFF1D06#01221A0000FFFFFF
(1746132893.104655) can0 0DFF1D06#02FFFFFFFFFFFFFF
(1746132893.118087) can0 0DFF1D01#C00E419FFFFFFFFF
(1746132893.118088) can0 0DFF1D01#C1220B0002E82800
(1746132893.119233) can0 0DFF1D01#C200FFFFFFFFFFFF
(1746132893.127151) can0 0DFF1D06#200E419F01FFFFFF
(1746132893.127153) can0 0DFF1D06#211E1A0000FFFFFF
(1746132893.128257) can0 0DFF1D06#22FFFFFFFFFFFFFF
(1746132893.128257) can0 09FD0205#FFFFFFFFFFFBFFFF
(1746132893.143241) can0 0DFF1D01#E00E419FFFFFFFC8
(1746132893.143243) can0 0DFF1D01#E1221A0002E80300
(1746132893.144424) can0 0DFF1D01#E200FFFFFFFFFFFF
(1746132893.151913) can0 0DFF1D06#400E419F01FFFFFF
(1746132893.151914) can0 0DFF1D06#41200B0000FFFFFF
(1746132893.153042) can0 0DFF1D06#42FFFFFFFFFFFFFF
(1746132893.168246) can0 0DFF1D01#000E419FFFFFFFA1
(1746132893.168247) can0 0DFF1D01#011E1A0002D00700
(1746132893.169384) can0 0DFF1D01#0200FFFFFFFFFFFF
(1746132893.169386) can0 09F10D07#FF07FF7F52E1FFFF
(1746132893.176790) can0 0DFF1D06#600E419F01FFFFFF
(1746132893.176791) can0 0DFF1D06#61201B0000FFFFFF
(1746132893.177917) can0 0DFF1D06#62FFFFFFFFFFFFFF
(1746132893.177918) can0 0DF01003#40F0FFFFFFFFFFFF
(1746132893.179066) can0 09F80103#FFFFFF7FFFFFFF7F
(1746132893.193222) can0 0DFF1D01#200E419FFFFFFF20
(1746132893.193225) can0 0DFF1D01#21200B0002451B00
(1746132893.194354) can0 0DFF1D01#2200FFFFFFFFFFFF
(1746132893.201528) can0 0DFF1D06#800E419F01FFFFFF
(1746132893.201530) can0 0DFF1D06#811C010000FFFFFF
(1746132893.202696) can0 0DFF1D06#82FFFFFFFFFFFFFF
(1746132893.202697) can0 0DFF1D06#A00E419F01FFFFFF
(1746132893.203761) can0 0DFF1D06#A1230D0000FFFFFF
(1746132893.203762) can0 0DFF1D06#A2FFFFFFFFFFFFFF
(1746132893.218362) can0 0DFF1D01#400E419FFFFFFF34
(1746132893.218364) can0 0DFF1D01#41201B0002F40100
(1746132893.219468) can0 0DFF1D01#4200FFFFFFFFFFFF
(1746132893.219469) can0 09F10D00#FF07FF7F0000FFFF
(1746132893.226260) can0 0DFF1D06#C00E419F01FFFFFF
(1746132893.226263) can0 0DFF1D06#C11C020000FFFFFF
(1746132893.227432) can0 0DFF1D06#C2FFFFFFFFFFFFFF
(1746132893.227433) can0 0DFF1D06#E00E419F01FFFFFF
(1746132893.228543) can0 0DFF1D06#E1230B0000FFFFFF
(1746132893.228544) can0 0DFF1D06#E2FFFFFFFFFFFFFF
(1746132893.229657) can0 0DFF0605#800F1399FF010005
(1746132893.229659) can0 0DFF0605#81005C5D02F40000
(1746132893.230860) can0 0DFF0605#829FF9FFFFFFFFFF
(1746132893.242428) can0 0DFF1D01#600E419FFFFFFF0D
(1746132893.242430) can0 0DFF1D01#61230D00020F0000
(1746132893.243554) can0 0DFF1D01#6200FFFFFFFFFFFF
(1746132893.251061) can0 0DFF1D06#000E419F01FFFFFF
(1746132893.251062) can0 0DFF1D06#01190D0000FFFFFF
(1746132893.252211) can0 0DFF1D06#02FFFFFFFFFFFFFF
(1746132893.252212) can0 0DFF1D06#200E419F01FFFFFF
(1746132893.253382) can0 0DFF1D06#211C080000FFFFFF
(1746132893.253383) can0 0DFF1D06#22FFFFFFFFFFFFFF
(1746132893.254480) can0 0DFF1D06#400E419F01FFFFFF
(1746132893.254481) can0 0DFF1D06#41042D0000FFFFFF
(1746132893.255604) can0 0DFF1D06#42FFFFFFFFFFFFFF
(1746132893.268040) can0 0DFF1D01#800E419FFFFFFFE6
(1746132893.268041) can0 0DFF1D01#81230B0002000000
(1746132893.269126) can0 0DFF1D01#8200FFFFFFFFFFFF
(1746132893.269127) can0 18FF3D01#419FFFFF02FFFFFF
(1746132893.270300) can0 09F10501#80153038FFFF7FFF
(1746132893.270301) can0 09F10501#81FFFFFF0B11FFFF
(1746132893.271496) can0 09F10501#82FF7FFF7FFF7FFF
(1746132893.271497) can0 09F10501#83FFFFFFFFFFFFFF
(1746132893.272635) can0 09F10D07#FF07FF7F52E1FFFF
(1746132893.275674) can0 0DFF1D06#600E419F01FFFFFF
(1746132893.275675) can0 0DFF1D06#61180B0000FFFFFF
(1746132893.276837) can0 0DFF1D06#62FFFFFFFFFFFFFF
(1746132893.276839) can0 1CFF1906#419F010300000000
(1746132893.277960) can0 09F80103#FFFFFF7FFFFFFF7F
(1746132893.277961) can0 09F80203#41FFFFFFFFFFFFFF
(1746132893.279127) can0 09FD0205#FFFFFFFFFFF8FFFF
(1746132893.300569) can0 0DFF1D06#800E419F01FFFFFF
(1746132893.300571) can0 0DFF1D06#81190F0000FFFFFF
(1746132893.301670) can0 0DFF1D06#82FFFFFFFFFFFFFF
(1746132893.301671) can0 0DFF1D06#A00E419F01FFFFFF
(1746132893.302813) can0 0DFF1D06#A11C090000FFFFFF
(1746132893.302815) can0 0DFF1D06#A2FFFFFFFFFFFFFF
(1746132893.316326) can0 09F10D01#FF000000FF7FFFFF
(1746132893.341083) can0 04FF1901#419F640A08000000
(1746132893.341085) can0 04FF1901#419F640202010000
(1746132893.350026) can0 0DFF1D06#C00E419F01FFFFFF
(1746132893.350027) can0 0DFF1D06#C1190E0000FFFFFF
(1746132893.351128) can0 0DFF1D06#C2FFFFFFFFFFFFFF
(1746132893.367891) can0 09F10D00#FF07FF7F0000FFFF
(1746132893.374758) can0 09F80103#FFFFFF7FFFFFFF7F
(1746132893.402367) can0 0DFF1D06#E00E419F01FFFFFF
(1746132893.402369) can0 0DFF1D06#E119100000FFFFFF
(1746132893.403467) can0 0DFF1D06#E2FFFFFFFFFFFFFF
(1746132893.403469) can0 0DFF1D06#000E419F01FFFFFF
(1746132893.404661) can0 0DFF1D06#0118090000FFFFFF
(1746132893.404662) can0 0DFF1D06#02FFFFFFFFFFFFFF
(1746132893.417174) can0 09F10D07#FF07FF7F52E1FFFF
(1746132893.427101) can0 0DFF1D06#200E419F01FFFFFF
(1746132893.427103) can0 0DFF1D06#2118020000FFFFFF
(1746132893.428214) can0 0DFF1D06#22FFFFFFFFFFFFFF
(1746132893.428215) can0 09FD0205#FFFFFFFFFFFBFFFF
(1746132893.451906) can0 0DFF1D06#400E419F01FFFFFF
(1746132893.451907) can0 0DFF1D06#411A110000FFFFFF
(1746132893.453022) can0 0DFF1D06#42FFFFFFFFFFFFFF
(1746132893.468231) can0 09F10D00#FF07FF7F0000FFFF
(1746132893.476692) can0 0DFF1D06#600E419F01FFFFFF
(1746132893.476694) can0 0DFF1D06#6119110000FFFFFF
(1746132893.477807) can0 0DFF1D06#62FFFFFFFFFFFFFF
(1746132893.477809) can0 1DF11A03#41FFFFFF2FFDFFFF
(1746132893.478980) can0 1DF11A04#3FFFFFFF2FFDFFFF
(1746132893.478981) can0 09F80103#FFFFFF7FFFFFFF7F
(1746132893.480127) can0 0DF80503#002B41FFFFFFFFFF
(1746132893.480127) can0 0DF80503#01FFFFFFFFFFFFFF
(1746132893.481317) can0 0DF80503#02FF7FFFFFFFFFFF
(1746132893.481318) can0 0DF80503#03FFFF7FFFFFFFFF
(1746132893.482460) can0 0DF80503#04FFFFFF7F00FCFF
(1746132893.482461) can0 0DF80503#05FF7FFF7FFFFFFF
(1746132893.483676) can0 0DF80503#067FFFFFFFFFFFFF
(1746132893.483677) can0 1DF90504#C027FFFF0200FFFF
(1746132893.484792) can0 1DF90504#C1FFFF01030100FF
(1746132893.484792) can0 1DF90504#C20000030100FFFF
(1746132893.485958) can0 1DF90504#C3FF7FFFFFFF7F01
(1746132893.485959) can0 1DF90504#C400030100FFFFFF
(1746132893.487133) can0 1DF90504#C57FFFFFFF7FFFFF
(1746132893.501428) can0 0DFF1D06#800E419F01FFFFFF
(1746132893.501429) can0 0DFF1D06#811C110000FFFFFF
(1746132893.502587) can0 0DFF1D06#82FFFFFFFFFFFFFF
(1746132893.517531) can0 18FF3D01#419FFFFF02FFFFFF
(1746132893.517532) can0 09F10501#A0153038FFFF7FFF
(1746132893.518628) can0 09F10501#A1FFFFFF0B11FFFF
(1746132893.518630) can0 09F10501#A2FF7FFF7FFF7FFF
(1746132893.519813) can0 09F10501#A3FFFFFFFFFFFFFF
(1746132893.519814) can0 09F10D07#FF07FF7F52E1FFFF
(1746132893.520943) can0 09F10D01#FF000000FF7FFFFF
(1746132893.526147) can0 0DFF1D06#A00E419F01FFFFFF
(1746132893.526147) can0 0DFF1D06#A118060000FFFFFF
(1746132893.527297) can0 0DFF1D06#A2FFFFFFFFFFFFFF
(1746132893.527311) can0 0DFF0605#A00F1399FF010080
(1746132893.528440) can0 0DFF0605#A10000FC120E0000
(1746132893.528441) can0 0DFF0605#A27CA2FFFFFFFFFF
(1746132893.529585) can0 09F80203#41FFFFFFFFFFFFFF
(1746132893.529586) can0 0DF90304#3F3FFFFFFF7FFFFF
(1746132893.530771) can0 0DF90404#00223FFFFFFFFFFF
(1746132893.530772) can0 0DF90404#01FFFFFFFFFFFFFF
(1746132893.531959) can0 0DF90404#02FFFFFFFFFFFFFF
(1746132893.531960) can0 0DF90404#03FFFFFFFFFFFFFF
(1746132893.533127) can0 0DF90404#047FFFFFFF7FFF7F
(1746132893.533128) can0 19FA0303#41FFFF7FFF7FFF7F
(1746132893.534314) can0 19FA0403#E00341FFFFFFFFFF
(1746132893.550945) can0 08FF0005#1399040400000200
(1746132893.567929) can0 09F10D00#FF07FF7F0000FFFF
(1746132893.575820) can0 09F80103#FFFFFF7FFFFFFF7F
(1746132893.575821) can0 09FD0205#FFFFFFFFFFF8FFFF
(1746132893.625365) can0 0DFF1D06#C00E419F01FFFFFF
(1746132893.625366) can0 0DFF1D06#C11C010000FFFFFF
(1746132893.626483) can0 0DFF1D06#C2FFFFFFFFFFFFFF
(1746132893.626484) can0 0DFE1105#C00EFFFFFFFFFFFF
(1746132893.627648) can0 0DFE1105#C1FFFFFFFFFFFFFF
(1746132893.627649) can0 0DFE1105#C2FFFFFFFFFFFFFF
(1746132893.650061) can0 0DFF1D06#E00E419F01FFFFFF
(1746132893.650062) can0 0DFF1D06#E11C020000FFFFFF
(1746132893.651208) can0 0DFF1D06#E2FFFFFFFFFFFFFF
(1746132893.667592) can0 09F10D07#FF07FF7F52E1FFFF
(1746132893.667594) can0 09F10D00#FF07FF7F0000FFFF
(1746132893.677682) can0 0DFF1D06#000E419F01FFFFFF
(1746132893.677683) can0 0DFF1D06#01190D0000FFFFFF
(1746132893.678833) can0 0DFF1D06#02FFFFFFFFFFFFFF
(1746132893.678834) can0 0DFF1D06#200E419F01FFFFFF
(1746132893.679937) can0 0DFF1D06#211C080000FFFFFF
(1746132893.679939) can0 0DFF1D06#22FFFFFFFFFFFFFF
(1746132893.681144) can0 0DFF1D06#400E419F01FFFFFF
(1746132893.681145) can0 0DFF1D06#41042D0000FFFFFF
(1746132893.682310) can0 0DFF1D06#42FFFFFFFFFFFFFF
(1746132893.682311) can0 09F80103#FFFFFF7FFFFFFF7F
(1746132893.702429) can0 0DFF1D06#600E419F01FFFFFF
(1746132893.702430) can0 0DFF1D06#61180B0000FFFFFF
(1746132893.703582) can0 0DFF1D06#62FFFFFFFFFFFFFF
(1746132893.727187) can0 0DFF1D06#800E419F01FFFFFF
(1746132893.727188) can0 0DFF1D06#81190F0000FFFFFF
(1746132893.728350) can0 0DFF1D06#82FFFFFFFFFFFFFF
(1746132893.728351) can0 0DFF1D06#A00E419F01FFFFFF
(1746132893.729424) can0 0DFF1D06#A11C090000FFFFFF
(1746132893.729425) can0 0DFF1D06#A2FFFFFFFFFFFFFF
(1746132893.730662) can0 09FD0205#FFFFFFFFFFFBFFFF
(1746132893.767598) can0 18FF3D01#419FFFFF02FFFFFF
(1746132893.767599) can0 09F10501#C0153038FFFF7FFF
(1746132893.768752) can0 09F10501#C1FFFFFF0B11FFFF
(1746132893.768754) can0 09F10501#C2FF7FFF7FFF7FFF
(1746132893.769926) can0 09F10501#C3FFFFFFFFFFFFFF
(1746132893.769927) can0 09F10D07#FF07FF7F52E1FFFF
(1746132893.771065) can0 09F10D00#FF07FF7F0000FFFF
(1746132893.771066) can0 09F10D01#FF000000FF7FFFFF
(1746132893.776743) can0 0DFF1D06#C00E419F01FFFFFF
(1746132893.776744) can0 0DFF1D06#C1190E0000FFFFFF
(1746132893.777859) can0 0DFF1D06#C2FFFFFFFFFFFFFF
(1746132893.777860) can0 0DFF0605#C00F1399FF011080
(1746132893.778996) can0 0DFF0605#C10000FC12B10100
(1746132893.778996) can0 0DFF0605#C29EBEFFFFFFFFFF
(1746132893.780182) can0 1CFF1906#419F010B00000000
(1746132893.780182) can0 09F80103#FFFFFF7FFFFFFF7F
(1746132893.781349) can0 09F80203#41FFFFFFFFFFFFFF
(1746132893.826134) can0 0DFF1D06#E00E419F01FFFFFF
(1746132893.826135) can0 0DFF1D06#E119100000FFFFFF
(1746132893.827253) can0 0DFF1D06#E2FFFFFFFFFFFFFF
(1746132893.827255) can0 0DFF1D06#000E419F01FFFFFF
(1746132893.828417) can0 0DFF1D06#0118090000FFFFFF
(1746132893.828419) can0 0DFF1D06#02FFFFFFFFFFFFFF
(1746132893.850961) can0 0DFF1D06#200E419F01FFFFFF
(1746132893.850962) can0 0DFF1D06#2118020000FFFFFF
(1746132893.852065) can0 0DFF1D06#22FFFFFFFFFFFFFF
(1746132893.868218) can0 09F10D07#FF07FF7F52E1FFFF
(1746132893.868220) can0 09F10D00#FF07FF7F0000FFFF
(1746132893.875705) can0 0DFF1D06#400E419F01FFFFFF
(1746132893.875706) can0 0DFF1D06#411A110000FFFFFF
(1746132893.876815) can0 0DFF1D06#42FFFFFFFFFFFFFF
(1746132893.876817) can0 09F80103#FFFFFF7FFFFFFF7F
(1746132893.877980) can0 09FD0205#FFFFFFFFFFF8FFFF
(1746132893.900449) can0 0DFF1D06#600E419F01FFFFFF
(1746132893.900451) can0 0DFF1D06#6119110000FFFFFF
(1746132893.901589) can0 0DFF1D06#62FFFFFFFFFFFFFF
(1746132893.901590) can0 08FF0005#1399040500000200
(1746132893.917814) can0 1DFF2C01#4017419F00000000
(1746132893.917816) can0 1DFF2C01#4100FFFFFF7FFFFF
(1746132893.918918) can0 1DFF2C01#42FFFFFFFFFF7FFF
(1746132893.918919) can0 1DFF2C01#43FFFFFFFFFFFFFF
(1746132893.925306) can0 0DFF1D06#800E419F01FFFFFF
(1746132893.925308) can0 0DFF1D06#811C110000FFFFFF
(1746132893.926449) can0 0DFF1D06#82FFFFFFFFFFFFFF
(1746132893.950057) can0 0DFF1D06#A00E419F01FFFFFF
(1746132893.950058) can0 0DFF1D06#A118060000FFFFFF
(1746132893.951292) can0 0DFF1D06#A2FFFFFFFFFFFFFF
(1746132893.967658) can0 18FF3D01#419FFFFF02FFFFFF
(1746132893.967659) can0 09F10501#E0153038FFFF7FFF
(1746132893.968826) can0 09F10501#E1FFFFFF0B11FFFF
(1746132893.968827) can0 09F10501#E2FF7FFF7FFF7FFF
(1746132893.969999) can0 09F10501#E3FFFFFFFFFFFFFF
(1746132893.970000) can0 09F10D07#FF07FF7F52E1FFFF
(1746132893.971165) can0 09F10D00#FF07FF7F0000FFFF
(1746132893.971166) can0 09F10D01#FF000000FF7FFFFF
(1746132893.974861) can0 09F80103#FFFFFF7FFFFFFF7F
(1746132894.027129) can0 0DFF0605#E00F1399FF010480
(1746132894.027131) can0 0DFF0605#E100010002500000
(1746132894.028235) can0 0DFF0605#E23B2EFFFFFFFFFF
(1746132894.028236) can0 09F80203#41FFFFFFFFFFFFFF
(1746132894.029393) can0 09FD0205#FFFFFFFFFFFBFFFF
(1746132894.051836) can0 0DFF1D06#C00E419F01FFFFFF
(1746132894.051837) can0 0DFF1D06#C11C010000FFFFFF
(1746132894.053029) can0 0DFF1D06#C2FFFFFFFFFFFFFF
(1746132894.067420) can0 09F10D07#FF07FF7F52E1FFFF
(1746132894.067421) can0 09F10D00#FF07FF7F0000FFFF
(1746132894.076719) can0 0DFF1D06#E00E419F01FFFFFF
(1746132894.076721) can0 0DFF1D06#E11C020000FFFFFF
(1746132894.077864) can0 0DFF1D06#E2FFFFFFFFFFFFFF
(1746132894.077865) can0 09F80103#FFFFFF7FFFFFFF7F
(1746132894.101495) can0 0DFF1D06#000E419F01FFFFFF
(1746132894.101497) can0 0DFF1D06#011C080000FFFFFF
(1746132894.102562) can0 0DFF1D06#02FFFFFFFFFFFFFF
(1746132894.102564) can0 0DFF1D06#200E419F01FFFFFF
(1746132894.103776) can0 0DFF1D06#21042D0000FFFFFF
(1746132894.103777) can0 0DFF1D06#22FFFFFFFFFFFFFF
(1746132894.126143) can0 0DFF1D06#400E419F01FFFFFF
(1746132894.126144) can0 0DFF1D06#41180B0000FFFFFF
(1746132894.127232) can0 0DFF1D06#42FFFFFFFFFFFFFF
(1746132894.150948) can0 0DFF1D06#600E419F01FFFFFF
(1746132894.150950) can0 0DFF1D06#611C090000FFFFFF
(1746132894.152039) can0 0DFF1D06#62FFFFFFFFFFFFFF
(1746132894.152039) can0 08FF0005#1399040500000200
(1746132894.166161) can0 18FF3D01#419FFFFF02FFFFFF
(1746132894.166163) can0 09F10501#00153038FFFF7FFF
(1746132894.167271) can0 09F10501#01FFFFFF0B11FFFF
(1746132894.167272) can0 09F10501#02FF7FFF7FFF7FFF
(1746132894.168417) can0 09F10501#03FFFFFFFFFFFFFF
(1746132894.168418) can0 09F10D07#FF07FF7F52E1FFFF
(1746132894.169567) can0 09F10D00#FF07FF7F0000FFFF
(1746132894.169567) can0 09F10D01#FF000000FF7FFFFF
(1746132894.175659) can0 0DF01003#41F0FFFFFFFFFFFF
(1746132894.175660) can0 09F80103#FFFFFF7FFFFFFF7F
(1746132894.176797) can0 09FD0205#FFFFFFFFFFF8FFFF
(1746132894.249967) can0 0DFF1D06#800E419F01FFFFFF
(1746132894.249967) can0 0DFF1D06#8118090000FFFFFF
(1746132894.251084) can0 0DFF1D06#82FFFFFFFFFFFFFF
(1746132894.274701) can0 0DFF0605#000F1399FF011480
(1746132894.274703) can0 0DFF0605#010000FC12410000
(1746132894.275799) can0 0DFF0605#02FD25FFFFFFFFFF
(1746132894.275800) can0 1CFF1906#419F010300000000
(1746132894.277541) can0 09F80103#FFFFFF7FFFFFFF7F
(1746132894.277542) can0 09F80203#42FFFFFFFFFFFFFF
(1746132894.317045) can0 09F10D07#FF07FF7F52E1FFFF
(1746132894.317046) can0 09F10D00#FF07FF7F0000FFFF
(1746132894.327066) can0 09FD0205#FFFFFFFFFFFBFFFF
(1746132894.342960) can0 04FF1901#419F640A08000000
(1746132894.342962) can0 04FF1901#419F640202010000
(1746132894.367599) can0 18FF3D01#419FFFFF02FFFFFF
(1746132894.367599) can0 09F10501#20153038FFFF7FFF
(1746132894.368756) can0 09F10501#21FFFFFF0B11FFFF
(1746132894.368757) can0 09F10501#22FF7FFF7FFF7FFF
(1746132894.369931) can0 09F10501#23FFFFFFFFFFFFFF
(1746132894.369932) can0 09F10D01#FF000000FF7FFFFF
(1746132894.376717) can0 09F80103#FFFFFF7FFFFFFF7F
(1746132894.401468) can0 08FF0005#1399040500000200
(1746132894.418039) can0 09F10D07#FF07FF7F52E1FFFF
(1746132894.418040) can0 09F10D00#FF07FF7F0000FFFF
(1746132894.475711) can0 1DF11A03#42FFFFFF2FFDFFFF
(1746132894.475712) can0 1DF11A04#40FFFFFF2FFDFFFF
(1746132894.476857) can0 09F80103#FFFFFF7FFFFFFF7F
(1746132894.476858) can0 0DF80503#202B42FFFFFFFFFF
(1746132894.478042) can0 0DF80503#21FFFFFFFFFFFFFF
(1746132894.478043) can0 0DF80503#22FF7FFFFFFFFFFF
(1746132894.479218) can0 0DF80503#23FFFF7FFFFFFFFF
(1746132894.479219) can0 0DF80503#24FFFFFF7F00FCFF
(1746132894.480362) can0 0DF80503#25FF7FFF7FFFFFFF
(1746132894.480362) can0 0DF80503#267FFFFFFFFFFFFF
(1746132894.481531) can0 09FD0205#FFFFFFFFFFF8FFFF
(1746132894.517768) can0 09F10D07#FF07FF7F52E1FFFF
(1746132894.517770) can0 09F10D00#FF07FF7F0000FFFF
(1746132894.525302) can0 0DFF1D06#A00E419F01FFFFFF
(1746132894.525303) can0 0DFF1D06#A1042D0000FFFFFF
(1746132894.526436) can0 0DFF1D06#A2FFFFFFFFFFFFFF
(1746132894.526437) can0 0DFF0605#200F1399FF010009
(1746132894.527517) can0 0DFF0605#210000FC121C0000
(1746132894.527519) can0 0DFF0605#22DDD1FFFFFFFFFF
(1746132894.528683) can0 09F80203#42FFFFFFFFFFFFFF
(1746132894.528685) can0 0DF90304#403FFFFFFF7FFFFF
(1746132894.529916) can0 0DF90404#202240FFFFFFFFFF
(1746132894.529917) can0 0DF90404#21FFFFFFFFFFFFFF
(1746132894.531087) can0 0DF90404#22FFFFFFFFFFFFFF
(1746132894.531088) can0 0DF90404#23FFFFFFFFFFFFFF
(1746132894.532268) can0 0DF90404#247FFFFFFF7FFF7F
(1746132894.532269) can0 19FA0303#42FFFF7FFF7FFF7F
(1746132894.533433) can0 19FA0403#000342FFFFFFFFFF
(1746132894.567800) can0 18FF3D01#419FFFFF02FFFFFF
(1746132894.567802) can0 09F10501#40153038FFFF7FFF
(1746132894.568923) can0 09F10501#41FFFFFF0B11FFFF
(1746132894.568924) can0 09F10501#42FF7FFF7FFF7FFF
(1746132894.570067) can0 09F10501#43FFFFFFFFFFFFFF
(1746132894.570067) can0 09F10D01#FF000000FF7FFFFF
(1746132894.574647) can0 09F80103#FFFFFF7FFFFFFF7F
(1746132894.627098) can0 09FD0205#FFFFFFFFFFFBFFFF
(1746132894.627100) can0 0DFE1105#E00EFFFFFFFFFFFF
(1746132894.628290) can0 0DFE1105#E1FFFFFFFFFFFFFF
(1746132894.628291) can0 0DFE1105#E2FFFFFFFFFFFFFF
(1746132894.651837) can0 08FF0005#1399040500000200
(1746132894.667262) can0 09F10D07#FF07FF7F52E1FFFF
(1746132894.667264) can0 09F10D00#FF07FF7F0000FFFF
(1746132894.676621) can0 09F80103#FFFFFF7FFFFFFF7F
(1746132894.767640) can0 18FF3D01#419FFFFF02FFFFFF
(1746132894.767642) can0 09F10501#60153038FFFF7FFF
(1746132894.768750) can0 09F10501#61FFFFFF0B11FFFF
(1746132894.768751) can0 09F10501#62FF7FFF7FFF7FFF
(1746132894.769916) can0 09F10501#63FFFFFFFFFFFFFF
(1746132894.769916) can0 09F10D07#FF07FF7F52E1FFFF
(1746132894.771084) can0 09F10D00#FF07FF7F0000FFFF
(1746132894.771085) can0 09F10D01#FF000000FF7FFFFF
(1746132894.775480) can0 0DFF0605#400F1399FF010001
(1746132894.775480) can0 0DFF0605#410001FC02690000
(1746132894.776663) can0 0DFF0605#429FCDFFFFFFFFFF
(1746132894.776664) can0 1CFF1906#419F010B00000000
(1746132894.777780) can0 09F80103#FFFFFF7FFFFFFF7F
(1746132894.777780) can0 09F80203#42FFFFFFFFFFFFFF
(1746132894.778963) can0 09FD0205#FFFFFFFFFFF8FFFF
(1746132894.874700) can0 09F80103#FFFFFF7FFFFFFF7F
(1746132894.902304) can0 08FF0005#1399040500000200
(1746132894.917279) can0 09F10D07#FF07FF7F52E1FFFF
(1746132894.917281) can0 09F10D00#FF07FF7F0000FFFF
(1746132894.918542) can0 1DFF2C01#6017419F00000000
(1746132894.918543) can0 1DFF2C01#6100FFFFFF7FFFFF
(1746132894.919702) can0 1DFF2C01#62FFFFFFFFFF7FFF
(1746132894.919703) can0 1DFF2C01#63FFFFFFFFFFFFFF
(1746132894.927177) can0 09FD0205#FFFFFFFFFFFBFFFF
(1746132894.967796) can0 09FF2201#000C419FFFFF01FF
(1746132894.967797) can0 09FF2201#01390016000100FF
(1746132894.968948) can0 1DFF2801#401E419F16001A01
(1746132894.968950) can0 1DFF2801#415374656572696E
(1746132894.970008) can0 1DFF2801#426720636F6D7061
(1746132894.970009) can0 1DFF2801#437373206D697373
(1746132894.971113) can0 1DFF2801#44696E67FFFFFFFF
(1746132894.976722) can0 09F80103#FFFFFF7FFFFFFF7F
(1746132895.017046) can0 18FF3D01#419FFFFF02FFFFFF
(1746132895.017047) can0 09F10501#80153038FFFF7FFF
(1746132895.018159) can0 09F10501#81FFFFFF0B11FFFF
(1746132895.018160) can0 09F10501#82FF7FFF7FFF7FFF
(1746132895.019369) can0 09F10501#83FFFFFFFFFFFFFF
(1746132895.019370) can0 09F10D01#FF000000FF7FFFFF
(1746132895.026215) can0 09F80203#42FFFFFFFFFFFFFF
(1746132895.067514) can0 09F10D07#FF07FF7F52E1FFFF
(1746132895.067516) can0 09F10D00#FF07FF7F0000FFFF
(1746132895.075682) can0 09F80103#FFFFFF7FFFFFFF7F
(1746132895.075683) can0 09FD0205#FFFFFFFFFFF8FFFF
(1746132895.100460) can0 0DFF0605#600F1399FF010002
(1746132895.100461) can0 0DFF0605#61009A0002D70100
(1746132895.101539) can0 0DFF0605#62B4E7FFFFFFFFFF
(1746132895.149968) can0 08FF0005#1399040500000200
(1746132895.174771) can0 0DF01003#42F0FFFFFFFFFFFF
(1746132895.174773) can0 09F80103#FFFFFF7FFFFFFF7F
(1746132895.216083) can0 18FF3D01#419FFFFF02FFFFFF
(1746132895.216084) can0 09F10501#A0153038FFFF7FFF
(1746132895.217218) can0 09F10501#A1FFFFFF0B11FFFF
(1746132895.217218) can0 09F10501#A2FF7FFF7FFF7FFF
(1746132895.218367) can0 09F10501#A3FFFFFFFFFFFFFF
(1746132895.218368) can0 09F10D07#FF07FF7F52E1FFFF
(1746132895.219438) can0 09F10D00#FF07FF7F0000FFFF
(1746132895.219439) can0 09F10D01#FF000000FF7FFFFF
(1746132895.227120) can0 09FD0205#FFFFFFFFFFFBFFFF
(1746132895.276663) can0 1CFF1906#419F010300000000
(1746132895.276665) can0 09F80103#FFFFFF7FFFFFFF7F
(1746132895.277796) can0 09F80203#43FFFFFFFFFFFFFF
(1746132895.317679) can0 09F10D07#FF07FF7F52E1FFFF
(1746132895.317681) can0 09F10D00#FF07FF7F0000FFFF
(1746132895.375632) can0 09F80103#FFFFFF7FFFFFFF7F
(1746132895.375634) can0 09FD0205#FFFFFFFFFFF8FFFF
(1746132895.391385) can0 04FF1901#419F640A08000000
(1746132895.391386) can0 04FF1901#419F640202010000
(1746132895.400435) can0 08FF0005#1399040500000200
(1746132895.467093) can0 18FF3D01#419FFFFF02FFFFFF
(1746132895.467094) can0 09F10501#C0153038FFFF7FFF
(1746132895.468212) can0 09F10501#C1FFFFFF0B11FFFF
(1746132895.468214) can0 09F10501#C2FF7FFF7FFF7FFF
(1746132895.469334) can0 09F10501#C3FFFFFFFFFFFFFF
(1746132895.469336) can0 09F10D07#FF07FF7F52E1FFFF
(1746132895.470533) can0 09F10D00#FF07FF7F0000FFFF
(1746132895.470535) can0 09F10D01#FF000000FF7FFFFF
(1746132895.474774) can0 1DF11A03#43FFFFFF2FFDFFFF
(1746132895.474776) can0 1DF11A04#41FFFFFF2FFDFFFF
(1746132895.475935) can0 09F80103#FFFFFF7FFFFFFF7F
(1746132895.475937) can0 0DF80503#402B43FFFFFFFFFF
(1746132895.477085) can0 0DF80503#41FFFFFFFFFFFFFF
(1746132895.477087) can0 0DF80503#42FF7FFFFFFFFFFF
(1746132895.478248) can0 0DF80503#43FFFF7FFFFFFFFF
(1746132895.478250) can0 0DF80503#44FFFFFF7F00FCFF
(1746132895.479364) can0 0DF80503#45FF7FFF7FFFFFFF
(1746132895.479366) can0 0DF80503#467FFFFFFFFFFFFF
(1746132895.527208) can0 09F80203#43FFFFFFFFFFFFFF
(1746132895.527210) can0 0DF90304#413FFFFFFF7FFFFF
(1746132895.528267) can0 0DF90404#402241FFFFFFFFFF
(1746132895.528268) can0 0DF90404#41FFFFFFFFFFFFFF
(1746132895.529478) can0 0DF90404#42FFFFFFFFFFFFFF
(1746132895.529480) can0 0DF90404#43FFFFFFFFFFFFFF
(1746132895.530701) can0 0DF90404#447FFFFFFF7FFF7F
(1746132895.530702) can0 19FA0303#43FFFF7FFF7FFF7F
(1746132895.531859) can0 19FA0403#200343FFFFFFFFFF
(1746132895.531860) can0 09FD0205#FFFFFFFFFFFBFFFF
(1746132895.567631) can0 09F10D07#FF07FF7F52E1FFFF
(1746132895.567632) can0 09F10D00#FF07FF7F0000FFFF
(1746132895.576705) can0 09F80103#FFFFFF7FFFFFFF7F
(1746132895.601455) can0 1DFF0005#00061399FF050001
(1746132895.626211) can0 0DFE1105#000EFFFFFFFFFFFF
(1746132895.626213) can0 0DFE1105#01FFFFFFFFFFFFFF
(1746132895.627397) can0 0DFE1105#02FFFFFFFFFFFFFF
(1746132895.651022) can0 08FF0005#1399040500000200
(1746132895.666197) can0 18FF3D01#419FFFFF02FFFFFF
(1746132895.666199) can0 09F10501#E0153038FFFF7FFF
(1746132895.667320) can0 09F10501#E1FFFFFF0B11FFFF
(1746132895.667322) can0 09F10501#E2FF7FFF7FFF7FFF
(1746132895.668499) can0 09F10501#E3FFFFFFFFFFFFFF
(1746132895.668500) can0 09F10D01#FF000000FF7FFFFF
(1746132895.675719) can0 09F80103#FFFFFF7FFFFFFF7F
(1746132895.675720) can0 09FD0205#FFFFFFFFFFF8FFFF
(1746132895.717449) can0 09F10D07#FF07FF7F52E1FFFF
(1746132895.717451) can0 09F10D00#FF07FF7F0000FFFF
(1746132895.774740) can0 1CFF1906#419F010B00000000
(1746132895.774742) can0 09F80103#FFFFFF7FFFFFFF7F
(1746132895.775889) can0 09F80203#43FFFFFFFFFFFFFF
(1746132895.817816) can0 09F10D07#FF07FF7F52E1FFFF
(1746132895.817818) can0 09F10D00#FF07FF7F0000FFFF
(1746132895.827094) can0 09FD0205#FFFFFFFFFFFBFFFF
(1746132895.866081) can0 18FF3D01#419FFFFF02FFFFFF
(1746132895.866082) can0 09F10501#00153038FFFF7FFF
(1746132895.867210) can0 09F10501#01FFFFFF0B11FFFF
(1746132895.867211) can0 09F10501#02FF7FFF7FFF7FFF
(1746132895.868401) can0 09F10501#03FFFFFFFFFFFFFF
(1746132895.868403) can0 09F10D01#FF000000FF7FFFFF
(1746132895.876618) can0 09F80103#FFFFFF7FFFFFFF7F
(1746132895.901390) can0 08FF0005#1399040500000200
(1746132895.917415) can0 09F10D07#FF07FF7F52E1FFFF
(1746132895.917417) can0 09F10D00#FF07FF7F0000FFFF
(1746132895.918564) can0 1DFF2C01#8017419F00000000
(1746132895.918566) can0 1DFF2C01#8100FFFFFF7FFFFF
(1746132895.919668) can0 1DFF2C01#82FFFFFFFFFF7FFF
(1746132895.919670) can0 1DFF2C01#83FFFFFFFFFFFFFF
(1746132895.975783) can0 09F80103#FFFFFF7FFFFFFF7F
(1746132895.975784) can0 09FD0205#FFFFFFFFFFF8FFFF
(1746132896.025319) can0 09F80203#43FFFFFFFFFFFFFF
(1746132896.068234) can0 18FF3D01#419FFFFF02FFFFFF
(1746132896.068236) can0 09F10501#20153038FFFF7FFF
(1746132896.069338) can0 09F10501#21FFFFFF0B11FFFF
(1746132896.069339) can0 09F10501#22FF7FFF7FFF7FFF
(1746132896.070443) can0 09F10501#23FFFFFFFFFFFFFF
(1746132896.070444) can0 09F10D07#FF07FF7F52E1FFFF
(1746132896.071623) can0 09F10D00#FF07FF7F0000FFFF
(1746132896.071624) can0 09F10D01#FF000000FF7FFFFF
(1746132896.074756) can0 09F80103#FFFFFF7FFFFFFF7F
(1746132896.127244) can0 09FD0205#FFFFFFFFFFFBFFFF
(1746132896.151967) can0 08FF0005#1399040500000200
(1746132896.167385) can0 09F10D07#FF07FF7F52E1FFFF
(1746132896.167386) can0 09F10D00#FF07FF7F0000FFFF
(1746132896.176776) can0 0DF01003#43F0FFFFFFFFFFFF
(1746132896.176778) can0 09F80103#FFFFFF7FFFFFFF7F
(1746132896.275835) can0 1CFF1906#419F010300000000
(1746132896.275837) can0 09F80103#FFFFFF7FFFFFFF7F
(1746132896.276951) can0 09F80203#44FFFFFFFFFFFFFF
(1746132896.276952) can0 09FD0205#FFFFFFFFFFF8FFFF
(1746132896.316044) can0 18FF3D01#419FFFFF02FFFFFF
(1746132896.316046) can0 09F10501#40153038FFFF7FFF
(1746132896.317116) can0 09F10501#41FFFFFF0B11FFFF
(1746132896.317117) can0 09F10501#42FF7FFF7FFF7FFF
(1746132896.318304) can0 09F10501#43FFFFFFFFFFFFFF
(1746132896.318305) can0 09F10D07#FF07FF7F52E1FFFF
(1746132896.319428) can0 09F10D00#FF07FF7F0000FFFF
(1746132896.319429) can0 09F10D01#FF000000FF7FFFFF
(1746132896.374841) can0 09F80103#FFFFFF7FFFFFFF7F
(1746132896.393019) can0 04FF1901#419F640A08000000
(1746132896.393021) can0 04FF1901#419F640202010000
(1746132896.399606) can0 08FF0005#1399040500000200
(1746132896.417493) can0 09F10D07#FF07FF7F52E1FFFF
(1746132896.417495) can0 09F10D00#FF07FF7F0000FFFF
(1746132896.427243) can0 09FD0205#FFFFFFFFFFFBFFFF
(1746132896.476728) can0 1DF11A03#44FFFFFF2FFDFFFF
(1746132896.476729) can0 1DF11A04#42FFFFFF2FFDFFFF
(1746132896.477926) can0 09F80103#FFFFFF7FFFFFFF7F
(1746132896.477927) can0 0DF80503#602B44FFFFFFFFFF
(1746132896.479062) can0 0DF80503#61FFFFFFFFFFFFFF
(1746132896.479063) can0 0DF80503#62FF7FFFFFFFFFFF
(1746132896.480116) can0 0DF80503#63FFFF7FFFFFFFFF
(1746132896.480117) can0 0DF80503#64FFFFFF7F00FCFF
(1746132896.481283) can0 0DF80503#65FF7FFF7FFFFFFF
(1746132896.481283) can0 0DF80503#667FFFFFFFFFFFFF
(1746132896.517499) can0 18FF3D01#419FFFFF02FFFFFF
(1746132896.517500) can0 09F10501#60153038FFFF7FFF
(1746132896.518580) can0 09F10501#61FFFFFF0B11FFFF
(1746132896.518580) can0 09F10501#62FF7FFF7FFF7FFF
(1746132896.519724) can0 09F10501#63FFFFFFFFFFFFFF
(1746132896.519725) can0 09F10D07#FF07FF7F52E1FFFF
(1746132896.520855) can0 09F10D00#FF07FF7F0000FFFF
(1746132896.520856) can0 09F10D01#FF000000FF7FFFFF
(1746132896.526328) can0 09F80203#44FFFFFFFFFFFFFF
(1746132896.526329) can0 0DF90304#423FFFFFFF7FFFFF
(1746132896.527493) can0 0DF90404#602242FFFFFFFFFF
(1746132896.527494) can0 0DF90404#61FFFFFFFFFFFFFF
(1746132896.528680) can0 0DF90404#62FFFFFFFFFFFFFF
(1746132896.528681) can0 0DF90404#63FFFFFFFFFFFFFF
(1746132896.529847) can0 0DF90404#647FFFFFFF7FFF7F
(1746132896.529848) can0 19FA0303#44FFFF7FFF7FFF7F
(1746132896.530988) can0 19FA0403#400344FFFFFFFFFF
(1746132896.575919) can0 09F80103#FFFFFF7FFFFFFF7F
(1746132896.575920) can0 09FD0205#FFFFFFFFFFF8FFFF
(1746132896.617207) can0 09F10D07#FF07FF7F52E1FFFF
(1746132896.617208) can0 09F10D00#FF07FF7F0000FFFF
(1746132896.625378) can0 0DFE1105#200EFFFFFFFFFFFF
(1746132896.625379) can0 0DFE1105#21FFFFFFFFFFFFFF
(1746132896.626528) can0 0DFE1105#22FFFFFFFFFFFFFF
(1746132896.650178) can0 08FF0005#1399040500000200
(1746132896.674847) can0 09F80103#FFFFFF7FFFFFFF7F
(1746132896.727466) can0 09FD0205#FFFFFFFFFFFBFFFF
(1746132896.768131) can0 18FF3D01#419FFFFF02FFFFFF
(1746132896.768132) can0 09F10501#80153038FFFF7FFF
(1746132896.769277) can0 09F10501#81FFFFFF0B11FFFF
(1746132896.769279) can0 09F10501#82FF7FFF7FFF7FFF
(1746132896.770360) can0 09F10501#83FFFFFFFFFFFFFF
(1746132896.770361) can0 09F10D07#FF07FF7F52E1FFFF
(1746132896.771560) can0 09F10D00#FF07FF7F0000FFFF
(1746132896.771560) can0 09F10D01#FF000000FF7FFFFF
(1746132896.776732) can0 1CFF1906#419F010B00000000
(1746132896.776733) can0 09F80103#FFFFFF7FFFFFFF7F
(1746132896.777830) can0 09F80203#44FFFFFFFFFFFFFF
(1746132896.867481) can0 09F10D07#FF07FF7F52E1FFFF
(1746132896.867483) can0 09F10D00#FF07FF7F0000FFFF
(1746132896.875913) can0 09F80103#FFFFFF7FFFFFFF7F
(1746132896.875914) can0 09FD0205#FFFFFFFFFFF8FFFF
(1746132896.900660) can0 08FF0005#1399040500000200
(1746132896.917728) can0 1DFF2C01#A017419F00000000
(1746132896.917729) can0 1DFF2C01#A100FFFFFF7FFFFF
(1746132896.918860) can0 1DFF2C01#A2FFFFFFFFFF7FFF
(1746132896.918861) can0 1DFF2C01#A3FFFFFFFFFFFFFF
(1746132896.968132) can0 18FF3D01#419FFFFF02FFFFFF
(1746132896.968134) can0 09F10501#A0153038FFFF7FFF
(1746132896.969268) can0 09F10501#A1FFFFFF0B11FFFF
(1746132896.969269) can0 09F10501#A2FF7FFF7FFF7FFF
(1746132896.970348) can0 09F10501#A3FFFFFFFFFFFFFF
(1746132896.970350) can0 09F10D01#FF000000FF7FFFFF
(1746132896.975035) can0 09F80103#FFFFFF7FFFFFFF7F
(1746132897.017212) can0 09F10D07#FF07FF7F52E1FFFF
(1746132897.017214) can0 09F10D00#FF07FF7F0000FFFF
(1746132897.027301) can0 09F80203#44FFFFFFFFFFFFFF
(1746132897.027302) can0 09FD0205#FFFFFFFFFFFBFFFF
(1746132897.076766) can0 09F80103#FFFFFF7FFFFFFF7F
(1746132897.117507) can0 09F10D07#FF07FF7F52E1FFFF
(1746132897.117514) can0 09F10D00#FF07FF7F0000FFFF
(1746132897.151058) can0 08FF0005#1399040500000200
(1746132897.175875) can0 0DF01003#44F0FFFFFFFFFFFF
(1746132897.175877) can0 09F80103#FFFFFF7FFFFFFF7F
(1746132897.176968) can0 09FD0205#FFFFFFFFFFF8FFFF
(1746132897.217981) can0 18FF3D01#419FFFFF02FFFFFF
(1746132897.217983) can0 09F10501#C0153038FFFF7FFF
(1746132897.219083) can0 09F10501#C1FFFFFF0B11FFFF
(1746132897.219084) can0 09F10501#C2FF7FFF7FFF7FFF
(1746132897.220247) can0 09F10501#C3FFFFFFFFFFFFFF
(1746132897.220248) can0 09F10D01#FF000000FF7FFFFF
(1746132897.267117) can0 09F10D07#FF07FF7F52E1FFFF
(1746132897.267119) can0 09F10D00#FF07FF7F0000FFFF
(1746132897.274936) can0 1CFF1906#419F010300000000
(1746132897.274937) can0 09F80103#FFFFFF7FFFFFFF7F
(1746132897.276089) can0 09F80203#45FFFFFFFFFFFFFF
(1746132897.327320) can0 09FD0205#FFFFFFFFFFFBFFFF
(1746132897.367573) can0 09F10D07#FF07FF7F52E1FFFF
(1746132897.367575) can0 09F10D00#FF07FF7F0000FFFF
(1746132897.376715) can0 09F80103#FFFFFF7FFFFFFF7F
(1746132897.401592) can0 08FF0005#1399040500000200
(1746132897.417961) can0 18FF3D01#419FFFFF02FFFFFF
(1746132897.417962) can0 09F10501#E0153038FFFF7FFF
(1746132897.419092) can0 09F10501#E1FFFFFF0B11FFFF
(1746132897.419093) can0 09F10501#E2FF7FFF7FFF7FFF
(1746132897.420184) can0 09F10501#E3FFFFFFFFFFFFFF
(1746132897.420185) can0 09F10D01#FF000000FF7FFFFF
(1746132897.442621) can0 04FF1901#419F640A08000000
(1746132897.442623) can0 04FF1901#419F640202010000
(1746132897.475920) can0 1DF11A03#45FFFFFF2FFDFFFF
(1746132897.475921) can0 1DF11A04#43FFFFFF2FFDFFFF
(1746132897.477040) can0 09F80103#FFFFFF7FFFFFFF7F
(1746132897.477041) can0 0DF80503#802B45FFFFFFFFFF
(1746132897.478204) can0 0DF80503#81FFFFFFFFFFFFFF
(1746132897.478205) can0 0DF80503#82FF7FFFFFFFFFFF
(1746132897.479421) can0 0DF80503#83FFFF7FFFFFFFFF
(1746132897.479422) can0 0DF80503#84FFFFFF7F00FCFF
(1746132897.480540) can0 0DF80503#85FF7FFF7FFFFFFF
(1746132897.480541) can0 0DF80503#867FFFFFFFFFFFFF
(1746132897.481729) can0 09FD0205#FFFFFFFFFFF8FFFF
(1746132897.517998) can0 09F10D07#FF07FF7F52E1FFFF
(1746132897.518000) can0 09F10D00#FF07FF7F0000FFFF
(1746132897.525421) can0 09F80203#45FFFFFFFFFFFFFF
(1746132897.525423) can0 0DF90304#433FFFFFFF7FFFFF
(1746132897.526563) can0 0DF90404#802243FFFFFFFFFF
(1746132897.526564) can0 0DF90404#81FFFFFFFFFFFFFF
(1746132897.527714) can0 0DF90404#82FFFFFFFFFFFFFF
(1746132897.527716) can0 0DF90404#83FFFFFFFFFFFFFF
(1746132897.528915) can0 0DF90404#847FFFFFFF7FFF7F
(1746132897.528916) can0 19FA0303#45FFFF7FFF7FFF7F
(1746132897.530050) can0 19FA0403#600345FFFFFFFFFF
(1746132897.574959) can0 09F80103#FFFFFF7FFFFFFF7F
(1746132897.617770) can0 18FF3D01#419FFFFF02FFFFFF
(1746132897.617772) can0 09F10501#00153038FFFF7FFF
(1746132897.618854) can0 09F10501#01FFFFFF0B11FFFF
(1746132897.618855) can0 09F10501#02FF7FFF7FFF7FFF
(1746132897.619984) can0 09F10501#03FFFFFFFFFFFFFF
(1746132897.619985) can0 09F10D07#FF07FF7F52E1FFFF
(1746132897.621121) can0 09F10D00#FF07FF7F0000FFFF
(1746132897.621121) can0 09F10D01#FF000000FF7FFFFF
(1746132897.627298) can0 09FD0205#FFFFFFFFFFFBFFFF
(1746132897.627300) can0 0DFE1105#400EFFFFFFFFFFFF
(1746132897.628483) can0 0DFE1105#41FFFFFFFFFFFFFF
(1746132897.628485) can0 0DFE1105#42FFFFFFFFFFFFFF
(1746132897.651993) can0 08FF0005#1399040500000200
(1746132897.676715) can0 09F80103#FFFFFF7FFFFFFF7F
(1746132897.767241) can0 09F10D07#FF07FF7F52E1FFFF
(1746132897.767243) can0 09F10D00#FF07FF7F0000FFFF
(1746132897.775816) can0 1CFF1906#419F010B00000000
(1746132897.775817) can0 09F80103#FFFFFF7FFFFFFF7F
(1746132897.776971) can0 09F80203#45FFFFFFFFFFFFFF
(1746132897.776972) can0 09FD0205#FFFFFFFFFFF8FFFF
(1746132897.817886) can0 18FF3D01#419FFFFF02FFFFFF
(1746132897.817887) can0 09F10501#20153038FFFF7FFF
(1746132897.818956) can0 09F10501#21FFFFFF0B11FFFF
(1746132897.818957) can0 09F10501#22FF7FFF7FFF7FFF
(1746132897.820087) can0 09F10501#23FFFFFFFFFFFFFF
(1746132897.820088) can0 09F10D01#FF000000FF7FFFFF
(1746132897.868246) can0 09F10D07#FF07FF7F52E1FFFF
(1746132897.868248) can0 09F10D00#FF07FF7F0000FFFF
(1746132897.874862) can0 09F80103#FFFFFF7FFFFFFF7F
(1746132897.899591) can0 08FF0005#1399040500000200
(1746132897.927254) can0 09FD0205#FFFFFFFFFFFBFFFF
(1746132897.967126) can0 09F10D07#FF07FF7F52E1FFFF
(1746132897.967128) can0 09F10D00#FF07FF7F0000FFFF
(1746132897.968339) can0 1DFF2C01#C017419F00000000
(1746132897.968340) can0 1DFF2C01#C100FFFFFF7FFFFF
(1746132897.969498) can0 1DFF2C01#C2FFFFFFFFFF7FFF
(1746132897.969499) can0 1DFF2C01#C3FFFFFFFFFFFFFF
(1746132897.976762) can0 09F80103#FFFFFF7FFFFFFF7F
(1746132898.017756) can0 18FF3D01#419FFFFF02FFFFFF
(1746132898.017758) can0 09F10501#40153038FFFF7FFF
(1746132898.018843) can0 09F10501#41FFFFFF0B11FFFF
(1746132898.018844) can0 09F10501#42FF7FFF7FFF7FFF
(1746132898.019935) can0 09F10501#43FFFFFFFFFFFFFF
(1746132898.019936) can0 09F10D01#FF000000FF7FFFFF
(1746132898.026294) can0 09F80203#45FFFFFFFFFFFFFF
(1746132898.068216) can0 09F10D07#FF07FF7F52E1FFFF
(1746132898.068219) can0 09F10D00#FF07FF7F0000FFFF
(1746132898.075809) can0 09F80103#FFFFFF7FFFFFFF7F
(1746132898.075810) can0 09FD0205#FFFFFFFFFFF8FFFF
(1746132898.150125) can0 08FF0005#1399040500000200
(1746132898.167157) can0 09F10D07#FF07FF7F52E1FFFF
(1746132898.167159) can0 09F10D00#FF07FF7F0000FFFF
(1746132898.174852) can0 0DF01003#45F0FFFFFFFFFFFF
(1746132898.174854) can0 09F80103#FFFFFF7FFFFFFF7F
(1746132898.217551) can0 18FF3D01#419FFFFF02FFFFFF
(1746132898.217552) can0 09F10501#60153038FFFF7FFF
(1746132898.218674) can0 09F10501#61FFFFFF0B11FFFF
(1746132898.218675) can0 09F10501#62FF7FFF7FFF7FFF
(1746132898.219759) can0 09F10501#63FFFFFFFFFFFFFF
(1746132898.219760) can0 09F10D01#FF000000FF7FFFFF
(1746132898.227171) can0 09FD0205#FFFFFFFFFFFBFFFF
(1746132898.268067) can0 09F10D07#FF07FF7F52E1FFFF
(1746132898.268069) can0 09F10D00#FF07FF7F0000FFFF
(1746132898.276698) can0 1CFF1906#419F010300000000
(1746132898.276700) can0 09F80103#FFFFFF7FFFFFFF7F
(1746132898.277822) can0 09F80203#46FFFFFFFFFFFFFF
(1746132898.367079) can0 09F10D07#FF07FF7F52E1FFFF
(1746132898.367080) can0 09F10D00#FF07FF7F0000FFFF
(1746132898.375800) can0 09F80103#FFFFFF7FFFFFFF7F
(1746132898.375802) can0 09FD0205#FFFFFFFFFFF8FFFF
(1746132898.400544) can0 08FF0005#1399040500000200
(1746132898.417525) can0 18FF3D01#419FFFFF02FFFFFF
(1746132898.417527) can0 09F10501#80153038FFFF7FFF
(1746132898.418651) can0 09F10501#81FFFFFF0B11FFFF
(1746132898.418652) can0 09F10501#82FF7FFF7FFF7FFF
(1746132898.419804) can0 09F10501#83FFFFFFFFFFFFFF
(1746132898.419805) can0 09F10D01#FF000000FF7FFFFF
(1746132898.442180) can0 04FF1901#419F640A08000000
(1746132898.442181) can0 04FF1901#419F640202010000
(1746132898.468121) can0 09F10D07#FF07FF7F52E1FFFF
(1746132898.468123) can0 09F10D00#FF07FF7F0000FFFF
(1746132898.474839) can0 1DF11A03#46FFFFFF2FFDFFFF
(1746132898.474840) can0 1DF11A04#44FFFFFF2FFDFFFF
(1746132898.476023) can0 09F80103#FFFFFF7FFFFFFF7F
(1746132898.476024) can0 0DF80503#A02B46FFFFFFFFFF
(1746132898.477178) can0 0DF80503#A1FFFFFFFFFFFFFF
(1746132898.477179) can0 0DF80503#A2FF7FFFFFFFFFFF
(1746132898.478336) can0 0DF80503#A3FFFF7FFFFFFFFF
(1746132898.478337) can0 0DF80503#A4FFFFFF7F00FCFF
(1746132898.479422) can0 0DF80503#A5FF7FFF7FFFFFFF
(1746132898.479424) can0 0DF80503#A67FFFFFFFFFFFFF
(1746132898.480549) can0 1DF90504#E027FFFF0200FFFF
(1746132898.480550) can0 1DF90504#E1FFFF01030100FF
(1746132898.481691) can0 1DF90504#E20000030100FFFF
(1746132898.481692) can0 1DF90504#E3FF7FFFFFFF7F01
(1746132898.482842) can0 1DF90504#E400030100FFFFFF
(1746132898.482843) can0 1DF90504#E57FFFFFFF7FFFFF
(1746132898.527189) can0 09F80203#46FFFFFFFFFFFFFF
(1746132898.527191) can0 0DF90304#443FFFFFFF7FFFFF
(1746132898.528278) can0 0DF90404#A02244FFFFFFFFFF
(1746132898.528279) can0 0DF90404#A1FFFFFFFFFFFFFF
(1746132898.529441) can0 0DF90404#A2FFFFFFFFFFFFFF
(1746132898.529442) can0 0DF90404#A3FFFFFFFFFFFFFF
(1746132898.530610) can0 0DF90404#A47FFFFFFF7FFF7F
(1746132898.530611) can0 19FA0303#46FFFF7FFF7FFF7F
(1746132898.531775) can0 19FA0403#800346FFFFFFFFFF
(1746132898.531776) can0 09FD0205#FFFFFFFFFFFBFFFF
(1746132898.567291) can0 09F10D07#FF07FF7F52E1FFFF
(1746132898.567293) can0 09F10D00#FF07FF7F0000FFFF
(1746132898.576709) can0 09F80103#FFFFFF7FFFFFFF7F
(1746132898.617637) can0 18FF3D01#419FFFFF02FFFFFF
(1746132898.617638) can0 09F10501#A0153038FFFF7FFF
(1746132898.618772) can0 09F10501#A1FFFFFF0B11FFFF
(1746132898.618773) can0 09F10501#A2FF7FFF7FFF7FFF
(1746132898.619837) can0 09F10501#A3FFFFFFFFFFFFFF
(1746132898.619838) can0 09F10D01#FF000000FF7FFFFF
(1746132898.626250) can0 0DFE1105#600EFFFFFFFFFFFF
(1746132898.626251) can0 0DFE1105#61FFFFFFFFFFFFFF
(1746132898.627405) can0 0DFE1105#62FFFFFFFFFFFFFF
(1746132898.650996) can0 08FF0005#1399040500000200
(1746132898.668288) can0 09F10D07#FF07FF7F52E1FFFF
(1746132898.675776) can0 09F80103#FFFFFF7FFFFFFF7F
(1746132898.675778) can0 09FD0205#FFFFFFFFFFF8FFFF
(1746132898.717100) can0 09F10D00#FF07FF7F0000FFFF
(1746132898.767168) can0 09F10D07#FF07FF7F52E1FFFF
(1746132898.774793) can0 1CFF1906#419F010B00000000
(1746132898.774795) can0 09F80103#FFFFFF7FFFFFFF7F
(1746132898.775916) can0 09F80203#46FFFFFFFFFFFFFF
(1746132898.817732) can0 18FF3D01#419FFFFF02FFFFFF
(1746132898.817733) can0 09F10501#C0153038FFFF7FFF
(1746132898.818865) can0 09F10501#C1FFFFFF0B11FFFF
(1746132898.818866) can0 09F10501#C2FF7FFF7FFF7FFF
(1746132898.819948) can0 09F10501#C3FFFFFFFFFFFFFF
(1746132898.819949) can0 09F10D00#FF07FF7F0000FFFF
(1746132898.821176) can0 09F10D01#FF000000FF7FFFFF
(1746132898.827176) can0 09FD0205#FFFFFFFFFFFBFFFF
(1746132898.868091) can0 09F10D07#FF07FF7F52E1FFFF
(1746132898.876592) can0 09F80103#FFFFFF7FFFFFFF7F
(1746132898.901391) can0 08FF0005#1399040500000200
(1746132898.966171) can0 09F10D07#FF07FF7F52E1FFFF
(1746132898.966173) can0 09F10D00#FF07FF7F0000FFFF
(1746132898.975766) can0 09F80103#FFFFFF7FFFFFFF7F
(1746132898.975769) can0 09FD0205#FFFFFFFFFFF8FFFF
(1746132899.017135) can0 1DFF2C01#E017419F00000000
(1746132899.017136) can0 1DFF2C01#E100FFFFFF7FFFFF
(1746132899.018255) can0 1DFF2C01#E2FFFFFFFFFF7FFF
(1746132899.018256) can0 1DFF2C01#E3FFFFFFFFFFFFFF
(1746132899.025212) can0 09F80203#46FFFFFFFFFFFFFF
(1746132899.067853) can0 18FF3D01#419FFFFF02FFFFFF
(1746132899.067854) can0 09F10501#E0153038FFFF7FFF
(1746132899.068944) can0 09F10501#E1FFFFFF0B11FFFF
(1746132899.068946) can0 09F10501#E2FF7FFF7FFF7FFF
(1746132899.070146) can0 09F10501#E3FFFFFFFFFFFFFF
(1746132899.070147) can0 09F10D07#FF07FF7F52E1FFFF
(1746132899.071223) can0 09F10D00#FF07FF7F0000FFFF
(1746132899.071224) can0 09F10D01#FF000000FF7FFFFF
(1746132899.074823) can0 09F80103#FFFFFF7FFFFFFF7F
(1746132899.127188) can0 09FD0205#FFFFFFFFFFFBFFFF
(1746132899.151979) can0 08FF0005#1399040500000200
(1746132899.176669) can0 0DF01003#46F0FFFFFFFFFFFF
(1746132899.176670) can0 09F80103#FFFFFF7FFFFFFF7F
(1746132899.217039) can0 09F10D07#FF07FF7F52E1FFFF
(1746132899.217040) can0 09F10D00#FF07FF7F0000FFFF
(1746132899.267424) can0 09F10501#00153038FFFF7FFF
(1746132899.267425) can0 09F10501#01FFFFFF0B11FFFF
(1746132899.268529) can0 09F10501#02FF7FFF7FFF7FFF
(1746132899.268529) can0 09F10501#03FFFFFFFFFFFFFF
(1746132899.269673) can0 09F10D01#FF000000FF7FFFFF
(1746132899.275694) can0 1CFF1906#419F010300000000
(1746132899.275696) can0 09F80103#FFFFFF7FFFFFFF7F
(1746132899.276816) can0 09F80203#47FFFFFFFFFFFFFF
(1746132899.276817) can0 09FD0205#FFFFFFFFFFF8FFFF
(1746132899.317994) can0 18FF3D01#419FFFFF02FFFFFF
(1746132899.368130) can0 09F10D07#FF07FF7F52E1FFFF
(1746132899.368131) can0 09F10D00#FF07FF7F0000FFFF
(1746132899.374722) can0 09F80103#FFFFFF7FFFFFFF7F
(1746132899.399476) can0 08FF0005#1399040500000200
(1746132899.427087) can0 09FD0205#FFFFFFFFFFFBFFFF
(1746132899.442673) can0 04FF1901#419F640A08000000
(1746132899.442674) can0 04FF1901#419F640202010000
(1746132899.467212) can0 09F10D07#FF07FF7F52E1FFFF
(1746132899.467214) can0 09F10D00#FF07FF7F0000FFFF
(1746132899.476553) can0 1DF11A03#47FFFFFF2FFDFFFF
(1746132899.476554) can0 1DF11A04#45FFFFFF2FFDFFFF
(1746132899.477688) can0 09F80103#FFFFFF7FFFFFFF7F
(1746132899.477688) can0 0DF80503#C02B47FFFFFFFFFF
(1746132899.478838) can0 0DF80503#C1FFFFFFFFFFFFFF
(1746132899.478839) can0 0DF80503#C2FF7FFFFFFFFFFF
(1746132899.480004) can0 0DF80503#C3FFFF7FFFFFFFFF
(1746132899.480005) can0 0DF80503#C4FFFFFF7F00FCFF
(1746132899.481145) can0 0DF80503#C5FF7FFF7FFFFFFF
(1746132899.481146) can0 0DF80503#C67FFFFFFFFFFFFF
(1746132899.516216) can0 18FF3D01#419FFFFF02FFFFFF
(1746132899.516217) can0 09F10501#20153038FFFF7FFF
(1746132899.517373) can0 09F10501#21FFFFFF0B11FFFF
(1746132899.517374) can0 09F10501#22FF7FFF7FFF7FFF
(1746132899.518585) can0 09F10501#23FFFFFFFFFFFFFF
(1746132899.518586) can0 09F10D01#FF000000FF7FFFFF
(1746132899.526198) can0 09F80203#47FFFFFFFFFFFFFF
(1746132899.526199) can0 0DF90304#453FFFFFFF7FFFFF
(1746132899.527345) can0 0DF90404#C02245FFFFFFFFFF
(1746132899.527347) can0 0DF90404#C1FFFFFFFFFFFFFF
(1746132899.528522) can0 0DF90404#C2FFFFFFFFFFFFFF
(1746132899.528524) can0 0DF90404#C3FFFFFFFFFFFFFF
(1746132899.529627) can0 0DF90404#C47FFFFFFF7FFF7F
(1746132899.529628) can0 19FA0303#47FFFF7FFF7FFF7F
(1746132899.530869) can0 19FA0403#A00347FFFFFFFFFF
(1746132899.568024) can0 09F10D07#FF07FF7F52E1FFFF
(1746132899.568027) can0 09F10D00#FF07FF7F0000FFFF
(1746132899.575742) can0 09F80103#FFFFFF7FFFFFFF7F
(1746132899.575743) can0 09FD0205#FFFFFFFFFFF8FFFF
(1746132899.625224) can0 0DFE1105#800EFFFFFFFFFFFF
(1746132899.625226) can0 0DFE1105#81FFFFFFFFFFFFFF
(1746132899.626376) can0 0DFE1105#82FFFFFFFFFFFFFF
(1746132899.649956) can0 08FF0005#1399040500000200
(1746132899.674673) can0 09F80103#FFFFFF7FFFFFFF7F
(1746132899.717183) can0 09F10D07#FF07FF7F52E1FFFF
(1746132899.717185) can0 09F10D00#FF07FF7F0000FFFF
(1746132899.727113) can0 09FD0205#FFFFFFFFFFFBFFFF
(1746132899.767546) can0 18FF3D01#419FFFFF02FFFFFF
(1746132899.767547) can0 09F10501#40153038FFFF7FFF
(1746132899.768758) can0 09F10501#41FFFFFF0B11FFFF
(1746132899.768759) can0 09F10501#42FF7FFF7FFF7FFF
(1746132899.769882) can0 09F10501#43FFFFFFFFFFFFFF
(1746132899.769883) can0 09F10D01#FF000000FF7FFFFF
(1746132899.776572) can0 1CFF1906#419F010B00000000
(1746132899.776573) can0 09F80103#FFFFFF7FFFFFFF7F
(1746132899.777720) can0 09F80203#47FFFFFFFFFFFFFF
(1746132899.818149) can0 09F10D07#FF07FF7F52E1FFFF
(1746132899.818151) can0 09F10D00#FF07FF7F0000FFFF
(1746132899.875709) can0 09F80103#FFFFFF7FFFFFFF7F
(1746132899.875710) can0 09FD0205#FFFFFFFFFFF8FFFF
(1746132899.900423) can0 08FF0005#1399040500000200
(1746132899.917201) can0 09F10D07#FF07FF7F52E1FFFF
(1746132899.917202) can0 09F10D00#FF07FF7F0000FFFF
(1746132899.967439) can0 18FF3D01#419FFFFF02FFFFFF
(1746132899.967440) can0 09F10501#60153038FFFF7FFF
(1746132899.968657) can0 09F10501#61FFFFFF0B11FFFF
(1746132899.968657) can0 09F10501#62FF7FFF7FFF7FFF
(1746132899.969734) can0 09F10501#63FFFFFFFFFFFFFF
(1746132899.969734) can0 09F10D01#FF000000FF7FFFFF
(1746132899.974807) can0 09F80103#FFFFFF7FFFFFFF7F
(1746132900.027224) can0 09F80203#47FFFFFFFFFFFFFF
(1746132900.027226) can0 09FD0205#FFFFFFFFFFFBFFFF
(1746132900.068120) can0 09F10D07#FF07FF7F52E1FFFF
(1746132900.068122) can0 09F10D00#FF07FF7F0000FFFF
(1746132900.069223) can0 1DFF2C01#0017419F00000000
(1746132900.069224) can0 1DFF2C01#0100FFFFFF7FFFFF
(1746132900.070420) can0 1DFF2C01#02FFFFFFFFFF7FFF
(1746132900.070421) can0 1DFF2C01#03FFFFFFFFFFFFFF
(1746132900.076581) can0 09F80103#FFFFFF7FFFFFFF7F
(1746132900.150890) can0 08FF0005#1399040500000200
(1746132900.167134) can0 09F10D07#FF07FF7F52E1FFFF
(1746132900.167136) can0 09F10D00#FF07FF7F0000FFFF
(1746132900.175670) can0 0DF01003#47F0FFFFFFFFFFFF
(1746132900.175672) can0 09F80103#FFFFFF7FFFFFFF7F
(1746132900.176793) can0 09FD0205#FFFFFFFFFFF8FFFF
(1746132900.217590) can0 18FF3D01#419FFFFF02FFFFFF
(1746132900.217591) can0 09F10501#80153038FFFF7FFF
(1746132900.218691) can0 09F10501#81FFFFFF0B11FFFF
(1746132900.218691) can0 09F10501#82FF7FFF7FFF7FFF
(1746132900.219848) can0 09F10501#83FFFFFFFFFFFFFF
(1746132900.219849) can0 09F10D01#FF000000FF7FFFFF
(1746132900.268013) can0 09F10D07#FF07FF7F52E1FFFF
(1746132900.268013) can0 09F10D00#FF07FF7F0000FFFF
(1746132900.274662) can0 1CFF1906#419F010300000000
(1746132900.274664) can0 09F80103#FFFFFF7FFFFFFF7F
(1746132900.275767) can0 09F80203#48FFFFFFFFFFFFFF
(1746132900.327055) can0 09FD0205#FFFFFFFFFFFBFFFF
(1746132900.367117) can0 09F10D07#FF07FF7F52E1FFFF
(1746132900.367120) can0 09F10D00#FF07FF7F0000FFFF
(1746132900.376564) can0 09F80103#FFFFFF7FFFFFFF7F
(1746132900.401301) can0 08FF0005#1399040500000200
(1746132900.417507) can0 18FF3D01#419FFFFF02FFFFFF
(1746132900.417509) can0 09F10501#A0153038FFFF7FFF
(1746132900.418580) can0 09F10501#A1FFFFFF0B11FFFF
(1746132900.418582) can0 09F10501#A2FF7FFF7FFF7FFF
(1746132900.419769) can0 09F10501#A3FFFFFFFFFFFFFF
(1746132900.419770) can0 09F10D01#FF000000FF7FFFFF
(1746132900.442204) can0 04FF1901#419F640A08000000
(1746132900.442205) can0 04FF1901#419F640202010000
(1746132900.468095) can0 09F10D07#FF07FF7F52E1FFFF
(1746132900.468096) can0 09F10D00#FF07FF7F0000FFFF
(1746132900.475750) can0 1DF11A03#48FFFFFF2FFDFFFF
(1746132900.475751) can0 1DF11A04#46FFFFFF2FFDFFFF
(1746132900.476881) can0 09F80103#FFFFFF7FFFFFFF7F
(1746132900.476881) can0 0DF80503#E02B48FFFFFFFFFF
(1746132900.477997) can0 0DF80503#E1FFFFFFFFFFFFFF
(1746132900.477999) can0 0DF80503#E2FF7FFFFFFFFFFF
(1746132900.479164) can0 0DF80503#E3FFFF7FFFFFFFFF
(1746132900.479166) can0 0DF80503#E4FFFFFF7F00FCFF
(1746132900.480290) can0 0DF80503#E5FF7FFF7FFFFFFF
(1746132900.480291) can0 0DF80503#E67FFFFFFFFFFFFF
(1746132900.481456) can0 09FD0205#FFFFFFFFFFF8FFFF
(1746132900.525223) can0 09F80203#48FFFFFFFFFFFFFF
(1746132900.525225) can0 0DF90304#463FFFFFFF7FFFFF
(1746132900.526336) can0 0DF90404#E02246FFFFFFFFFF
(1746132900.526337) can0 0DF90404#E1FFFFFFFFFFFFFF
(1746132900.527493) can0 0DF90404#E2FFFFFFFFFFFFFF
(1746132900.527494) can0 0DF90404#E3FFFFFFFFFFFFFF
(1746132900.528665) can0 0DF90404#E47FFFFFFF7FFF7F
(1746132900.528665) can0 19FA0303#48FFFF7FFF7FFF7F
(1746132900.529815) can0 19FA0403#C00348FFFFFFFFFF
(1746132900.567053) can0 09F10D07#FF07FF7F52E1FFFF
(1746132900.567055) can0 09F10D00#FF07FF7F0000FFFF
(1746132900.574811) can0 09F80103#FFFFFF7FFFFFFF7F
(1746132900.599605) can0 1DFF0005#00061399FF050001
(1746132900.627225) can0 09FD0205#FFFFFFFFFFFBFFFF
(1746132900.627227) can0 0DFE1105#A00EFFFFFFFFFFFF
(1746132900.628371) can0 0DFE1105#A1FFFFFFFFFFFFFF
(1746132900.628372) can0 0DFE1105#A2FFFFFFFFFFFFFF
(1746132900.651940) can0 08FF0005#1399040500000200
(1746132900.667939) can0 18FF3D01#419FFFFF02FFFFFF
(1746132900.667941) can0 09F10501#C0153038FFFF7FFF
(1746132900.669025) can0 09F10501#C1FFFFFF0B11FFFF
(1746132900.669025) can0 09F10501#C2FF7FFF7FFF7FFF
(1746132900.670212) can0 09F10501#C3FFFFFFFFFFFFFF
(1746132900.670213) can0 09F10D07#FF07FF7F52E1FFFF
(1746132900.671331) can0 09F10D00#FF07FF7F0000FFFF
(1746132900.671332) can0 09F10D01#FF000000FF7FFFFF
(1746132900.676604) can0 09F80103#FFFFFF7FFFFFFF7F
(1746132900.775815) can0 1CFF1906#419F010B00000000
(1746132900.775817) can0 09F80103#FFFFFF7FFFFFFF7F
(1746132900.777020) can0 09F80203#48FFFFFFFFFFFFFF
(1746132900.777022) can0 09FD0205#FFFFFFFFFFF8FFFF
(1746132900.817352) can0 09F10D07#FF07FF7F52E1FFFF
(1746132900.817353) can0 09F10D00#FF07FF7F0000FFFF
(1746132900.867714) can0 18FF3D01#419FFFFF02FFFFFF
(1746132900.867716) can0 09F10501#E0153038FFFF7FFF
(1746132900.868792) can0 09F10501#E1FFFFFF0B11FFFF
(1746132900.868793) can0 09F10501#E2FF7FFF7FFF7FFF
(1746132900.869954) can0 09F10501#E3FFFFFFFFFFFFFF
(1746132900.869955) can0 09F10D01#FF000000FF7FFFFF
(1746132900.874904) can0 09F80103#FFFFFF7FFFFFFF7F
(1746132900.899719) can0 08FF0005#1399040500000200
(1746132900.924502) can0 09FD0205#FFFFFFFFFFFBFFFF
(1746132900.968200) can0 09F10D07#FF07FF7F52E1FFFF
(1746132900.968201) can0 09F10D00#FF07FF7F0000FFFF
(1746132900.976916) can0 09F80103#FFFFFF7FFFFFFF7F
(1746132901.026386) can0 09F80203#48FFFFFFFFFFFFFF
(1746132901.067167) can0 09F10D07#FF07FF7F52E1FFFF
(1746132901.067169) can0 09F10D00#FF07FF7F0000FFFF
(1746132901.068314) can0 1DFF2C01#2017419F00000000
(1746132901.068315) can0 1DFF2C01#2100FFFFFF7FFFFF
(1746132901.069473) can0 1DFF2C01#22FFFFFFFFFF7FFF
(1746132901.069474) can0 1DFF2C01#23FFFFFFFFFFFFFF
(1746132901.075770) can0 09F80103#FFFFFF7FFFFFFF7F
(1746132901.075771) can0 09FD0205#FFFFFFFFFFF8FFFF
(1746132901.117765) can0 18FF3D01#419FFFFF02FFFFFF
(1746132901.117767) can0 09F10501#00153038FFFF7FFF
(1746132901.118851) can0 09F10501#01FFFFFF0B11FFFF
(1746132901.118852) can0 09F10501#02FF7FFF7FFF7FFF
(1746132901.120067) can0 09F10501#03FFFFFFFFFFFFFF
(1746132901.120068) can0 09F10D01#FF000000FF7FFFFF
(1746132901.150149) can0 08FF0005#1399040500000200
(1746132901.168147) can0 09F10D07#FF07FF7F52E1FFFF
(1746132901.168150) can0 09F10D00#FF07FF7F0000FFFF
(1746132901.174947) can0 0DF01003#48F0FFFFFFFFFFFF
(1746132901.174948) can0 09F80103#FFFFFF7FFFFFFF7F
(1746132901.224455) can0 09FD0205#FFFFFFFFFFFBFFFF
(1746132901.267151) can0 09F10D07#FF07FF7F52E1FFFF
(1746132901.267153) can0 09F10D00#FF07FF7F0000FFFF
(1746132901.276765) can0 1CFF1906#419F010300000000
(1746132901.276766) can0 09F80103#FFFFFF7FFFFFFF7F
(1746132901.277995) can0 09F80203#49FFFFFFFFFFFFFF
(1746132901.317808) can0 18FF3D01#419FFFFF02FFFFFF
(1746132901.317810) can0 09F10501#20153038FFFF7FFF
(1746132901.318944) can0 09F10501#21FFFFFF0B11FFFF
(1746132901.318945) can0 09F10501#22FF7FFF7FFF7FFF
(1746132901.320098) can0 09F10501#23FFFFFFFFFFFFFF
(1746132901.320099) can0 09F10D01#FF000000FF7FFFFF
(1746132901.368083) can0 09F10D07#FF07FF7F52E1FFFF
(1746132901.368084) can0 09F10D00#FF07FF7F0000FFFF
(1746132901.375765) can0 09F80103#FFFFFF7FFFFFFF7F
(1746132901.375766) can0 09FD0205#FFFFFFFFFFF8FFFF
(1746132901.400576) can0 08FF0005#1399040500000200
(1746132901.442679) can0 04FF1901#419F640A08000000
(1746132901.442681) can0 04FF1901#419F640202010000
(1746132901.467303) can0 09F10D07#FF07FF7F52E1FFFF
(1746132901.467304) can0 09F10D00#FF07FF7F0000FFFF
(1746132901.474927) can0 1DF11A03#49FFFFFF2FFDFFFF
(1746132901.474929) can0 1DF11A04#47FFFFFF2FFDFFFF
(1746132901.476042) can0 09F80103#FFFFFF7FFFFFFF7F
(1746132901.476044) can0 0DF80503#002B49FFFFFFFFFF
(1746132901.477205) can0 0DF80503#01FFFFFFFFFFFFFF
(1746132901.477207) can0 0DF80503#02FF7FFFFFFFFFFF
(1746132901.478369) can0 0DF80503#03FFFF7FFFFFFFFF
(1746132901.478370) can0 0DF80503#04FFFFFF7F00FCFF
(1746132901.479538) can0 0DF80503#05FF7FFF7FFFFFFF
(1746132901.479539) can0 0DF80503#067FFFFFFFFFFFFF
(1746132901.516276) can0 18FF3D01#419FFFFF02FFFFFF
(1746132901.516278) can0 09F10501#40153038FFFF7FFF
(1746132901.517391) can0 09F10501#41FFFFFF0B11FFFF
(1746132901.517392) can0 09F10501#42FF7FFF7FFF7FFF
(1746132901.518561) can0 09F10501#43FFFFFFFFFFFFFF
(1746132901.518563) can0 09F10D01#FF000000FF7FFFFF
(1746132901.524463) can0 09F80203#49FFFFFFFFFFFFFF
(1746132901.524464) can0 0DF90304#473FFFFFFF7FFFFF
(1746132901.525625) can0 0DF90404#002247FFFFFFFFFF
(1746132901.525627) can0 0DF90404#01FFFFFFFFFFFFFF
(1746132901.527372) can0 0DF90404#02FFFFFFFFFFFFFF
(1746132901.527375) can0 0DF90404#03FFFFFFFFFFFFFF
(1746132901.528540) can0 0DF90404#047FFFFFFF7FFF7F
(1746132901.528541) can0 19FA0303#49FFFF7FFF7FFF7F
(1746132901.529695) can0 19FA0403#E00349FFFFFFFFFF
(1746132901.529697) can0 09FD0205#FFFFFFFFFFFBFFFF
(1746132901.568081) can0 09F10D07#FF07FF7F52E1FFFF
(1746132901.568083) can0 09F10D00#FF07FF7F0000FFFF
(1746132901.576820) can0 09F80103#FFFFFF7FFFFFFF7F
(1746132901.626387) can0 0DFE1105#C00EFFFFFFFFFFFF
(1746132901.626389) can0 0DFE1105#C1FFFFFFFFFFFFFF
(1746132901.627545) can0 0DFE1105#C2FFFFFFFFFFFFFF
(1746132901.651120) can0 08FF0005#1399040500000200
(1746132901.675842) can0 09F80103#FFFFFF7FFFFFFF7F
(1746132901.675844) can0 09FD0205#FFFFFFFFFFF8FFFF
(1746132901.717368) can0 09F10D07#FF07FF7F52E1FFFF
(1746132901.717370) can0 09F10D00#FF07FF7F0000FFFF
(1746132901.767615) can0 18FF3D01#419FFFFF02FFFFFF
(1746132901.767617) can0 09F10501#60153038FFFF7FFF
(1746132901.768726) can0 09F10501#61FFFFFF0B11FFFF
(1746132901.768727) can0 09F10501#62FF7FFF7FFF7FFF
(1746132901.769868) can0 09F10501#63FFFFFFFFFFFFFF
(1746132901.769868) can0 09F10D01#FF000000FF7FFFFF
(1746132901.774855) can0 1CFF1906#419F010B00000000
(1746132901.774857) can0 09F80103#FFFFFF7FFFFFFF7F
(1746132901.775970) can0 09F80203#49FFFFFFFFFFFFFF
(1746132901.818140) can0 09F10D07#FF07FF7F52E1FFFF
(1746132901.824334) can0 09FD0205#FFFFFFFFFFFBFFFF
(1746132901.866129) can0 09F10D00#FF07FF7F0000FFFF
(1746132901.876716) can0 09F80103#FFFFFF7FFFFFFF7F
(1746132901.901433) can0 08FF0005#1399040500000200
(1746132901.917111) can0 09F10D07#FF07FF7F52E1FFFF
(1746132901.967198) can0 09F10D00#FF07FF7F0000FFFF
(1746132901.975800) can0 09F80103#FFFFFF7FFFFFFF7F
(1746132901.975801) can0 09FD0205#FFFFFFFFFFF8FFFF
(1746132902.017580) can0 18FF3D01#419FFFFF02FFFFFF
(1746132902.017581) can0 09F10501#80153038FFFF7FFF
(1746132902.018655) can0 09F10501#81FFFFFF0B11FFFF
(1746132902.018655) can0 09F10501#82FF7FFF7FFF7FFF
(1746132902.019849) can0 09F10501#83FFFFFFFFFFFFFF
(1746132902.019849) can0 09F10D07#FF07FF7F52E1FFFF
(1746132902.020968) can0 09F10D01#FF000000FF7FFFFF
(1746132902.025359) can0 09F80203#49FFFFFFFFFFFFFF
(1746132902.068098) can0 09F10D00#FF07FF7F0000FFFF
(1746132902.068100) can0 1DFF2C01#4017419F00000000
(1746132902.069243) can0 1DFF2C01#4100FFFFFF7FFFFF
(1746132902.069244) can0 1DFF2C01#42FFFFFFFFFF7FFF
(1746132902.070409) can0 1DFF2C01#43FFFFFFFFFFFFFF
(1746132902.074927) can0 09F80103#FFFFFF7FFFFFFF7F
(1746132902.124421) can0 09FD0205#FFFFFFFFFFFBFFFF
(1746132902.152050) can0 08FF0005#1399040500000200
(1746132902.167179) can0 09F10D07#FF07FF7F52E1FFFF
(1746132902.167181) can0 09F10D00#FF07FF7F0000FFFF
(1746132902.176783) can0 0DF01003#49F0FFFFFFFFFFFF
(1746132902.176785) can0 09F80103#FFFFFF7FFFFFFF7F
(1746132902.217597) can0 18FF3D01#419FFFFF02FFFFFF
(1746132902.217598) can0 09F10501#A0153038FFFF7FFF
(1746132902.218708) can0 09F10501#A1FFFFFF0B11FFFF
(1746132902.218709) can0 09F10501#A2FF7FFF7FFF7FFF
(1746132902.219841) can0 09F10501#A3FFFFFFFFFFFFFF
(1746132902.219842) can0 09F10D01#FF000000FF7FFFFF
(1746132902.268088) can0 09F10D07#FF07FF7F52E1FFFF
(1746132902.268089) can0 09F10D00#FF07FF7F0000FFFF
(1746132902.275870) can0 1CFF1906#419F010300000000
(1746132902.275871) can0 09F80103#FFFFFF7FFFFFFF7F
(1746132902.277043) can0 09F80203#4AFFFFFFFFFFFFFF
(1746132902.277044) can0 09FD0205#FFFFFFFFFFF8FFFF
(1746132902.367201) can0 09F10D07#FF07FF7F52E1FFFF
(1746132902.367202) can0 09F10D00#FF07FF7F0000FFFF
(1746132902.374952) can0 09F80103#FFFFFF7FFFFFFF7F
(1746132902.399611) can0 08FF0005#1399040500000200
(1746132902.417589) can0 18FF3D01#419FFFFF02FFFFFF
(1746132902.417590) can0 09F10501#C0153038FFFF7FFF
(1746132902.418656) can0 09F10501#C1FFFFFF0B11FFFF
(1746132902.418657) can0 09F10501#C2FF7FFF7FFF7FFF
(1746132902.419891) can0 09F10501#C3FFFFFFFFFFFFFF
(1746132902.419891) can0 09F10D01#FF000000FF7FFFFF
(1746132902.424339) can0 09FD0205#FFFFFFFFFFFBFFFF
(1746132902.442216) can0 04FF1901#419F640A08000000
(1746132902.442218) can0 04FF1901#419F640202010000
(1746132902.468128) can0 09F10D07#FF07FF7F52E1FFFF
(1746132902.468130) can0 09F10D00#FF07FF7F0000FFFF
(1746132902.476705) can0 1DF11A03#4AFFFFFF2FFDFFFF
(1746132902.476706) can0 1DF11A04#48FFFFFF2FFDFFFF
(1746132902.477789) can0 09F80103#FFFFFF7FFFFFFF7F
(1746132902.477790) can0 0DF80503#202B4AFFFFFFFFFF
(1746132902.478979) can0 0DF80503#21FFFFFFFFFFFFFF
(1746132902.478980) can0 0DF80503#22FF7FFFFFFFFFFF
(1746132902.480136) can0 0DF80503#23FFFF7FFFFFFFFF
(1746132902.480137) can0 0DF80503#24FFFFFF7F00FCFF
(1746132902.481283) can0 0DF80503#25FF7FFF7FFFFFFF
(1746132902.481285) can0 0DF80503#267FFFFFFFFFFFFF
(1746132902.526215) can0 09F80203#4AFFFFFFFFFFFFFF
(1746132902.526216) can0 0DF90304#483FFFFFFF7FFFFF
(1746132902.527365) can0 0DF90404#202248FFFFFFFFFF
(1746132902.527366) can0 0DF90404#21FFFFFFFFFFFFFF
(1746132902.528533) can0 0DF90404#22FFFFFFFFFFFFFF
(1746132902.528535) can0 0DF90404#23FFFFFFFFFFFFFF
(1746132902.529720) can0 0DF90404#247FFFFFFF7FFF7F
(1746132902.529721) can0 19FA0303#4AFFFF7FFF7FFF7F
(1746132902.530914) can0 19FA0403#00034AFFFFFFFFFF
(1746132902.575716) can0 09F80103#FFFFFF7FFFFFFF7F
(1746132902.575718) can0 09FD0205#FFFFFFFFFFF8FFFF
(1746132902.617075) can0 09F10D07#FF07FF7F52E1FFFF
(1746132902.617076) can0 09F10D00#FF07FF7F0000FFFF
(1746132902.625256) can0 0DFE1105#E00EFFFFFFFFFFFF
(1746132902.625258) can0 0DFE1105#E1FFFFFFFFFFFFFF
(1746132902.626369) can0 0DFE1105#E2FFFFFFFFFFFFFF
(1746132902.650026) can0 08FF0005#1399040500000200
(1746132902.667759) can0 18FF3D01#419FFFFF02FFFFFF
(1746132902.667763) can0 09F10501#E0153038FFFF7FFF
(1746132902.668874) can0 09F10501#E1FFFFFF0B11FFFF
(1746132902.668876) can0 09F10501#E2FF7FFF7FFF7FFF
(1746132902.670013) can0 09F10501#E3FFFFFFFFFFFFFF
(1746132902.670013) can0 09F10D01#FF000000FF7FFFFF
(1746132902.674795) can0 09F80103#FFFFFF7FFFFFFF7F
(1746132902.718195) can0 09F10D07#FF07FF7F52E1FFFF
(1746132902.718196) can0 09F10D00#FF07FF7F0000FFFF
(1746132902.727346) can0 09FD0205#FFFFFFFFFFFBFFFF
(1746132902.776657) can0 1CFF1906#419F010B00000000
(1746132902.776659) can0 09F80103#FFFFFF7FFFFFFF7F
(1746132902.777762) can0 09F80203#4AFFFFFFFFFFFFFF
(1746132902.817206) can0 09F10D07#FF07FF7F52E1FFFF
(1746132902.817207) can0 09F10D00#FF07FF7F0000FFFF
(1746132902.867587) can0 18FF3D01#419FFFFF02FFFFFF
(1746132902.867589) can0 09F10501#00153038FFFF7FFF
(1746132902.868677) can0 09F10501#01FFFFFF0B11FFFF
(1746132902.868678) can0 09F10501#02FF7FFF7FFF7FFF
(1746132902.869862) can0 09F10501#03FFFFFFFFFFFFFF
(1746132902.869863) can0 09F10D01#FF000000FF7FFFFF
(1746132902.875767) can0 09F80103#FFFFFF7FFFFFFF7F
(1746132902.875768) can0 09FD0205#FFFFFFFFFFF8FFFF
(1746132902.900519) can0 08FF0005#1399040500000200
(1746132902.968047) can0 09F10D07#FF07FF7F52E1FFFF
(1746132902.968050) can0 09F10D00#FF07FF7F0000FFFF
(1746132902.974846) can0 09F80103#FFFFFF7FFFFFFF7F
(1746132903.024319) can0 09F80203#4AFFFFFFFFFFFFFF
(1746132903.024321) can0 09FD0205#FFFFFFFFFFFBFFFF
(1746132903.067097) can0 09F10D07#FF07FF7F52E1FFFF
(1746132903.067099) can0 09F10D00#FF07FF7F0000FFFF
(1746132903.068262) can0 1DFF2C01#6017419F00000000
(1746132903.068263) can0 1DFF2C01#6100FFFFFF7FFFFF
(1746132903.069431) can0 1DFF2C01#62FFFFFFFFFF7FFF
(1746132903.069432) can0 1DFF2C01#63FFFFFFFFFFFFFF
(1746132903.076654) can0 09F80103#FFFFFF7FFFFFFF7F
(1746132903.117697) can0 18FF3D01#419FFFFF02FFFFFF
(1746132903.117699) can0 09F10501#20153038FFFF7FFF
(1746132903.118784) can0 09F10501#21FFFFFF0B11FFFF
(1746132903.118786) can0 09F10501#22FF7FFF7FFF7FFF
(1746132903.119956) can0 09F10501#23FFFFFFFFFFFFFF
(1746132903.119957) can0 09F10D01#FF000000FF7FFFFF
(1746132903.150954) can0 08FF0005#1399040500000200
(1746132903.168082) can0 09F10D07#FF07FF7F52E1FFFF
(1746132903.168084) can0 09F10D00#FF07FF7F0000FFFF
(1746132903.175683) can0 0DF01003#4AF0FFFFFFFFFFFF
(1746132903.175685) can0 09F80103#FFFFFF7FFFFFFF7F
(1746132903.176822) can0 09FD0205#FFFFFFFFFFF8FFFF
(1746132903.266318) can0 09F10D07#FF07FF7F52E1FFFF
(1746132903.266320) can0 09F10D00#FF07FF7F0000FFFF
(1746132903.274797) can0 1CFF1906#419F010300000000
(1746132903.274799) can0 09F80103#FFFFFF7FFFFFFF7F
(1746132903.275905) can0 09F80203#4BFFFFFFFFFFFFFF
(1746132903.317653) can0 18FF3D01#419FFFFF02FFFFFF
(1746132903.317654) can0 09F10501#40153038FFFF7FFF
(1746132903.318774) can0 09F10501#41FFFFFF0B11FFFF
(1746132903.318776) can0 09F10501#42FF7FFF7FFF7FFF
(1746132903.319941) can0 09F10501#43FFFFFFFFFFFFFF
(1746132903.319942) can0 09F10D01#FF000000FF7FFFFF
(1746132903.327120) can0 09FD0205#FFFFFFFFFFFBFFFF
(1746132903.368024) can0 09F10D07#FF07FF7F52E1FFFF
(1746132903.368026) can0 09F10D00#FF07FF7F0000FFFF
(1746132903.376598) can0 09F80103#FFFFFF7FFFFFFF7F
(1746132903.401417) can0 08FF0005#1399040500000200
(1746132903.442599) can0 04FF1901#419F640A08000000
(1746132903.442601) can0 04FF1901#419F640202010000
(1746132903.467130) can0 09F10D07#FF07FF7F52E1FFFF
(1746132903.467132) can0 09F10D00#FF07FF7F0000FFFF
(1746132903.475710) can0 1DF11A03#4BFFFFFF2FFDFFFF
(1746132903.475712) can0 1DF11A04#49FFFFFF2FFDFFFF
(1746132903.476836) can0 09F80103#FFFFFF7FFFFFFF7F
(1746132903.476836) can0 0DF80503#402B4BFFFFFFFFFF
(1746132903.477966) can0 0DF80503#41FFFFFFFFFFFFFF
(1746132903.477967) can0 0DF80503#42FF7FFFFFFFFFFF
(1746132903.479133) can0 0DF80503#43FFFF7FFFFFFFFF
(1746132903.479133) can0 0DF80503#44FFFFFF7F00FCFF
(1746132903.480280) can0 0DF80503#45FF7FFF7FFFFFFF
(1746132903.480282) can0 0DF80503#467FFFFFFFFFFFFF
(1746132903.481466) can0 1DF90504#0027FFFF0200FFFF
(1746132903.481467) can0 1DF90504#01FFFF01030100FF
(1746132903.482611) can0 1DF90504#020000030100FFFF
(1746132903.482612) can0 1DF90504#03FF7FFFFFFF7F01
(1746132903.483786) can0 1DF90504#0400030100FFFFFF
(1746132903.483788) can0 1DF90504#057FFFFFFF7FFFFF
(1746132903.484966) can0 09FD0205#FFFFFFFFFFF8FFFF
(1746132903.517140) can0 18FF3D01#419FFFFF02FFFFFF
(1746132903.517142) can0 09F10501#60153038FFFF7FFF
(1746132903.518344) can0 09F10501#61FFFFFF0B11FFFF
(1746132903.518345) can0 09F10501#62FF7FFF7FFF7FFF
(1746132903.519531) can0 09F10501#63FFFFFFFFFFFFFF
(1746132903.519532) can0 09F10D01#FF000000FF7FFFFF
(1746132903.525237) can0 09F80203#4BFFFFFFFFFFFFFF
(1746132903.525238) can0 0DF90304#493FFFFFFF7FFFFF
(1746132903.526466) can0 0DF90404#402249FFFFFFFFFF
(1746132903.526468) can0 0DF90404#41FFFFFFFFFFFFFF
(1746132903.527636) can0 0DF90404#42FFFFFFFFFFFFFF
(1746132903.527637) can0 0DF90404#43FFFFFFFFFFFFFF
(1746132903.528721) can0 0DF90404#447FFFFFFF7FFF7F
(1746132903.528723) can0 19FA0303#4BFFFF7FFF7FFF7F
(1746132903.529864) can0 19FA0403#20034BFFFFFFFFFF
(1746132903.568172) can0 09F10D07#FF07FF7F52E1FFFF
(1746132903.568174) can0 09F10D00#FF07FF7F0000FFFF
(1746132903.574786) can0 09F80103#FFFFFF7FFFFFFF7F
(1746132903.624276) can0 09FD0205#FFFFFFFFFFFBFFFF
(1746132903.624277) can0 0DFE1105#000EFFFFFFFFFFFF
(1746132903.625406) can0 0DFE1105#01FFFFFFFFFFFFFF
(1746132903.625407) can0 0DFE1105#02FFFFFFFFFFFFFF
(1746132903.651857) can0 08FF0005#1399040500000200
(1746132903.676606) can0 09F80103#FFFFFF7FFFFFFF7F
(1746132903.717430) can0 09F10D07#FF07FF7F52E1FFFF
(1746132903.717432) can0 09F10D00#FF07FF7F0000FFFF
(1746132903.743393) can0 09FF2201#200C419FFFFF01FF
(1746132903.743395) can0 09FF2201#21390016000100FF
(1746132903.744467) can0 1DFF2801#601E419F16001A01
(1746132903.744468) can0 1DFF2801#615374656572696E
(1746132903.745545) can0 1DFF2801#626720636F6D7061
(1746132903.745546) can0 1DFF2801#637373206D697373
(1746132903.746652) can0 1DFF2801#64696E67FFFFFFFF
(1746132903.768175) can0 18FF3D01#419FFFFF02FFFFFF
(1746132903.768177) can0 09F10501#80153038FFFF7FFF
(1746132903.769279) can0 09F10501#81FFFFFF0B11FFFF
