(1746126226.445423) can0 11FF0205#0086419F63EA0000
(1746126226.445425) can0 11FF0205#01FFFFFFFFB6D8FF
(1746126226.446596) can0 11FF0205#02FF4C5B0500FFFF
(1746126226.446598) can0 11FF0205#03FFFFFFFFFFFFFF
(1746126226.447814) can0 11FF0205#04FFFFFFFFFFFFFF
(1746126226.447815) can0 11FF0205#05FFFFFFFFFFFFFF
(1746126226.449002) can0 11FF0205#06FFFFFFFFFFFFFF
(1746126226.449003) can0 11FF0205#07FFFFFFFFFFFFFF
(1746126226.450202) can0 11FF0205#08FFFFFFFFFFFFFF
(1746126226.450204) can0 11FF0205#09FFFFFFFFFFFFFF
(1746126226.451385) can0 11FF0205#0AFFFFFFFFFFFFFF
(1746126226.451386) can0 11FF0205#0BFFFFFFFFFFFFFF
(1746126226.452543) can0 11FF0205#0CFFFFFFFFFFFFFF
(1746126226.452544) can0 11FF0205#0DFFFFFFFFFFFFFF
(1746126226.453744) can0 11FF0205#0EFFFFFFFFFFFFFF
(1746126226.453746) can0 11FF0205#0FFFFFFFFFFFFFFF
(1746126226.454897) can0 11FF0205#10FFFFFFFFFFFFFF
(1746126226.454898) can0 11FF0205#11FFFFFFFFFFFFFF
(1746126226.456094) can0 11FF0205#12FFFFFFFFFFFFFF
(1746126226.456096) can0 11FF0205#13FFFFFFFFFFFFFF
(1746126226.597071) can0 11FF0205#2086419F63EA0100
(1746126226.597072) can0 11FF0205#21FFFFFFFFFFFFFF
(1746126226.598245) can0 11FF0205#22FFFFFFFFFFFFFF
(1746126226.598246) can0 11FF0205#23FFFFFFFFFFFFFF
(1746126226.599394) can0 11FF0205#24FFFFFFFFFFFFFF
(1746126226.599395) can0 11FF0205#25FFFFFFFFFFFFFF
(1746126226.600563) can0 11FF0205#26FFFFFFFFFFFFFF
(1746126226.600564) can0 11FF0205#27FFFFFFFFFFFFFF
(1746126226.601761) can0 11FF0205#28FFFFFFFFFFFFFF
(1746126226.601763) can0 11FF0205#29FFFFFFFFFFFFFF
(1746126226.602943) can0 11FF0205#2AFFFFFFFFFFFFFF
(1746126226.602944) can0 11FF0205#2BFFFFFFFFFFFFFF
(1746126226.604060) can0 11FF0205#2CFFFFFFFFFFFFFF
(1746126226.604061) can0 11FF0205#2DFFFFFFFFFFFFFF
(1746126226.605222) can0 11FF0205#2EFFFFFFFFFFFFFF
(1746126226.605223) can0 11FF0205#2FFFFFFFFFFFFFFF
(1746126226.606407) can0 11FF0205#30FFFFFFFFFFFFFF
(1746126226.606408) can0 11FF0205#31FFFFFFFFFFFFFF
(1746126226.607544) can0 11FF0205#32FFFFFFFFFFFFFF
(1746126226.607544) can0 11FF0205#33FFFFFFFFFFFFFF
(1746126226.646462) can0 11FF0205#4086419F63EA0200
(1746126226.646464) can0 11FF0205#4118F09FE518F09F
(1746126226.647502) can0 11FF0205#42E518F09FE518F0
(1746126226.647503) can0 11FF0205#439FE518F09FE558
(1746126226.648631) can0 11FF0205#446E20B920F11FE5
(1746126226.648632) can0 11FF0205#4510F09FE5384100
(1746126226.649732) can0 11FF0205#4600484200004C42
(1746126226.649736) can0 11FF0205#4700005042000054
(1746126226.650880) can0 11FF0205#4842000058420000
(1746126226.650881) can0 11FF0205#4920019FE5881090
(1746126226.651983) can0 11FF0205#4AE5020411E30500
(1746126226.651985) can0 11FF0205#4B000A0110A0E380
(1746126226.653107) can0 11FF0205#4C1080E5AA10A0E3
(1746126226.653108) can0 11FF0205#4D8C1080E55510A0
(1746126226.654235) can0 11FF0205#4EE38C1080E50010
(1746126226.654235) can0 11FF0205#4FA0E3801080E5AA
(1746126226.655364) can0 11FF0205#5010A0E38C1080E5
(1746126226.655365) can0 11FF0205#515510A0E38C1080
(1746126226.656442) can0 11FF0205#52E5A01190E52010
(1746126226.656443) can0 11FF0205#5381E3FFFFFFFFFF
(1746126226.696004) can0 11FF0205#6086419F63EA0300
(1746126226.696005) can0 11FF0205#61A01180E5A01190
(1746126226.697073) can0 11FF0205#62E5400011E3FCFF
(1746126226.697075) can0 11FF0205#63FF0A0110A0E30C
(1746126226.698191) can0 11FF0205#641180E50B10A0E3
(1746126226.698192) can0 11FF0205#65841080E5AA10A0
(1746126226.699292) can0 11FF0205#66E38C1080E55510
(1746126226.699293) can0 11FF0205#67A0E38C1080E501
(1746126226.700378) can0 11FF0205#6810A0E3801080E5
(1746126226.700379) can0 11FF0205#69AA10A0E38C1080
(1746126226.701502) can0 11FF0205#6AE55510A0E38C10
(1746126226.701503) can0 11FF0205#6B80E50310A0E304
(1746126226.702628) can0 11FF0205#6C1180E50510A0E3
(1746126226.702628) can0 11FF0205#6D081180E5881090
(1746126226.703761) can0 11FF0205#6EE5010311E3FCFF
(1746126226.703762) can0 11FF0205#6FFF0A0310A0E380
(1746126226.704870) can0 11FF0205#701080E5AA10A0E3
(1746126226.704871) can0 11FF0205#718C1080E55510A0
(1746126226.705969) can0 11FF0205#72E38C1080E58810
(1746126226.705970) can0 11FF0205#7390E5FFFFFFFFFF
(1746126226.745536) can0 11FF0205#8086419F63EA0400
(1746126226.745538) can0 11FF0205#81020411E3FCFFFF
(1746126226.746652) can0 11FF0205#820A0010A0E30010
(1746126226.746654) can0 11FF0205#8380E50310A0E304
(1746126226.747774) can0 11FF0205#841080E50210A0E3
(1746126226.747775) can0 11FF0205#85001080E50181A0
(1746126226.748907) can0 11FF0205#86E338909FE5FF00
(1746126226.748909) can0 11FF0205#87B9E8FF00A8E87F
(1746126226.750003) can0 11FF0205#8800B9E87F00A8E8
(1746126226.750004) can0 11FF0205#8920009FE50210A0
(1746126226.751128) can0 11FF0205#8AE3401080E50900
(1746126226.751130) can0 11FF0205#8B00EAFEFFFFEAFE
(1746126226.752255) can0 11FF0205#8CFFFFEAFEFFFFEA
(1746126226.752256) can0 11FF0205#8DFEFFFFEAFEFFFF
(1746126226.753378) can0 11FF0205#8EEAC50000EA00C0
(1746126226.753379) can0 11FF0205#8F1FE00041000000
(1746126226.754567) can0 11FF0205#9000000000000000
(1746126226.754568) can0 11FF0205#9100000FE11F00C0
(1746126226.755717) can0 11FF0205#92E31B1080E301F0
(1746126226.755718) can0 11FF0205#932FE1FFFFFFFFFF
(1746126226.795033) can0 11FF0205#A086419F63EA0500
(1746126226.795034) can0 11FF0205#A13CD19FE5171080
(1746126226.796084) can0 11FF0205#A2E301F02FE134D1
(1746126226.796084) can0 11FF0205#A39FE5121080E301
(1746126226.797191) can0 11FF0205#A4F02FE12CD19FE5
(1746126226.797193) can0 11FF0205#A5111080E301F02F
(1746126226.798294) can0 11FF0205#A6E124D19FE51310
(1746126226.798295) can0 11FF0205#A780E301F02FE11C
(1746126226.799404) can0 11FF0205#A8D19FE51F1080E3
(1746126226.799405) can0 11FF0205#A901F02FE114D19F
(1746126226.800525) can0 11FF0205#AAE514019FE51411
(1746126226.800526) can0 11FF0205#AB9FE514219FE52F
(1746126226.801652) can0 11FF0205#AC0000EB10019FE5
(1746126226.801652) can0 11FF0205#AD10119FE510219F
(1746126226.802774) can0 11FF0205#AEE52B0000EB0C01
(1746126226.802775) can0 11FF0205#AF9FE50C119FE50C
(1746126226.803898) can0 11FF0205#B0219FE5270000EB
(1746126226.803898) can0 11FF0205#B108019FE508119F
(1746126226.805035) can0 11FF0205#B2E508219FE52300
(1746126226.805037) can0 11FF0205#B300EBFFFFFFFFFF
(1746126226.844462) can0 11FF0205#C086419F63EA0600
(1746126226.844463) can0 11FF0205#C104019FE504119F
(1746126226.845573) can0 11FF0205#C2E504219FE51F00
(1746126226.845574) can0 11FF0205#C300EB00019FE500
(1746126226.846697) can0 11FF0205#C4119FE500219FE5
(1746126226.846697) can0 11FF0205#C51B0000EBFC009F
(1746126226.847795) can0 11FF0205#C6E5FC109FE50020
(1746126226.847797) can0 11FF0205#C7A0E3200000EBF4
(1746126226.848962) can0 11FF0205#C8009FE5F4109FE5
(1746126226.848963) can0 11FF0205#C9001041E0080051
(1746126226.850064) can0 11FF0205#CAE30020A0A30420
(1746126226.850065) can0 11FF0205#CB80A4001080A57A
(1746126226.851191) can0 11FF0205#CC0100EBAC009FE5
(1746126226.851192) can0 11FF0205#CDAC109FE5010050
(1746126226.852318) can0 11FF0205#CEE10500000A0420
(1746126226.852319) can0 11FF0205#CF90E403002DE90F
(1746126226.853423) can0 11FF0205#D0E0A0E112FF2FE1
(1746126226.853424) can0 11FF0205#D10300BDE8F7FFFF
(1746126226.854564) can0 11FF0205#D2EA0000A0E30010
(1746126226.854565) can0 11FF0205#D3A0E3FFFFFFFFFF
(1746126226.896858) can0 11FF0205#E086419F63EA0700
(1746126226.896860) can0 11FF0205#E1AC209FE50FE0A0
(1746126226.897939) can0 11FF0205#E2E112FF2FE1FEFF
(1746126226.897940) can0 11FF0205#E3FFEA010050E10E
(1746126226.899094) can0 11FF0205#E4F0A001012052E0
(1746126226.899095) can0 11FF0205#E50EF0A0010130D0
(1746126226.900168) can0 11FF0205#E6E40130C1E40120
(1746126226.900169) can0 11FF0205#E752E2FBFFFF1A0E
(1746126226.901294) can0 11FF0205#E8F0A0E1010050E1
(1746126226.901295) can0 11FF0205#E90EF0A0010120C0
(1746126226.902398) can0 11FF0205#EAE4FBFFFFEAC852
(1746126226.902400) can0 11FF0205#EB0040C8520040B8
(1746126226.903523) can0 11FF0205#EC520040C8520040
(1746126226.903524) can0 11FF0205#EDC8520040B85100
(1746126226.904649) can0 11FF0205#EE40789A05003C00
(1746126226.904650) can0 11FF0205#EF00401002004040
(1746126226.905815) can0 11FF0205#F044000040440000
(1746126226.905816) can0 11FF0205#F1F0460500789A05
(1746126226.906940) can0 11FF0205#F2003C0000403C00
(1746126226.906941) can0 11FF0205#F30040FFFFFFFFFF
(1746126226.946491) can0 11FF0205#0086419F63EA0800
(1746126226.946493) can0 11FF0205#01F4460500F44605
(1746126226.947589) can0 11FF0205#020000470500F046
(1746126226.947590) can0 11FF0205#030500F0460500F4
(1746126226.948716) can0 11FF0205#0446050000470500
(1746126226.948716) can0 11FF0205#0500470500789A05
(1746126226.949843) can0 11FF0205#0600100200401842
(1746126226.950983) can0 11FF0205#07004018420040E8
(1746126226.950984) can0 11FF0205#08490040F0480000
(1746126226.952128) can0 11FF0205#090000A0E10000A0
(1746126226.952130) can0 11FF0205#0AE100C09FE51CFF
(1746126226.953254) can0 11FF0205#0B2FE14D1B030000
(1746126226.953254) can0 11FF0205#0CC09FE51CFF2FE1
(1746126226.954404) can0 11FF0205#0DD520030000C09F
(1746126226.954405) can0 11FF0205#0EE51CFF2FE195AD
(1746126226.955535) can0 11FF0205#0F030000C09FE51C
(1746126226.955536) can0 11FF0205#10FF2FE18D9C0300
(1746126226.956630) can0 11FF0205#1100C09FE51CFF2F
(1746126226.956632) can0 11FF0205#12E1DD3B040000C0
(1746126226.957774) can0 11FF0205#139FE5FFFFFFFFFF
(1746126226.996056) can0 11FF0205#2086419F63EA0900
(1746126226.996058) can0 11FF0205#211CFF2FE1915F03
(1746126226.997132) can0 11FF0205#220000C09FE51CFF
(1746126226.997132) can0 11FF0205#232FE16D4B030000
(1746126226.998257) can0 11FF0205#24C09FE51CFF2FE1
(1746126226.998258) can0 11FF0205#25EDF3040000C09F
(1746126226.999378) can0 11FF0205#26E51CFF2FE129E8
(1746126226.999379) can0 11FF0205#27040000C09FE51C
(1746126227.000501) can0 11FF0205#28FF2FE1751F0300
(1746126227.000502) can0 11FF0205#2900C09FE51CFF2F
(1746126227.001648) can0 11FF0205#2AE1E519030000C0
(1746126227.001649) can0 11FF0205#2B9FE51CFF2FE16D
(1746126227.002774) can0 11FF0205#2C18030000C09FE5
(1746126227.002775) can0 11FF0205#2D1CFF2FE1353E01
(1746126227.003898) can0 11FF0205#2E0000C09FE51CFF
(1746126227.003899) can0 11FF0205#2F2FE1E551010000
(1746126227.005045) can0 11FF0205#30C09FE51CFF2FE1
(1746126227.005046) can0 11FF0205#31FDB0020000C09F
(1746126227.006193) can0 11FF0205#32E51CFF2FE101A4
(1746126227.006195) can0 11FF0205#330100FFFFFFFFFF
(1746126227.045610) can0 11FF0205#4086419F63EA0A00
(1746126227.045612) can0 11FF0205#4100C09FE51CFF2F
(1746126227.046698) can0 11FF0205#42E11DEC010000C0
(1746126227.046699) can0 11FF0205#439FE51CFF2FE195
(1746126227.047813) can0 11FF0205#4469010000C09FE5
(1746126227.047815) can0 11FF0205#451CFF2FE1BD4B01
(1746126227.048939) can0 11FF0205#460000C09FE51CFF
(1746126227.048940) can0 11FF0205#472FE1A150010000
(1746126227.050043) can0 11FF0205#48C09FE51CFF2FE1
(1746126227.050044) can0 11FF0205#49E983010000C09F
(1746126227.051174) can0 11FF0205#4AE51CFF2FE115B2
(1746126227.051176) can0 11FF0205#4B020000C09FE51C
(1746126227.052332) can0 11FF0205#4CFF2FE101E10200
(1746126227.052333) can0 11FF0205#4D00C09FE51CFF2F
(1746126227.053428) can0 11FF0205#4EE1B9E1020000C0
(1746126227.053429) can0 11FF0205#4F9FE51CFF2FE1CD
(1746126227.054542) can0 11FF0205#50E1020000C09FE5
(1746126227.054543) can0 11FF0205#511CFF2FE1E9E102
(1746126227.055685) can0 11FF0205#520001002DE90000
(1746126227.055686) can0 11FF0205#534FE1FFFFFFFFFF
(1746126227.095702) can0 11FF0205#6086419F63EA0B00
(1746126227.095703) can0 11FF0205#61800010E30100BD
(1746126227.096773) can0 11FF0205#62E804F05E121F50
(1746126227.096773) can0 11FF0205#632DE940009FE500
(1746126227.097852) can0 11FF0205#641F90E5000090E5
(1746126227.097853) can0 11FF0205#6500204FE104002D
(1746126227.098923) can0 11FF0205#66E91FF021E30040
(1746126227.098924) can0 11FF0205#672DE90FE0A0E111
(1746126227.100022) can0 11FF0205#68FF2FE10040BDE8
(1746126227.100023) can0 11FF0205#6992F021E30400BD
(1746126227.101171) can0 11FF0205#6AE802F06FE10030
(1746126227.101171) can0 11FF0205#6BA0E308209FE500
(1746126227.102400) can0 11FF0205#6C3F82E51F50BDE8
(1746126227.102401) can0 11FF0205#6D04F05EE200F0FF
(1746126227.103401) can0 11FF0205#6EFF04309FE50030
(1746126227.103403) can0 11FF0205#6F80E51EFF2FE148
(1746126227.104545) can0 11FF0205#7048050004309FE5
(1746126227.104545) can0 11FF0205#71003080E51EFF2F
(1746126227.105628) can0 11FF0205#72E1E84705000430
(1746126227.105629) can0 11FF0205#739FE5FFFFFFFFFF
(1746126227.144703) can0 11FF0205#8086419F63EA0C00
(1746126227.144704) can0 11FF0205#81003080E51EFF2F
(1746126227.145805) can0 11FF0205#82E1084705000000
(1746126227.145806) can0 11FF0205#83A0E31EFF2FE11E
(1746126227.146967) can0 11FF0205#84FF2FE104309FE5
(1746126227.146968) can0 11FF0205#85003080E51EFF2F
(1746126227.148072) can0 11FF0205#86E1944705000430
(1746126227.148072) can0 11FF0205#879FE5003080E51E
(1746126227.149181) can0 11FF0205#88FF2FE178470500
(1746126227.149182) can0 11FF0205#891EFF2FE11EFF2F
(1746126227.150168) can0 11FF0205#8AE11EFF2FE1FEFF
(1746126227.150168) can0 11FF0205#8BFFEA0000A0E31E
(1746126227.151290) can0 11FF0205#8CFF2FE104309FE5
(1746126227.151290) can0 11FF0205#8D003080E51EFF2F
(1746126227.152439) can0 11FF0205#8EE1D04705000430
(1746126227.152440) can0 11FF0205#8F9FE5003080E51E
(1746126227.153564) can0 11FF0205#90FF2FE1D0470500
(1746126227.153565) can0 11FF0205#9104309FE5003080
(1746126227.154692) can0 11FF0205#92E51EFF2FE12847
(1746126227.154694) can0 11FF0205#930500FFFFFFFFFF
(1746126227.196986) can0 11FF0205#A086419F63EA0D00
(1746126227.196987) can0 11FF0205#A104E02DE50C309F
(1746126227.198043) can0 11FF0205#A2E5003080E5113F
(1746126227.198043) can0 11FF0205#A301EB04E09DE41E
(1746126227.199161) can0 11FF0205#A4FF2FE128470500
(1746126227.199161) can0 11FF0205#A504E02DE50C309F
(1746126227.200270) can0 11FF0205#A6E5003080E50A3F
(1746126227.200271) can0 11FF0205#A701EB04E09DE41E
(1746126227.201385) can0 11FF0205#A8FF2FE1D0470500
(1746126227.201385) can0 11FF0205#A904E02DE50C309F
(1746126227.202517) can0 11FF0205#AAE5003080E5033F
(1746126227.202517) can0 11FF0205#AB01EB04E09DE41E
(1746126227.203621) can0 11FF0205#ACFF2FE1D0470500
(1746126227.203621) can0 11FF0205#AD04E02DE50C309F
(1746126227.204745) can0 11FF0205#AEE5003080E5FC3E
(1746126227.204746) can0 11FF0205#AF01EB04E09DE41E
(1746126227.205870) can0 11FF0205#B0FF2FE178470500
(1746126227.205871) can0 11FF0205#B104E02DE50C309F
(1746126227.206975) can0 11FF0205#B2E5003080E5F53E
(1746126227.206975) can0 11FF0205#B301EBFFFFFFFFFF
(1746126227.246419) can0 11FF0205#C086419F63EA0E00
(1746126227.246420) can0 11FF0205#C104E09DE41EFF2F
(1746126227.247543) can0 11FF0205#C2E19447050004E0
(1746126227.247544) can0 11FF0205#C32DE50C309FE500
(1746126227.248648) can0 11FF0205#C43080E5EE3E01EB
(1746126227.248650) can0 11FF0205#C504E09DE41EFF2F
(1746126227.249773) can0 11FF0205#C6E10847050004E0
(1746126227.249775) can0 11FF0205#C72DE50C309FE500
(1746126227.250878) can0 11FF0205#C83080E5E73E01EB
(1746126227.250879) can0 11FF0205#C904E09DE41EFF2F
(1746126227.252003) can0 11FF0205#CAE1E847050004E0
(1746126227.252005) can0 11FF0205#CB2DE50C309FE500
(1746126227.253106) can0 11FF0205#CC3080E5E03E01EB
(1746126227.253109) can0 11FF0205#CD04E09DE41EFF2F
(1746126227.254231) can0 11FF0205#CEE1484805001040
(1746126227.254233) can0 11FF0205#CF2DE9010050E309
(1746126227.255355) can0 11FF0205#D000001A10319FE5
(1746126227.255357) can0 11FF0205#D1030051E1400000
(1746126227.256485) can0 11FF0205#D21A08419FE50400
(1746126227.256487) can0 11FF0205#D3A0E1FFFFFFFFFF
(1746126227.296024) can0 11FF0205#E086419F63EA0F00
(1746126227.296025) can0 11FF0205#E12EFFFFEB00019F
(1746126227.297108) can0 11FF0205#E2E50410A0E12EFF
(1746126227.297110) can0 11FF0205#E3FFEB390000EA00
(1746126227.298232) can0 11FF0205#E40050E33700001A
(1746126227.298233) can0 11FF0205#E5E0309FE5030051
(1746126227.299355) can0 11FF0205#E6E13400001ADC40
(1746126227.299357) can0 11FF0205#E79FE5DC309FE500
(1746126227.300481) can0 11FF0205#E83084E5D8009FE5
(1746126227.300482) can0 11FF0205#E926FFFFEBD4009F
(1746126227.301605) can0 11FF0205#EAE527FFFFEBD000
(1746126227.301606) can0 11FF0205#EB9FE528FFFFEBCC
(1746126227.302731) can0 11FF0205#EC009FE529FFFFEB
(1746126227.302732) can0 11FF0205#EDC8009FE527FFFF
(1746126227.303857) can0 11FF0205#EEEBC4209FE5C430
(1746126227.303858) can0 11FF0205#EF9FE5032084E7C0
(1746126227.305002) can0 11FF0205#F0009FE525FFFFEB
(1746126227.305003) can0 11FF0205#F1BC209FE5BC309F
(1746126227.306106) can0 11FF0205#F2E5032084E7B820
(1746126227.306107) can0 11FF0205#F39FE5FFFFFFFFFF
(1746126227.345620) can0 11FF0205#0086419F63EA1000
(1746126227.345622) can0 11FF0205#010C3043E2032084
(1746126227.346761) can0 11FF0205#02E7B0009FE520FF
(1746126227.346763) can0 11FF0205#03FFEBAC309FE5AC
(1746126227.347827) can0 11FF0205#04209FE5023084E7
(1746126227.347828) can0 11FF0205#05572F42E2023084
(1746126227.348958) can0 11FF0205#06E7A0109FE51420
(1746126227.348960) can0 11FF0205#0742E2021084E798
(1746126227.350041) can0 11FF0205#08109FE598209FE5
(1746126227.350043) can0 11FF0205#09021084E794109F
(1746126227.351194) can0 11FF0205#0AE5EC2042E20210
(1746126227.351196) can0 11FF0205#0B84E79C3E84E5F4
(1746126227.352300) can0 11FF0205#0C3A84E584309FE5
(1746126227.352301) can0 11FF0205#0DAC3A84E580009F
(1746126227.353405) can0 11FF0205#0EE50FFFFFEB7C30
(1746126227.353406) can0 11FF0205#0F9FE52C3284E578
(1746126227.354534) can0 11FF0205#10309FE5003084E5
(1746126227.354535) can0 11FF0205#1174209FE50C309F
(1746126227.355666) can0 11FF0205#12E5002083E51040
(1746126227.355667) can0 11FF0205#13BDE8FFFFFFFFFF
(1746126227.395053) can0 11FF0205#2086419F63EA1100
(1746126227.395055) can0 11FF0205#211EFF2FE1FFFF00
(1746126227.396154) can0 11FF0205#2200842B00401002
(1746126227.396155) can0 11FF0205#230040CC4F050074
(1746126227.397254) can0 11FF0205#242B0040E4270040
(1746126227.397255) can0 11FF0205#2584240040002400
(1746126227.398397) can0 11FF0205#264054230040DC5B
(1746126227.398399) can0 11FF0205#2705002421000080
(1746126227.399522) can0 11FF0205#2822004008470500
(1746126227.399523) can0 11FF0205#29B81C0000009905
(1746126227.400668) can0 11FF0205#2A00BC1E0040D05E
(1746126227.400668) can0 11FF0205#2B0500F41A000028
(1746126227.401833) can0 11FF0205#2C47050078470500
(1746126227.401834) can0 11FF0205#2D70110000944705
(1746126227.402961) can0 11FF0205#2E00D0470500EC0A
(1746126227.402963) can0 11FF0205#2F0040E847050048
(1746126227.404106) can0 11FF0205#304805007C490500
(1746126227.404108) can0 11FF0205#3110402DE904D04D
(1746126227.405231) can0 11FF0205#32E230409FE50400
(1746126227.405233) can0 11FF0205#33A0E1FFFFFFFFFF
(1746126227.444630) can0 11FF0205#4086419F63EA1200
(1746126227.444631) can0 11FF0205#4103108DE2102900
(1746126227.445675) can0 11FF0205#42EB24009FE5E6FE
(1746126227.445676) can0 11FF0205#43FFEB0400A0E1E7
(1746126227.446824) can0 11FF0205#44FEFFEB0400A0E1
(1746126227.446825) can0 11FF0205#454210A0E3E7FEFF
(1746126227.447944) can0 11FF0205#46EB0400A0E1FF28
(1746126227.447944) can0 11FF0205#4700EBFCFFFFEA84
(1746126227.449086) can0 11FF0205#482B004010020040
(1746126227.449087) can0 11FF0205#49FEFFFFEA3C309F
(1746126227.450168) can0 11FF0205#4AE5C42093E50121
(1746126227.450169) can0 11FF0205#4B82E3C42083E530
(1746126227.451313) can0 11FF0205#4C309FE50010A0E3
(1746126227.451314) can0 11FF0205#4D2C209FE50110E3
(1746126227.452443) can0 11FF0205#4EE5020053E1FCFF
(1746126227.452443) can0 11FF0205#4FFF1A20309FE500
(1746126227.453562) can0 11FF0205#5010A0E31C209FE5
(1746126227.453563) can0 11FF0205#510110E3E5020053
(1746126227.454668) can0 11FF0205#52E1FCFFFF1A1EFF
(1746126227.454669) can0 11FF0205#532FE1FFFFFFFFFF
(1746126227.496958) can0 11FF0205#6086419F63EA1300
(1746126227.496959) can0 11FF0205#6100C01FE0FFFFCF
(1746126227.498065) can0 11FF0205#627FFF1FD07FFFFF
(1746126227.498066) can0 11FF0205#63DF7FFF3FE07F04
(1746126227.499190) can0 11FF0205#64E02DE50100A0E3
(1746126227.499191) can0 11FF0205#6508109FE56EFFFF
(1746126227.500313) can0 11FF0205#66EB04E09DE41EFF
(1746126227.501422) can0 11FF0205#672FE1FFFF000004
(1746126227.501423) can0 11FF0205#68E02DE50000A0E3
(1746126227.502563) can0 11FF0205#6908109FE567FFFF
(1746126227.502564) can0 11FF0205#6AEB04E09DE41EFF
(1746126227.503687) can0 11FF0205#6B2FE1FFFF000004
(1746126227.503687) can0 11FF0205#6CB02DE500B08DE2
(1746126227.504813) can0 11FF0205#6D70309FE50020A0
(1746126227.504814) can0 11FF0205#6EE30020C3E56430
(1746126227.505936) can0 11FF0205#6F9FE50020A0E301
(1746126227.505936) can0 11FF0205#7020C3E558309FE5
(1746126227.507084) can0 11FF0205#710020A0E30220C3
(1746126227.507084) can0 11FF0205#72E54C309FE50020
(1746126227.508211) can0 11FF0205#73A0E3FFFFFFFFFF
(1746126227.546427) can0 11FF0205#8086419F63EA1400
(1746126227.546429) can0 11FF0205#810320C3E540309F
(1746126227.547523) can0 11FF0205#82E50020A0E30420
(1746126227.547524) can0 11FF0205#83C3E534309FE500
(1746126227.548674) can0 11FF0205#8420A0E3082083E5
(1746126227.548675) can0 11FF0205#8528309FE50020A0
(1746126227.549794) can0 11FF0205#86E30C2083E51C30
(1746126227.549795) can0 11FF0205#879FE50020A0E310
(1746126227.550926) can0 11FF0205#882083E510309FE5
(1746126227.550927) can0 11FF0205#890020A0E3142083
(1746126227.552044) can0 11FF0205#8AE500D08BE20008
(1746126227.552046) can0 11FF0205#8BBDE81EFF2FE110
(1746126227.553167) can0 11FF0205#8C2C004000482DE9
(1746126227.553168) can0 11FF0205#8D04B08DE204D04D
(1746126227.554250) can0 11FF0205#8EE20030A0E10830
(1746126227.554250) can0 11FF0205#8F4BE508305BE503
(1746126227.555383) can0 11FF0205#9000A0E10110A0E3
(1746126227.555384) can0 11FF0205#913C2E00EB1700A0
(1746126227.556501) can0 11FF0205#92E3582100EB2030
(1746126227.556502) can0 11FF0205#939FE5FFFFFFFFFF
(1746126227.595944) can0 11FF0205#A086419F63EA1500
(1746126227.595945) can0 11FF0205#A10030D3E5FF3003
(1746126227.597069) can0 11FF0205#A2E2013083E3FF20
(1746126227.597070) can0 11FF0205#A303E20C309FE500
(1746126227.598148) can0 11FF0205#A420C3E504D04BE2
(1746126227.598149) can0 11FF0205#A50048BDE81EFF2F
(1746126227.599293) can0 11FF0205#A6E1102C00400048
(1746126227.599294) can0 11FF0205#A72DE904B08DE204
(1746126227.600376) can0 11FF0205#A8D04DE20030A0E1
(1746126227.600376) can0 11FF0205#A908304BE508305B
(1746126227.601522) can0 11FF0205#AAE50300A0E10010
(1746126227.601524) can0 11FF0205#ABA0E3262E00EB17
(1746126227.602627) can0 11FF0205#AC00A0E3312100EB
(1746126227.602628) can0 11FF0205#AD20309FE50030D3
(1746126227.603730) can0 11FF0205#AEE5FF3003E20130
(1746126227.603731) can0 11FF0205#AFC3E3FF2003E20C
(1746126227.604878) can0 11FF0205#B0309FE50020C3E5
(1746126227.604879) can0 11FF0205#B104D04BE20048BD
(1746126227.606000) can0 11FF0205#B2E81EFF2FE1102C
(1746126227.606001) can0 11FF0205#B30040FFFFFFFFFF
(1746126227.645463) can0 11FF0205#C086419F63EA1600
(1746126227.645464) can0 11FF0205#C100482DE904B08D
(1746126227.646612) can0 11FF0205#C2E204D04DE20030
(1746126227.646613) can0 11FF0205#C3A0E305304BE50C
(1746126227.647668) can0 11FF0205#C4319FE50030D3E5
(1746126227.647669) can0 11FF0205#C5FF3003E2013003
(1746126227.648834) can0 11FF0205#C6E2FF3003E20000
(1746126227.648835) can0 11FF0205#C753E33A00000AF0
(1746126227.649959) can0 11FF0205#C8309FE50030D3E5
(1746126227.649960) can0 11FF0205#C9FF3003E2043003
(1746126227.651107) can0 11FF0205#CAE2000053E30C00
(1746126227.651107) can0 11FF0205#CB000A60FEFFEBD4
(1746126227.652211) can0 11FF0205#CC309FE50030D3E5
(1746126227.652212) can0 11FF0205#CDFF3003E20430C3
(1746126227.653333) can0 11FF0205#CEE3FF2003E2C030
(1746126227.653334) can0 11FF0205#CF9FE50020C3E5B8
(1746126227.654459) can0 11FF0205#D0309FE50C3093E5
(1746126227.654461) can0 11FF0205#D1012083E2AC309F
(1746126227.655562) can0 11FF0205#D2E50C2083E5A430
(1746126227.655563) can0 11FF0205#D39FE5FFFFFFFFFF
(1746126227.694999) can0 11FF0205#E086419F63EA1700
(1746126227.695000) can0 11FF0205#E10030D3E5FF3003
(1746126227.696105) can0 11FF0205#E2E2083003E20000
(1746126227.696106) can0 11FF0205#E353E30E00000A05
(1746126227.697231) can0 11FF0205#E4305BE50300A0E1
(1746126227.697231) can0 11FF0205#E54EFEFFEB80309F
(1746126227.698354) can0 11FF0205#E6E50030D3E5FF30
(1746126227.698355) can0 11FF0205#E703E20830C3E3FF
(1746126227.699502) can0 11FF0205#E82003E26C309FE5
(1746126227.699503) can0 11FF0205#E90020C3E564309F
(1746126227.700606) can0 11FF0205#EAE5103093E50120
(1746126227.700606) can0 11FF0205#EB83E258309FE510
(1746126227.701731) can0 11FF0205#EC2083E550309FE5
(1746126227.701732) can0 11FF0205#ED0030D3E5FF3003
(1746126227.702876) can0 11FF0205#EEE2103003E20000
(1746126227.702878) can0 11FF0205#EF53E30C00000A3E
(1746126227.703980) can0 11FF0205#F0FEFFEB34309FE5
(1746126227.703982) can0 11FF0205#F10030D3E5FF3003
(1746126227.705127) can0 11FF0205#F2E21030C3E3FF20
(1746126227.705128) can0 11FF0205#F303E2FFFFFFFFFF
(1746126227.744308) can0 11FF0205#0086419F63EA1800
(1746126227.745451) can0 11FF0205#0120309FE50020C3
(1746126227.745452) can0 11FF0205#02E518309FE51430
(1746126227.746583) can0 11FF0205#0393E5012083E20C
(1746126227.746583) can0 11FF0205#04309FE5142083E5
(1746126227.747709) can0 11FF0205#0504D04BE20048BD
(1746126227.747710) can0 11FF0205#06E81EFF2FE1102C
(1746126227.748856) can0 11FF0205#0700400F082DE910
(1746126227.748857) can0 11FF0205#08B08DE208D04DE2
(1746126227.749979) can0 11FF0205#09A0319FE5003093
(1746126227.749980) can0 11FF0205#0AE514300BE51430
(1746126227.751084) can0 11FF0205#0B1BE5FF3C03E200
(1746126227.751086) can0 11FF0205#0C0053E31E00000A
(1746126227.752233) can0 11FF0205#0D14301BE5FF3C03
(1746126227.752234) can0 11FF0205#0EE22334A0E11430
(1746126227.753374) can0 11FF0205#0F0BE578319FE500
(1746126227.753375) can0 11FF0205#103093E5012083E2
(1746126227.754486) can0 11FF0205#116C319FE5002083
(1746126227.754487) can0 11FF0205#12E50030A0E31530
(1746126227.755630) can0 11FF0205#134BE5FFFFFFFFFF
(1746126227.796905) can0 11FF0205#2086419F63EA1900
(1746126227.796906) can0 11FF0205#210F0000EA15305B
(1746126227.797982) can0 11FF0205#22E50120A0E31233
(1746126227.797983) can0 11FF0205#23A0E10320A0E114
(1746126227.799104) can0 11FF0205#24301BE5033002E0
(1746126227.799105) can0 11FF0205#25000053E3040000
(1746126227.800251) can0 11FF0205#260A15205BE53831
(1746126227.800252) can0 11FF0205#279FE5023193E700
(1746126227.801373) can0 11FF0205#283093E514300BE5
(1746126227.801375) can0 11FF0205#2915305BE5013083
(1746126227.802501) can0 11FF0205#2AE215304BE51530
(1746126227.802502) can0 11FF0205#2B5BE5050053E3EC
(1746126227.803604) can0 11FF0205#2CFFFF9A14301BE5
(1746126227.803605) can0 11FF0205#2D013803E2000053
(1746126227.804752) can0 11FF0205#2EE33400000A1430
(1746126227.804753) can0 11FF0205#2F1BE5FF3003E214
(1746126227.805876) can0 11FF0205#30300BE5F8309FE5
(1746126227.805876) can0 11FF0205#31003093E5012083
(1746126227.807022) can0 11FF0205#32E2EC309FE50020
(1746126227.807024) can0 11FF0205#3383E5FFFFFFFFFF
(1746126227.846283) can0 11FF0205#4086419F63EA1A00
(1746126227.846284) can0 11FF0205#410030A0E315304B
(1746126227.847435) can0 11FF0205#42E5260000EA1530
(1746126227.847436) can0 11FF0205#435BE50120A0E312
(1746126227.848523) can0 11FF0205#4433A0E10320A0E1
(1746126227.848525) can0 11FF0205#4514301BE5033002
(1746126227.849647) can0 11FF0205#46E0000053E31B00
(1746126227.849649) can0 11FF0205#47000A15005BE515
(1746126227.850750) can0 11FF0205#48205BE5AC309FE5
(1746126227.850750) can0 11FF0205#49023193E7003093
(1746126227.851877) can0 11FF0205#4AE52333A0E10338
(1746126227.851878) can0 11FF0205#4BA0E12338A0E103
(1746126227.852960) can0 11FF0205#4C3BA0E1233BA0E1
(1746126227.852961) can0 11FF0205#4D0338A0E12328A0
(1746126227.854084) can0 11FF0205#4EE18C109FE58030
(1746126227.854085) can0 11FF0205#4FA0E1033081E0B0
(1746126227.855210) can0 11FF0205#5020C3E115305BE5
(1746126227.855211) can0 11FF0205#517C109FE58320A0
(1746126227.856355) can0 11FF0205#52E1022081E0B020
(1746126227.856356) can0 11FF0205#53D2E1FFFFFFFFFF
(1746126227.895910) can0 11FF0205#6086419F63EA1B00
(1746126227.895911) can0 11FF0205#61012082E20228A0
(1746126227.897004) can0 11FF0205#62E12228A0E16010
(1746126227.897006) can0 11FF0205#639FE58330A0E103
(1746126227.898128) can0 11FF0205#643081E0B020C3E1
(1746126227.898129) can0 11FF0205#6515305BE5013083
(1746126227.899231) can0 11FF0205#66E215304BE51530
(1746126227.899232) can0 11FF0205#675BE5050053E3D5
(1746126227.900334) can0 11FF0205#68FFFF9A3C309FE5
(1746126227.900335) can0 11FF0205#6938209FE5002092
(1746126227.901451) can0 11FF0205#6AE50724C2E30020
(1746126227.901452) can0 11FF0205#6B83E5FF30E0E300
(1746126227.902610) can0 11FF0205#6C20A0E3002083E5
(1746126227.902611) can0 11FF0205#6D10D04BE20F08BD
(1746126227.903689) can0 11FF0205#6EE804F05EE23040
(1746126227.903689) can0 11FF0205#6F03E0482C00405C
(1746126227.904857) can0 11FF0205#70480500442C0040
(1746126227.904858) can0 11FF0205#71282C0040342C00
(1746126227.906001) can0 11FF0205#7240004003E00048
(1746126227.906002) can0 11FF0205#732DE9FFFFFFFFFF
(1746126227.945514) can0 11FF0205#8086419F63EA1C00
(1746126227.945516) can0 11FF0205#8104B08DE21CD04D
(1746126227.946693) can0 11FF0205#82E21C000BE51C30
(1746126227.946694) can0 11FF0205#831BE5000053E34F
(1746126227.947795) can0 11FF0205#8400000A0230A0E3
(1746126227.947796) can0 11FF0205#8508300BE51C301B
(1746126227.948957) can0 11FF0205#86E50F3003E20000
(1746126227.948957) can0 11FF0205#8753E30400000A00
(1746126227.950052) can0 11FF0205#8830A0E318300BE5
(1746126227.950053) can0 11FF0205#890130A0E30C300B
(1746126227.951211) can0 11FF0205#8AE5070000EA1C30
(1746126227.951212) can0 11FF0205#8B1BE5303003E200
(1746126227.952294) can0 11FF0205#8C0053E30300000A
(1746126227.952295) can0 11FF0205#8D0130A0E318300B
(1746126227.953358) can0 11FF0205#8EE50330A0E30C30
(1746126227.953358) can0 11FF0205#8F0BE51C301BE501
(1746126227.954458) can0 11FF0205#903043E21F0053E3
(1746126227.954459) can0 11FF0205#9103F19F97310000
(1746126227.955582) can0 11FF0205#92EAF84E0000044F
(1746126227.955583) can0 11FF0205#930000FFFFFFFFFF
(1746126227.995003) can0 11FF0205#A086419F63EA1D00
(1746126227.995005) can0 11FF0205#A1404F0000104F00
(1746126227.996083) can0 11FF0205#A200404F0000404F
(1746126227.996083) can0 11FF0205#A30000404F00001C
(1746126227.997211) can0 11FF0205#A44F0000404F0000
(1746126227.997211) can0 11FF0205#A5404F0000404F00
(1746126227.998361) can0 11FF0205#A600404F0000404F
(1746126227.998362) can0 11FF0205#A70000404F000040
(1746126227.999512) can0 11FF0205#A84F0000284F0000
(1746126227.999513) can0 11FF0205#A9404F0000404F00
(1746126228.000647) can0 11FF0205#AA00404F0000404F
(1746126228.000648) can0 11FF0205#AB0000404F000040
(1746126228.001794) can0 11FF0205#AC4F0000404F0000
(1746126228.001795) can0 11FF0205#AD404F0000404F00
(1746126228.002955) can0 11FF0205#AE00404F0000404F
(1746126228.002956) can0 11FF0205#AF0000404F000040
(1746126228.004084) can0 11FF0205#B04F0000404F0000
(1746126228.004084) can0 11FF0205#B1404F0000344F00
(1746126228.005209) can0 11FF0205#B2001730A0E31430
(1746126228.005209) can0 11FF0205#B30BE5FFFFFFFFFF
(1746126228.044541) can0 11FF0205#C086419F63EA1E00
(1746126228.044543) can0 11FF0205#C10E0000EA1830A0
(1746126228.045606) can0 11FF0205#C2E314300BE50B00
(1746126228.045606) can0 11FF0205#C300EA1930A0E314
(1746126228.046738) can0 11FF0205#C4300BE5080000EA
(1746126228.046740) can0 11FF0205#C51A30A0E314300B
(1746126228.047832) can0 11FF0205#C6E5050000EA1E30
(1746126228.047833) can0 11FF0205#C7A0E314300BE502
(1746126228.048960) can0 11FF0205#C80000EA1F30A0E3
(1746126228.048961) can0 11FF0205#C914300BE50000A0
(1746126228.050082) can0 11FF0205#CAE108301BE50030
(1746126228.050083) can0 11FF0205#CB8DE518304BE20F
(1746126228.051214) can0 11FF0205#CC0093E8680200EB
(1746126228.051215) can0 11FF0205#CD000000EA0000A0
(1746126228.052355) can0 11FF0205#CEE104D04BE20048
(1746126228.052355) can0 11FF0205#CFBDE81EFF2FE104
(1746126228.053458) can0 11FF0205#D0B02DE500B08DE2
(1746126228.053459) can0 11FF0205#D104D04DE204000B
(1746126228.054583) can0 11FF0205#D2E520309FE51C20
(1746126228.054584) can0 11FF0205#D39FE5FFFFFFFFFF
(1746126228.096928) can0 11FF0205#E086419F63EA1F00
(1746126228.096929) can0 11FF0205#E1001092E504201B
(1746126228.098019) can0 11FF0205#E2E50224A0E10220
(1746126228.098020) can0 11FF0205#E381E1002083E500
(1746126228.099224) can0 11FF0205#E4D08BE20008BDE8
(1746126228.099226) can0 11FF0205#E51EFF2FE1004003
(1746126228.100336) can0 11FF0205#E6E004B02DE500B0
(1746126228.100337) can0 11FF0205#E78DE204D04DE204
(1746126228.101421) can0 11FF0205#E8000BE544309FE5
(1746126228.101422) can0 11FF0205#E940209FE5002092
(1746126228.102569) can0 11FF0205#EAE5FF20C2E30020
(1746126228.102570) can0 11FF0205#EB83E530309FE52C
(1746126228.103667) can0 11FF0205#EC209FE5001092E5
(1746126228.103668) can0 11FF0205#ED04201BE5022081
(1746126228.104715) can0 11FF0205#EEE1002083E51830
(1746126228.104716) can0 11FF0205#EF9FE514209FE500
(1746126228.105833) can0 11FF0205#F02092E5012482E3
(1746126228.105835) can0 11FF0205#F1002083E500D08B
(1746126228.106959) can0 11FF0205#F2E20008BDE81EFF
(1746126228.106960) can0 11FF0205#F32FE1FFFFFFFFFF
(1746126228.171269) can0 11FF0205#0086419F63EA2000
(1746126228.171271) can0 11FF0205#01004003E030482D
(1746126228.172362) can0 11FF0205#02E90CB08DE208D0
(1746126228.172363) can0 11FF0205#034DE214000BE5D0
(1746126228.173460) can0 11FF0205#040000EBB4319FE5
(1746126228.173462) can0 11FF0205#05B0219FE5002092
(1746126228.174583) can0 11FF0205#06E5032482E30020
(1746126228.174585) can0 11FF0205#0783E514301BE501
(1746126228.175709) can0 11FF0205#083003E2FF3003E2
(1746126228.175709) can0 11FF0205#09000053E3030000
(1746126228.176904) can0 11FF0205#0A0A14301BE50130
(1746126228.176905) can0 11FF0205#0B03E20300A0E16A
(1746126228.178007) can0 11FF0205#0CFFFFEB14301BE5
(1746126228.178008) can0 11FF0205#0D023003E2000053
(1746126228.179176) can0 11FF0205#0EE30300000A1430
(1746126228.179177) can0 11FF0205#0F1BE5023003E203
(1746126228.180325) can0 11FF0205#1000A0E162FFFFEB
(1746126228.180326) can0 11FF0205#1114301BE5043003
(1746126228.181432) can0 11FF0205#12E2000053E30300
(1746126228.181433) can0 11FF0205#13000AFFFFFFFFFF
(1746126228.220753) can0 11FF0205#2086419F63EA2100
(1746126228.220755) can0 11FF0205#2114301BE5043003
(1746126228.221836) can0 11FF0205#22E20300A0E15AFF
(1746126228.221837) can0 11FF0205#23FFEB14301BE508
(1746126228.222980) can0 11FF0205#243003E2000053E3
(1746126228.222981) can0 11FF0205#250300000A14301B
(1746126228.224106) can0 11FF0205#26E5083003E20300
(1746126228.224107) can0 11FF0205#27A0E152FFFFEB14
(1746126228.225262) can0 11FF0205#28301BE5103003E2
(1746126228.225264) can0 11FF0205#29000053E3030000
(1746126228.226397) can0 11FF0205#2A0A14301BE51030
(1746126228.226398) can0 11FF0205#2B03E20300A0E14A
(1746126228.227519) can0 11FF0205#2CFFFFEB14301BE5
(1746126228.227520) can0 11FF0205#2D203003E2000053
(1746126228.228669) can0 11FF0205#2EE30300000A1430
(1746126228.228670) can0 11FF0205#2F1BE5203003E203
(1746126228.229794) can0 11FF0205#3000A0E142FFFFEB
(1746126228.229795) can0 11FF0205#310830A0E30E304B
(1746126228.230929) can0 11FF0205#32E5D8409FE5D430
(1746126228.230930) can0 11FF0205#339FE5FFFFFFFFFF
(1746126228.270257) can0 11FF0205#4086419F63EA2200
(1746126228.270258) can0 11FF0205#41005093E50E305B
(1746126228.271357) can0 11FF0205#42E5CC009FE50310
(1746126228.271358) can0 11FF0205#43A0E1563501EB00
(1746126228.272480) can0 11FF0205#4430A0E1C0209FE5
(1746126228.272481) can0 11FF0205#459312C2E0422BA0
(1746126228.273479) can0 11FF0205#46E1C33FA0E10230
(1746126228.273481) can0 11FF0205#4763E00334A0E103
(1746126228.274668) can0 11FF0205#483085E1003084E5
(1746126228.274668) can0 11FF0205#4998309FE594209F
(1746126228.275795) can0 11FF0205#4AE5002092E50128
(1746126228.275796) can0 11FF0205#4BC2E3002083E500
(1746126228.276956) can0 11FF0205#4C00A0E384FFFFEB
(1746126228.276957) can0 11FF0205#4D7C309FE578209F
(1746126228.278063) can0 11FF0205#4EE5002092E50724
(1746126228.278064) can0 11FF0205#4FC2E3002083E574
(1746126228.279186) can0 11FF0205#50309FE514201BE5
(1746126228.279188) can0 11FF0205#51002083E50030A0
(1746126228.280312) can0 11FF0205#52E30D304BE50800
(1746126228.280313) can0 11FF0205#5300EAFFFFFFFFFF
(1746126228.319825) can0 11FF0205#6086419F63EA2300
(1746126228.320899) can0 11FF0205#610D305BE55C209F
(1746126228.320899) can0 11FF0205#62E58330A0E10330
(1746126228.322022) can0 11FF0205#6382E00020E0E3B0
(1746126228.322023) can0 11FF0205#6420C3E10D305BE5
(1746126228.323147) can0 11FF0205#65013083E20D304B
(1746126228.323148) can0 11FF0205#66E50D305BE50500
(1746126228.324252) can0 11FF0205#6753E3F3FFFF9A12
(1746126228.324253) can0 11FF0205#6800A0E3891F00EB
(1746126228.325368) can0 11FF0205#692C309FE51200A0
(1746126228.325369) can0 11FF0205#6AE30310A0E13B1F
(1746126228.326479) can0 11FF0205#6B00EB0CD04BE230
(1746126228.326480) can0 11FF0205#6C48BDE81EFF2FE1
(1746126228.327582) can0 11FF0205#6DA8C11FE0004003
(1746126228.327583) can0 11FF0205#6EE000A24A04DF65
(1746126228.328740) can0 11FF0205#6FDC170C4003E028
(1746126228.328741) can0 11FF0205#702C00402C4C0000
(1746126228.329811) can0 11FF0205#7104B02DE500B08D
(1746126228.329812) can0 11FF0205#72E208D04DE20800
(1746126228.330979) can0 11FF0205#730BE5FFFFFFFFFF
(1746126228.369234) can0 11FF0205#8086419F63EA2400
(1746126228.369235) can0 11FF0205#8108301BE5023043
(1746126228.370322) can0 11FF0205#82E21E0053E303F1
(1746126228.370323) can0 11FF0205#839F972D0000EA90
(1746126228.371421) can0 11FF0205#84520000CC520000
(1746126228.371422) can0 11FF0205#859C520000CC5200
(1746126228.372562) can0 11FF0205#8600CC520000CC52
(1746126228.372562) can0 11FF0205#870000A8520000CC
(1746126228.373685) can0 11FF0205#88520000CC520000
(1746126228.373686) can0 11FF0205#89CC520000CC5200
(1746126228.374811) can0 11FF0205#8A00CC520000CC52
(1746126228.374812) can0 11FF0205#8B0000CC520000B4
(1746126228.375944) can0 11FF0205#8C520000CC520000
(1746126228.375945) can0 11FF0205#8DCC520000CC5200
(1746126228.377061) can0 11FF0205#8E00CC520000CC52
(1746126228.377062) can0 11FF0205#8F0000CC520000CC
(1746126228.378192) can0 11FF0205#90520000CC520000
(1746126228.378194) can0 11FF0205#91CC520000CC5200
(1746126228.379314) can0 11FF0205#9200CC520000CC52
(1746126228.379315) can0 11FF0205#930000FFFFFFFFFF
(1746126228.421641) can0 11FF0205#A086419F63EA2500
(1746126228.421642) can0 11FF0205#A1CC520000CC5200
(1746126228.422732) can0 11FF0205#A200CC520000C052
(1746126228.422733) can0 11FF0205#A300000130A0E301
(1746126228.423856) can0 11FF0205#A4304BE50E0000EA
(1746126228.423857) can0 11FF0205#A50230A0E301304B
(1746126228.424959) can0 11FF0205#A6E50B0000EA0330
(1746126228.424960) can0 11FF0205#A7A0E301304BE508
(1746126228.426084) can0 11FF0205#A80000EA0430A0E3
(1746126228.426085) can0 11FF0205#A901304BE5050000
(1746126228.427212) can0 11FF0205#AAEA0530A0E30130
(1746126228.427214) can0 11FF0205#AB4BE5020000EA00
(1746126228.428338) can0 11FF0205#AC30A0E301304BE5
(1746126228.428339) can0 11FF0205#AD0000A0E101305B
(1746126228.429451) can0 11FF0205#AEE550209FE58330
(1746126228.429452) can0 11FF0205#AFA0E1033082E0B0
(1746126228.430585) can0 11FF0205#B030D3E1B4304BE1
(1746126228.430585) can0 11FF0205#B101305BE538209F
(1746126228.431686) can0 11FF0205#B2E58330A0E10330
(1746126228.431687) can0 11FF0205#B382E0FFFFFFFFFF
(1746126228.471196) can0 11FF0205#C086419F63EA2600
(1746126228.472274) can0 11FF0205#C10020E0E3B020C3
(1746126228.472275) can0 11FF0205#C2E1B4305BE1033B
(1746126228.473380) can0 11FF0205#C3A0E1233BA0E103
(1746126228.473381) can0 11FF0205#C438A0E12338A0E1
(1746126228.474501) can0 11FF0205#C50338A0E14338A0
(1746126228.474501) can0 11FF0205#C6E10300A0E100D0
(1746126228.475583) can0 11FF0205#C78BE20008BDE81E
(1746126228.475583) can0 11FF0205#C8FF2FE1282C0040
(1746126228.476730) can0 11FF0205#C900482DE904B08D
(1746126228.476731) can0 11FF0205#CAE204D04DE20800
(1746126228.477854) can0 11FF0205#CB0BE508001BE514
(1746126228.477855) can0 11FF0205#CCFFFFEB04D04BE2
(1746126228.478959) can0 11FF0205#CD0048BDE81EFF2F
(1746126228.478960) can0 11FF0205#CEE104B02DE500B0
(1746126228.480086) can0 11FF0205#CF8DE22C309FE528
(1746126228.480087) can0 11FF0205#D0209FE5002092E5
(1746126228.481208) can0 11FF0205#D1012A82E3002083
(1746126228.481209) can0 11FF0205#D2E51C309FE51820
(1746126228.482333) can0 11FF0205#D39FE5FFFFFFFFFF
(1746126228.520679) can0 11FF0205#E086419F63EA2700
(1746126228.520680) can0 11FF0205#E1002092E5022682
(1746126228.521730) can0 11FF0205#E2E3002083E500D0
(1746126228.521730) can0 11FF0205#E38BE20008BDE81E
(1746126228.522877) can0 11FF0205#E4FF2FE1C4C01FE0
(1746126228.522878) can0 11FF0205#E5004003E004B02D
(1746126228.523980) can0 11FF0205#E6E500B08DE208D0
(1746126228.523981) can0 11FF0205#E74DE20030A0E108
(1746126228.525105) can0 11FF0205#E8304BE508305BE5
(1746126228.525106) can0 11FF0205#E9000053E3020000
(1746126228.526227) can0 11FF0205#EA1A0030A0E30130
(1746126228.526228) can0 11FF0205#EB4BE5010000EA00
(1746126228.527363) can0 11FF0205#EC30A0E301304BE5
(1746126228.527364) can0 11FF0205#ED01305BE50300A0
(1746126228.528501) can0 11FF0205#EEE100D08BE20008
(1746126228.528503) can0 11FF0205#EFBDE81EFF2FE104
(1746126228.529601) can0 11FF0205#F0B02DE500B08DE2
(1746126228.529602) can0 11FF0205#F10130A0E30300A0
(1746126228.530709) can0 11FF0205#F2E100D08BE20008
(1746126228.530710) can0 11FF0205#F3BDE8FFFFFFFFFF
(1746126228.570232) can0 11FF0205#0086419F63EA2800
(1746126228.571310) can0 11FF0205#011EFF2FE110D04D
(1746126228.571311) can0 11FF0205#02E200482DE904B0
(1746126228.572436) can0 11FF0205#038DE208D04DE204
(1746126228.572437) can0 11FF0205#04C08BE20F008CE8
(1746126228.573558) can0 11FF0205#0504309BE505304B
(1746126228.573558) can0 11FF0205#06E508309BE50630
(1746126228.574708) can0 11FF0205#074BE50C309BE507
(1746126228.574708) can0 11FF0205#08304BE510309BE5
(1746126228.575814) can0 11FF0205#0908304BE514309B
(1746126228.575814) can0 11FF0205#0AE509304BE53033
(1746126228.576956) can0 11FF0205#0B9FE52C239FE500
(1746126228.576957) can0 11FF0205#0C2092E5012082E3
(1746126228.578083) can0 11FF0205#0D002083E506305B
(1746126228.578084) can0 11FF0205#0EE50F0053E34600
(1746126228.579205) can0 11FF0205#0F008A05305BE583
(1746126228.579206) can0 11FF0205#1031A0E10E3283E2
(1746126228.580312) can0 11FF0205#110B3983E20320A0
(1746126228.580313) can0 11FF0205#12E105305BE58331
(1746126228.581479) can0 11FF0205#13A0E1FFFFFFFFFF
(1746126228.619738) can0 11FF0205#2086419F63EA2900
(1746126228.619739) can0 11FF0205#210E3283E20B3983
(1746126228.620855) can0 11FF0205#22E2001093E50630
(1746126228.620856) can0 11FF0205#235BE58330A0E103
(1746126228.622001) can0 11FF0205#2400A0E31033A0E1
(1746126228.622002) can0 11FF0205#250330E0E1033001
(1746126228.623126) can0 11FF0205#26E0003082E50530
(1746126228.623128) can0 11FF0205#275BE58331A0E103
(1746126228.624230) can0 11FF0205#2820A0E1C4329FE5
(1746126228.624231) can0 11FF0205#29033082E00320A0
(1746126228.625352) can0 11FF0205#2AE105305BE58331
(1746126228.625353) can0 11FF0205#2BA0E10310A0E1AC
(1746126228.626500) can0 11FF0205#2C329FE5033081E0
(1746126228.626500) can0 11FF0205#2D001093E506305B
(1746126228.627626) can0 11FF0205#2EE58330A0E10300
(1746126228.627626) can0 11FF0205#2FA0E31033A0E103
(1746126228.628771) can0 11FF0205#3030E0E1033001E0
(1746126228.628772) can0 11FF0205#31003082E505305B
(1746126228.629893) can0 11FF0205#32E58331A0E10E32
(1746126228.629894) can0 11FF0205#3383E2FFFFFFFFFF
(1746126228.669250) can0 11FF0205#4086419F63EA2A00
(1746126228.669251) can0 11FF0205#410B3983E20320A0
(1746126228.670338) can0 11FF0205#42E105305BE58331
(1746126228.670338) can0 11FF0205#43A0E10E3283E20B
(1746126228.671464) can0 11FF0205#443983E2001093E5
(1746126228.671465) can0 11FF0205#4508005BE506305B
(1746126228.672564) can0 11FF0205#46E58330A0E11033
(1746126228.672566) can0 11FF0205#47A0E1033081E100
(1746126228.673686) can0 11FF0205#483082E505305BE5
(1746126228.673686) can0 11FF0205#498331A0E10320A0
(1746126228.674810) can0 11FF0205#4AE138329FE50330
(1746126228.674811) can0 11FF0205#4B82E00320A0E105
(1746126228.675936) can0 11FF0205#4C305BE58331A0E1
(1746126228.675938) can0 11FF0205#4D0310A0E120329F
(1746126228.677039) can0 11FF0205#4EE5033081E00010
(1746126228.677040) can0 11FF0205#4F93E509005BE506
(1746126228.678171) can0 11FF0205#50305BE58330A0E1
(1746126228.678171) can0 11FF0205#511033A0E1033081
(1746126228.679298) can0 11FF0205#52E1003082E54F00
(1746126228.679305) can0 11FF0205#5300EAFFFFFFFFFF
(1746126228.721619) can0 11FF0205#6086419F63EA2B00
(1746126228.721621) can0 11FF0205#6105305BE58331A0
(1746126228.722715) can0 11FF0205#62E14E3283E20B39
(1746126228.722716) can0 11FF0205#6383E20320A0E105
(1746126228.723838) can0 11FF0205#64305BE58331A0E1
(1746126228.723838) can0 11FF0205#654E3283E20B3983
(1746126228.724917) can0 11FF0205#66E2001093E50630
(1746126228.724918) can0 11FF0205#675BE50F3003E283
(1746126228.726043) can0 11FF0205#6830A0E10300A0E3
(1746126228.726044) can0 11FF0205#691033A0E10330E0
(1746126228.727167) can0 11FF0205#6AE1033001E00030
(1746126228.727169) can0 11FF0205#6B82E505305BE583
(1746126228.728270) can0 11FF0205#6C31A0E10320A0E1
(1746126228.728271) can0 11FF0205#6DA8319FE5033082
(1746126228.729408) can0 11FF0205#6EE00320A0E10530
(1746126228.729408) can0 11FF0205#6F5BE58331A0E103
(1746126228.730523) can0 11FF0205#7010A0E190319FE5
(1746126228.730524) can0 11FF0205#71033081E0001093
(1746126228.731622) can0 11FF0205#72E506305BE50F30
(1746126228.731623) can0 11FF0205#7303E2FFFFFFFFFF
(1746126228.771134) can0 11FF0205#8086419F63EA2C00
(1746126228.771135) can0 11FF0205#818330A0E10300A0
(1746126228.772237) can0 11FF0205#82E31033A0E10330
(1746126228.772238) can0 11FF0205#83E0E1033001E000
(1746126228.773364) can0 11FF0205#843082E505305BE5
(1746126228.773365) can0 11FF0205#858331A0E14E3283
(1746126228.774478) can0 11FF0205#86E20B3983E20320
(1746126228.774479) can0 11FF0205#87A0E105305BE583
(1746126228.775562) can0 11FF0205#8831A0E14E3283E2
(1746126228.775563) can0 11FF0205#890B3983E2001093
(1746126228.776708) can0 11FF0205#8AE508005BE50630
(1746126228.776709) can0 11FF0205#8B5BE50F3003E283
(1746126228.777859) can0 11FF0205#8C30A0E11033A0E1
(1746126228.777859) can0 11FF0205#8D033081E1003082
(1746126228.778977) can0 11FF0205#8EE504309BE50000
(1746126228.778978) can0 11FF0205#8F53E30200001A06
(1746126228.780132) can0 11FF0205#90305BE51A0053E3
(1746126228.780134) can0 11FF0205#911200008A05305B
(1746126228.781229) can0 11FF0205#92E58331A0E10320
(1746126228.781229) can0 11FF0205#93A0E1FFFFFFFFFF
(1746126228.820613) can0 11FF0205#A086419F63EA2D00
(1746126228.821688) can0 11FF0205#A1FC309FE5033082
(1746126228.821689) can0 11FF0205#A2E00320A0E10530
(1746126228.822791) can0 11FF0205#A35BE58331A0E103
(1746126228.822791) can0 11FF0205#A410A0E1E4309FE5
(1746126228.823895) can0 11FF0205#A5033081E0001093
(1746126228.823896) can0 11FF0205#A6E509005BE50630
(1746126228.825021) can0 11FF0205#A75BE50F3003E283
(1746126228.825022) can0 11FF0205#A830A0E11033A0E1
(1746126228.826146) can0 11FF0205#A9033081E1003082
(1746126228.826147) can0 11FF0205#AAE508305BE50000
(1746126228.827292) can0 11FF0205#AB53E32700001A07
(1746126228.827293) can0 11FF0205#AC305BE5010053E3
(1746126228.828395) can0 11FF0205#AD0F00001A05205B
(1746126228.828397) can0 11FF0205#AEE5A4309FE50330
(1746126228.829524) can0 11FF0205#AF82E08332A0E103
(1746126228.829525) can0 11FF0205#B020A0E105105BE5
(1746126228.830649) can0 11FF0205#B190309FE5033081
(1746126228.830649) can0 11FF0205#B2E08332A0E10010
(1746126228.831770) can0 11FF0205#B393E5FFFFFFFFFF
(1746126228.870163) can0 11FF0205#C086419F63EA2E00
(1746126228.870164) can0 11FF0205#C107005BE506305B
(1746126228.871212) can0 11FF0205#C2E51033A0E10330
(1746126228.871213) can0 11FF0205#C381E1003082E50F
(1746126228.872334) can0 11FF0205#C40000EA05205BE5
(1746126228.872335) can0 11FF0205#C564309FE5033082
(1746126228.873457) can0 11FF0205#C6E08332A0E10320
(1746126228.873458) can0 11FF0205#C7A0E105105BE550
(1746126228.874583) can0 11FF0205#C8309FE5033081E0
(1746126228.874584) can0 11FF0205#C98332A0E1001093
(1746126228.875686) can0 11FF0205#CAE506305BE50100
(1746126228.875687) can0 11FF0205#CBA0E31033A0E103
(1746126228.876833) can0 11FF0205#CC30E0E1033001E0
(1746126228.876835) can0 11FF0205#CD003082E504209B
(1746126228.877957) can0 11FF0205#CEE508309BE50200
(1746126228.877958) can0 11FF0205#CFA0E10310A0E11E
(1746126228.879062) can0 11FF0205#D00000EB04D04BE2
(1746126228.879062) can0 11FF0205#D10048BDE810D08D
(1746126228.880190) can0 11FF0205#D2E21EFF2FE1A0C1
(1746126228.880191) can0 11FF0205#D31FE0FFFFFFFFFF
(1746126228.919670) can0 11FF0205#E086419F63EA2F00
(1746126228.919671) can0 11FF0205#E140C002E044C002
(1746126228.920750) can0 11FF0205#E2E000FEFF0104B0
(1746126228.920750) can0 11FF0205#E32DE500B08DE208
(1746126228.921876) can0 11FF0205#E4D04DE204000BE5
(1746126228.921876) can0 11FF0205#E508100BE504301B
(1746126228.923001) can0 11FF0205#E6E58332A0E1FF3D
(1746126228.923002) can0 11FF0205#E743E2A33143E203
(1746126228.924126) can0 11FF0205#E820A0E104301BE5
(1746126228.924127) can0 11FF0205#E98332A0E1FF3D43
(1746126228.925229) can0 11FF0205#EAE2A33143E20010
(1746126228.925230) can0 11FF0205#EB93E508301BE501
(1746126228.926333) can0 11FF0205#EC00A0E31033A0E1
(1746126228.926334) can0 11FF0205#ED033081E1003082
(1746126228.927459) can0 11FF0205#EEE500D08BE20008
(1746126228.927460) can0 11FF0205#EFBDE81EFF2FE104
(1746126228.928588) can0 11FF0205#F0B02DE500B08DE2
(1746126228.928590) can0 11FF0205#F108D04DE204000B
(1746126228.929687) can0 11FF0205#F2E508100BE50430
(1746126228.929687) can0 11FF0205#F31BE5FFFFFFFFFF
(1746126228.969151) can0 11FF0205#0086419F63EA3000
(1746126228.969152) can0 11FF0205#018332A0E1FF3D43
(1746126228.970236) can0 11FF0205#02E2933143E20320
(1746126228.970237) can0 11FF0205#03A0E104301BE583
(1746126228.971342) can0 11FF0205#0432A0E1FF3D43E2
(1746126228.971344) can0 11FF0205#05933143E2001093
(1746126228.972484) can0 11FF0205#06E508301BE50100
(1746126228.972485) can0 11FF0205#07A0E31033A0E103
(1746126228.973603) can0 11FF0205#083081E1003082E5
(1746126228.973604) can0 11FF0205#0900D08BE20008BD
(1746126228.974729) can0 11FF0205#0AE81EFF2FE10048
(1746126228.974731) can0 11FF0205#0B2DE904B08DE20C
(1746126228.975832) can0 11FF0205#0CD04DE20C000BE5
(1746126228.975832) can0 11FF0205#0D10100BE50C001B
(1746126228.976979) can0 11FF0205#0EE50E0000EB0800
(1746126228.976980) can0 11FF0205#0F0BE510301BE501
(1746126228.978105) can0 11FF0205#1020A0E31233A0E1
(1746126228.978106) can0 11FF0205#110320A0E108301B
(1746126228.979250) can0 11FF0205#12E5033002E00000
(1746126228.979252) can0 11FF0205#1353E3FFFFFFFFFF
(1746126229.021614) can0 11FF0205#2086419F63EA3100
(1746126229.021616) can0 11FF0205#210030A0030130A0
(1746126229.022713) can0 11FF0205#2213FF3003E20300
(1746126229.022715) can0 11FF0205#23A0E104D04BE200
(1746126229.023812) can0 11FF0205#2448BDE81EFF2FE1
(1746126229.023812) can0 11FF0205#2504B02DE500B08D
(1746126229.024958) can0 11FF0205#26E204D04DE20400
(1746126229.024959) can0 11FF0205#270BE504301BE583
(1746126229.026083) can0 11FF0205#2832A0E1FF3D43E2
(1746126229.026084) can0 11FF0205#29B33143E2003093
(1746126229.027207) can0 11FF0205#2AE50300A0E100D0
(1746126229.028337) can0 11FF0205#2B8BE20008BDE81E
(1746126229.028338) can0 11FF0205#2CFF2FE104B02DE5
(1746126229.029423) can0 11FF0205#2D00B08DE214309F
(1746126229.029424) can0 11FF0205#2EE510209FE50020
(1746126229.030588) can0 11FF0205#2F92E5002083E500
(1746126229.030590) can0 11FF0205#30D08BE20008BDE8
(1746126229.031688) can0 11FF0205#311EFF2FE1ACC11F
(1746126229.031688) can0 11FF0205#32E010D04DE20048
(1746126229.032854) can0 11FF0205#332DE9FFFFFFFFFF
(1746126229.071171) can0 11FF0205#4086419F63EA3200
(1746126229.072260) can0 11FF0205#4104B08DE204D04D
(1746126229.072260) can0 11FF0205#42E204C08BE20F00
(1746126229.073376) can0 11FF0205#438CE814309BE500
(1746126229.073377) can0 11FF0205#44308DE504308BE2
(1746126229.074479) can0 11FF0205#450F0093E8B7FEFF
(1746126229.074480) can0 11FF0205#46EB04D04BE20048
(1746126229.075561) can0 11FF0205#47BDE810D08DE21E
(1746126229.075561) can0 11FF0205#48FF2FE100482DE9
(1746126229.076708) can0 11FF0205#4904B08DE224D04D
(1746126229.076709) can0 11FF0205#4AE21C000BE52010
(1746126229.077832) can0 11FF0205#4B0BE524200BE520
(1746126229.077833) can0 11FF0205#4C301BE514300BE5
(1746126229.078944) can0 11FF0205#4D1C301BE518300B
(1746126229.078945) can0 11FF0205#4EE524301BE51030
(1746126229.080041) can0 11FF0205#4F0BE50030A0E30C
(1746126229.080042) can0 11FF0205#50300BE50030A0E3
(1746126229.081186) can0 11FF0205#5108300BE508301B
(1746126229.081187) can0 11FF0205#52E500308DE51830
(1746126229.082309) can0 11FF0205#534BE2FFFFFFFFFF
(1746126229.120633) can0 11FF0205#6086419F63EA3300
(1746126229.120634) can0 11FF0205#610F0093E89EFEFF
(1746126229.121812) can0 11FF0205#62EB1C001BE52010
(1746126229.121813) can0 11FF0205#631BE50120A0E35F
(1746126229.122932) can0 11FF0205#640000EB04D04BE2
(1746126229.122933) can0 11FF0205#650048BDE81EFF2F
(1746126229.124043) can0 11FF0205#66E100482DE904B0
(1746126229.124044) can0 11FF0205#678DE210D04DE20C
(1746126229.125167) can0 11FF0205#68000BE510100BE5
(1746126229.125168) can0 11FF0205#690230A0E114304B
(1746126229.126171) can0 11FF0205#6AE50C001BE51010
(1746126229.126172) can0 11FF0205#6B1BE53D0000EB00
(1746126229.127327) can0 11FF0205#6C30A0E105304BE5
(1746126229.127328) can0 11FF0205#6D05305BE5010053
(1746126229.128426) can0 11FF0205#6EE30900001A1430
(1746126229.128426) can0 11FF0205#6F5BE5010053E303
(1746126229.129545) can0 11FF0205#7000001A0C001BE5
(1746126229.129546) can0 11FF0205#7110101BE564FFFF
(1746126229.130674) can0 11FF0205#72EB020000EA0C00
(1746126229.130675) can0 11FF0205#731BE5FFFFFFFFFF
(1746126229.170130) can0 11FF0205#8086419F63EA3400
(1746126229.170131) can0 11FF0205#8110101BE577FFFF
(1746126229.171277) can0 11FF0205#82EB05305BE50300
(1746126229.171278) can0 11FF0205#83A0E104D04BE200
(1746126229.172376) can0 11FF0205#8448BDE81EFF2FE1
(1746126229.172378) can0 11FF0205#8500482DE904B08D
(1746126229.173500) can0 11FF0205#86E20CD04DE20C00
(1746126229.173501) can0 11FF0205#870BE510100BE50C
(1746126229.174625) can0 11FF0205#88001BE510101BE5
(1746126229.174627) can0 11FF0205#89210000EB0030A0
(1746126229.175749) can0 11FF0205#8AE105304BE50530
(1746126229.175750) can0 11FF0205#8B5BE5010053E302
(1746126229.176876) can0 11FF0205#8C00001A0C001BE5
(1746126229.176876) can0 11FF0205#8D10101BE54BFFFF
(1746126229.177975) can0 11FF0205#8EEB05305BE50300
(1746126229.177976) can0 11FF0205#8FA0E104D04BE200
(1746126229.179101) can0 11FF0205#9048BDE81EFF2FE1
(1746126229.179101) can0 11FF0205#9100482DE904B08D
(1746126229.180253) can0 11FF0205#92E20CD04DE20C00
(1746126229.180254) can0 11FF0205#930BE5FFFFFFFFFF
(1746126229.219701) can0 11FF0205#A086419F63EA3500
(1746126229.219702) can0 11FF0205#A110100BE50C001B
(1746126229.220832) can0 11FF0205#A2E510101BE50C00
(1746126229.220832) can0 11FF0205#A300EB0030A0E105
(1746126229.221916) can0 11FF0205#A4304BE505305BE5
(1746126229.221916) can0 11FF0205#A5010053E3020000
(1746126229.223061) can0 11FF0205#A61A0C001BE51010
(1746126229.223063) can0 11FF0205#A71BE54DFFFFEB05
(1746126229.224186) can0 11FF0205#A8305BE50300A0E1
(1746126229.224187) can0 11FF0205#A904D04BE20048BD
(1746126229.225285) can0 11FF0205#AAE81EFF2FE104B0
(1746126229.225286) can0 11FF0205#AB2DE500B08DE208
(1746126229.226413) can0 11FF0205#ACD04DE204000BE5
(1746126229.226414) can0 11FF0205#AD08100BE534309F
(1746126229.227516) can0 11FF0205#AEE504201BE50221
(1746126229.227516) can0 11FF0205#AF93E708301BE501
(1746126229.228667) can0 11FF0205#B010A0E31133A0E1
(1746126229.228669) can0 11FF0205#B1033002E0000053
(1746126229.229794) can0 11FF0205#B2E30030A0030130
(1746126229.229796) can0 11FF0205#B3A013FFFFFFFFFF
(1746126229.269129) can0 11FF0205#C086419F63EA3600
(1746126229.269130) can0 11FF0205#C1FF3003E20300A0
(1746126229.270271) can0 11FF0205#C2E100D08BE20008
(1746126229.270272) can0 11FF0205#C3BDE81EFF2FE14C
(1746126229.271374) can0 11FF0205#C42C004004B02DE5
(1746126229.271375) can0 11FF0205#C500B08DE20CD04D
(1746126229.272502) can0 11FF0205#C6E204000BE50810
(1746126229.272503) can0 11FF0205#C70BE50230A0E10C
(1746126229.273522) can0 11FF0205#C8304BE50C305BE5
(1746126229.273523) can0 11FF0205#C9010053E30A0000
(1746126229.274730) can0 11FF0205#CA1A5C309FE50420
(1746126229.274731) can0 11FF0205#CB1BE5022193E708
(1746126229.275855) can0 11FF0205#CC301BE50110A0E3
(1746126229.275856) can0 11FF0205#CD1133A0E1031082
(1746126229.276958) can0 11FF0205#CEE140309FE50420
(1746126229.276959) can0 11FF0205#CF1BE5021183E70A
(1746126229.278108) can0 11FF0205#D00000EA30309FE5
(1746126229.278109) can0 11FF0205#D104201BE5022193
(1746126229.279208) can0 11FF0205#D2E708301BE50110
(1746126229.279209) can0 11FF0205#D3A0E3FFFFFFFFFF
(1746126229.321595) can0 11FF0205#E086419F63EA3700
(1746126229.322686) can0 11FF0205#E11133A0E10330E0
(1746126229.322687) can0 11FF0205#E2E1031002E01030
(1746126229.323790) can0 11FF0205#E39FE504201BE502
(1746126229.323791) can0 11FF0205#E41183E700D08BE2
(1746126229.324934) can0 11FF0205#E50008BDE81EFF2F
(1746126229.324935) can0 11FF0205#E6E14C2C00400048
(1746126229.326041) can0 11FF0205#E72DE904B08DE20C
(1746126229.326043) can0 11FF0205#E8D04DE20C000BE5
(1746126229.327166) can0 11FF0205#E910100BE50C001B
(1746126229.327167) can0 11FF0205#EAE510101BE5BEFF
(1746126229.328292) can0 11FF0205#EBFFEB0030A0E105
(1746126229.328293) can0 11FF0205#EC304BE505305BE5
(1746126229.329400) can0 11FF0205#ED010053E30E0000
(1746126229.329401) can0 11FF0205#EE1A0C001BE51010
(1746126229.330521) can0 11FF0205#EF1BE516FFFFEB00
(1746126229.330522) can0 11FF0205#F030A0E106304BE5
(1746126229.331623) can0 11FF0205#F106305BE5010053
(1746126229.331624) can0 11FF0205#F2E30300001A0C00
(1746126229.332792) can0 11FF0205#F31BE5FFFFFFFFFF
(1746126229.371162) can0 11FF0205#0086419F63EA3800
(1746126229.371163) can0 11FF0205#0110101BE5F7FEFF
(1746126229.372294) can0 11FF0205#02EB020000EA0C00
(1746126229.372295) can0 11FF0205#031BE510101BE5DC
(1746126229.373425) can0 11FF0205#04FEFFEB05305BE5
(1746126229.373426) can0 11FF0205#050300A0E104D04B
(1746126229.374561) can0 11FF0205#06E20048BDE81EFF
(1746126229.374562) can0 11FF0205#072FE100482DE904
(1746126229.375678) can0 11FF0205#08B08DE208D04DE2
(1746126229.375679) can0 11FF0205#0908000BE50C100B
(1746126229.376810) can0 11FF0205#0AE508001BE50C10
(1746126229.376811) can0 11FF0205#0B1BE5FDFEFFEB00
(1746126229.377935) can0 11FF0205#0C30A0E10300A0E1
(1746126229.377936) can0 11FF0205#0D04D04BE20048BD
(1746126229.379093) can0 11FF0205#0EE81EFF2FE104E0
(1746126229.379094) can0 11FF0205#0F4EE20F582DE918
(1746126229.380115) can0 11FF0205#10B08DE20000A0E3
(1746126229.380116) can0 11FF0205#113D0300EB18D04B
(1746126229.381208) can0 11FF0205#12E20F98FDE804E0
(1746126229.381209) can0 11FF0205#134EE2FFFFFFFFFF
(1746126229.420699) can0 11FF0205#2086419F63EA3900
(1746126229.420700) can0 11FF0205#210F582DE918B08D
(1746126229.421790) can0 11FF0205#22E20100A0E33603
(1746126229.421791) can0 11FF0205#2300EB18D04BE20F
(1746126229.422945) can0 11FF0205#2498FDE804E04EE2
(1746126229.422947) can0 11FF0205#250F582DE918B08D
(1746126229.424046) can0 11FF0205#26E20200A0E32F03
(1746126229.424047) can0 11FF0205#2700EB18D04BE20F
(1746126229.425163) can0 11FF0205#2898FDE804B02DE5
(1746126229.425164) can0 11FF0205#2900B08DE208D04D
(1746126229.426292) can0 11FF0205#2AE20030A0E10830
(1746126229.426293) can0 11FF0205#2B4BE50030A0E304
(1746126229.427401) can0 11FF0205#2C300BE508305BE5
(1746126229.427403) can0 11FF0205#2D020053E3120000
(1746126229.428569) can0 11FF0205#2E8A08305BE50100
(1746126229.428570) can0 11FF0205#2F53E30600000A02
(1746126229.429707) can0 11FF0205#300053E30700000A
(1746126229.429708) can0 11FF0205#31000053E3080000
(1746126229.430835) can0 11FF0205#321A3C309FE50430
(1746126229.430837) can0 11FF0205#330BE5FFFFFFFFFF
(1746126229.470169) can0 11FF0205#4086419F63EA3A00
(1746126229.470171) can0 11FF0205#41080000EA34309F
(1746126229.471252) can0 11FF0205#42E504300BE50500
(1746126229.471253) can0 11FF0205#4300EA2C309FE504
(1746126229.472377) can0 11FF0205#44300BE5020000EA
(1746126229.472378) can0 11FF0205#450030A0E304300B
(1746126229.473499) can0 11FF0205#46E50000A0E10430
(1746126229.473500) can0 11FF0205#471BE50300A0E100
(1746126229.474624) can0 11FF0205#48D08BE20008BDE8
(1746126229.474626) can0 11FF0205#491EFF2FE1605C00
(1746126229.475729) can0 11FF0205#4A007C5C0000985C
(1746126229.475730) can0 11FF0205#4B000010482DE908
(1746126229.476855) can0 11FF0205#4CB08DE208D04DE2
(1746126229.476856) can0 11FF0205#4D0030A0E110100B
(1746126229.477978) can0 11FF0205#4EE50C304BE53C02
(1746126229.477979) can0 11FF0205#4F00EB0C305BE502
(1746126229.479102) can0 11FF0205#500053E38900008A
(1746126229.479104) can0 11FF0205#510C205BE528329F
(1746126229.480232) can0 11FF0205#52E50231D3E7FF30
(1746126229.480232) can0 11FF0205#5303E2FFFFFFFFFF
(1746126229.519735) can0 11FF0205#6086419F63EA3B00
(1746126229.519736) can0 11FF0205#61FF0053E3830000
(1746126229.520809) can0 11FF0205#621A18329FE51422
(1746126229.520809) can0 11FF0205#639FE5001092E50C
(1746126229.521915) can0 11FF0205#64205BE50C029FE5
(1746126229.521916) can0 11FF0205#650220D0E70100A0
(1746126229.522998) can0 11FF0205#66E31022A0E10220
(1746126229.522999) can0 11FF0205#6781E1002083E50C
(1746126229.524165) can0 11FF0205#68305BE5010053E3
(1746126229.524166) can0 11FF0205#691700000A020053
(1746126229.525322) can0 11FF0205#6AE32900000A0000
(1746126229.525323) can0 11FF0205#6B53E33B00001ADC
(1746126229.526391) can0 11FF0205#6C319FE5D8219FE5
(1746126229.526392) can0 11FF0205#6D002092E5002083
(1746126229.527566) can0 11FF0205#6EE5D0319FE5CC21
(1746126229.527567) can0 11FF0205#6F9FE5002092E50F
(1746126229.528649) can0 11FF0205#7025C2E3002083E5
(1746126229.528649) can0 11FF0205#71BC319FE5B8219F
(1746126229.529772) can0 11FF0205#72E5002092E50125
(1746126229.529773) can0 11FF0205#7382E3FFFFFFFFFF
(1746126229.572238) can0 11FF0205#8086419F63EA3C00
(1746126229.573311) can0 11FF0205#81002083E5A8319F
(1746126229.573311) can0 11FF0205#82E5A4219FE50020
(1746126229.574458) can0 11FF0205#8392E5012482E300
(1746126229.574459) can0 11FF0205#842083E5280000EA
(1746126229.575561) can0 11FF0205#8594319FE590219F
(1746126229.575561) can0 11FF0205#86E5002092E50020
(1746126229.576735) can0 11FF0205#8783E588319FE584
(1746126229.576735) can0 11FF0205#88219FE5002092E5
(1746126229.577832) can0 11FF0205#890F20C2E3002083
(1746126229.578964) can0 11FF0205#8AE574319FE57021
(1746126229.578965) can0 11FF0205#8B9FE5002092E503
(1746126229.580087) can0 11FF0205#8C2082E3002083E5
(1746126229.580088) can0 11FF0205#8D60319FE55C219F
(1746126229.581207) can0 11FF0205#8EE5002092E50C20
(1746126229.581208) can0 11FF0205#8F82E3002083E514
(1746126229.582332) can0 11FF0205#900000EA44319FE5
(1746126229.582333) can0 11FF0205#9140219FE5002092
(1746126229.583462) can0 11FF0205#92E5002083E53831
(1746126229.583463) can0 11FF0205#939FE5FFFFFFFFFF
(1746126229.621555) can0 11FF0205#A086419F63EA3D00
(1746126229.621557) can0 11FF0205#A134219FE5002092
(1746126229.622623) can0 11FF0205#A2E50F26C2E30020
(1746126229.622623) can0 11FF0205#A383E524319FE520
(1746126229.623746) can0 11FF0205#A4219FE5002092E5
(1746126229.623746) can0 11FF0205#A5022682E3002083
(1746126229.624872) can0 11FF0205#A6E510319FE50C21
(1746126229.624872) can0 11FF0205#A79FE5002092E502
(1746126229.626006) can0 11FF0205#A82582E3002083E5
(1746126229.626006) can0 11FF0205#A9000000EA0000A0
(1746126229.627131) can0 11FF0205#AAE10C205BE5F430
(1746126229.627131) can0 11FF0205#AB9FE5023193E718
(1746126229.628252) can0 11FF0205#AC3083E26C20A0E3
(1746126229.628253) can0 11FF0205#AD0020C3E510301B
(1746126229.629380) can0 11FF0205#AEE5000053E30C00
(1746126229.629380) can0 11FF0205#AF001A0C205BE5D0
(1746126229.630522) can0 11FF0205#B0309FE5023193E7
(1746126229.630522) can0 11FF0205#B1103083E21420A0
(1746126229.631600) can0 11FF0205#B2E3B020C3E10C20
(1746126229.631601) can0 11FF0205#B35BE5FFFFFFFFFF
(1746126229.671187) can0 11FF0205#C086419F63EA3E00
(1746126229.671189) can0 11FF0205#C1B8309FE5023193
(1746126229.672273) can0 11FF0205#C2E7143083E21920
(1746126229.672274) can0 11FF0205#C3A0E3B020C3E10B
(1746126229.673410) can0 11FF0205#C40000EA0C205BE5
(1746126229.673411) can0 11FF0205#C59C309FE5023193
(1746126229.674516) can0 11FF0205#C6E7103083E25A20
(1746126229.674517) can0 11FF0205#C7A0E3B020C3E10C
(1746126229.675640) can0 11FF0205#C8205BE584309FE5
(1746126229.675641) can0 11FF0205#C9023193E7143083
(1746126229.676724) can0 11FF0205#CAE25A20A0E3B020
(1746126229.676725) can0 11FF0205#CBC3E10C305BE570
(1746126229.677881) can0 11FF0205#CC209FE50330D2E7
(1746126229.677882) can0 11FF0205#CD0340A0E10C305B
(1746126229.679001) can0 11FF0205#CEE50300A0E153FF
(1746126229.679003) can0 11FF0205#CFFFEB0030A0E104
(1746126229.680044) can0 11FF0205#D000A0E10310A0E1
(1746126229.680046) can0 11FF0205#D1D01B00EB0C205B
(1746126229.681208) can0 11FF0205#D2E540309FE50231
(1746126229.681209) can0 11FF0205#D393E7FFFFFFFFFF
(1746126229.720623) can0 11FF0205#E086419F63EA3F00
(1746126229.720624) can0 11FF0205#E14020A0E30020C3
(1746126229.721751) can0 11FF0205#E2E50C205BE51030
(1746126229.721752) can0 11FF0205#E39FE50010A0E302
(1746126229.722879) can0 11FF0205#E411C3E708D04BE2
(1746126229.722880) can0 11FF0205#E51048BDE81EFF2F
(1746126229.723985) can0 11FF0205#E6E19C2C0040C4C0
(1746126229.723986) can0 11FF0205#E71FE0A8480500A8
(1746126229.725101) can0 11FF0205#E8C11FE004C002E0
(1746126229.725102) can0 11FF0205#E9ACC11FE000C002
(1746126229.726227) can0 11FF0205#EAE0AC480500B848
(1746126229.726228) can0 11FF0205#EB050000482DE904
(1746126229.727345) can0 11FF0205#ECB08DE214D04DE2
(1746126229.727346) can0 11FF0205#ED18300BE50030A0
(1746126229.728426) can0 11FF0205#EEE10C304BE50130
(1746126229.728427) can0 11FF0205#EFA0E110304BE5B4
(1746126229.729583) can0 11FF0205#F0214BE10C205BE5
(1746126229.729584) can0 11FF0205#F110305BE50200A0
(1746126229.730694) can0 11FF0205#F2E10310A0E1CC01
(1746126229.730695) can0 11FF0205#F300EBFFFFFFFFFF
(1746126229.794921) can0 11FF0205#0086419F63EA4000
(1746126229.794923) can0 11FF0205#010030A0E108300B
(1746126229.796064) can0 11FF0205#02E508301BE5FF00
(1746126229.796065) can0 11FF0205#0353E34E00000A0C
(1746126229.797152) can0 11FF0205#04205BE53C319FE5
(1746126229.797153) can0 11FF0205#05021193E708201B
(1746126229.798261) can0 11FF0205#06E50230A0E10331
(1746126229.798261) can0 11FF0205#07A0E1023083E003
(1746126229.799389) can0 11FF0205#0831A0E1033081E0
(1746126229.799390) can0 11FF0205#090020A0E31020C3
(1746126229.800497) can0 11FF0205#0AE50C205BE51031
(1746126229.800497) can0 11FF0205#0B9FE5021193E708
(1746126229.801644) can0 11FF0205#0C201BE50230A0E1
(1746126229.801645) can0 11FF0205#0D0331A0E1023083
(1746126229.802769) can0 11FF0205#0EE00331A0E10330
(1746126229.802770) can0 11FF0205#0F81E010205BE500
(1746126229.803895) can0 11FF0205#1020C3E50C205BE5
(1746126229.803895) can0 11FF0205#11E4309FE5021193
(1746126229.805020) can0 11FF0205#12E708201BE50230
(1746126229.805020) can0 11FF0205#13A0E1FFFFFFFFFF
(1746126229.844454) can0 11FF0205#2086419F63EA4100
(1746126229.844456) can0 11FF0205#210331A0E1023083
(1746126229.845573) can0 11FF0205#22E00331A0E10330
(1746126229.845575) can0 11FF0205#2381E018201BE504
(1746126229.846717) can0 11FF0205#242083E50C205BE5
(1746126229.846718) can0 11FF0205#25B8309FE5021193
(1746126229.847803) can0 11FF0205#26E708201BE50230
(1746126229.847804) can0 11FF0205#27A0E10331A0E102
(1746126229.848952) can0 11FF0205#283083E00331A0E1
(1746126229.848953) can0 11FF0205#29033081E0B4215B
(1746126229.850042) can0 11FF0205#2AE1B220C3E10C20
(1746126229.850043) can0 11FF0205#2B5BE58C309FE502
(1746126229.851108) can0 11FF0205#2C1193E708201BE5
(1746126229.851108) can0 11FF0205#2D0230A0E10331A0
(1746126229.852255) can0 11FF0205#2EE1023083E00331
(1746126229.852256) can0 11FF0205#2FA0E1033081E000
(1746126229.853372) can0 11FF0205#3020A0E31120C3E5
(1746126229.853373) can0 11FF0205#310C205BE564309F
(1746126229.854480) can0 11FF0205#32E50231D3E7FF30
(1746126229.855634) can0 11FF0205#3303E2FFFFFFFFFF
(1746126229.896844) can0 11FF0205#4086419F63EA4200
(1746126229.896846) can0 11FF0205#41000053E3110000
(1746126229.897997) can0 11FF0205#421A0C205BE54C30
(1746126229.897998) can0 11FF0205#439FE50110A0E302
(1746126229.899079) can0 11FF0205#4411C3E70C105BE5
(1746126229.899080) can0 11FF0205#4508301BE5FF2003
(1746126229.900209) can0 11FF0205#46E234009FE50130
(1746126229.900210) can0 11FF0205#47A0E30111A0E101
(1746126229.901325) can0 11FF0205#481080E0033081E0
(1746126229.901326) can0 11FF0205#490020C3E50C205B
(1746126229.902433) can0 11FF0205#4AE51C309FE50231
(1746126229.902434) can0 11FF0205#4B93E72020A0E300
(1746126229.903582) can0 11FF0205#4C20C3E504D04BE2
(1746126229.903584) can0 11FF0205#4D0048BDE81EFF2F
(1746126229.904696) can0 11FF0205#4EE13C0000409C2C
(1746126229.904697) can0 11FF0205#4F0040AC48050000
(1746126229.905819) can0 11FF0205#50482DE904B08DE2
(1746126229.905820) can0 11FF0205#5118D04DE218300B
(1746126229.906930) can0 11FF0205#52E504309BE50C00
(1746126229.906931) can0 11FF0205#534BE5FFFFFFFFFF
(1746126229.946402) can0 11FF0205#6086419F63EA4300
(1746126229.946403) can0 11FF0205#6110104BE5B4214B
(1746126229.947497) can0 11FF0205#62E1BC314BE10C20
(1746126229.947498) can0 11FF0205#635BE510305BE502
(1746126229.948505) can0 11FF0205#6400A0E10310A0E1
(1746126229.948505) can0 11FF0205#65640100EB0030A0
(1746126229.949629) can0 11FF0205#66E108300BE50830
(1746126229.949629) can0 11FF0205#671BE5FF0053E364
(1746126229.950753) can0 11FF0205#6800000A0C205BE5
(1746126229.950753) can0 11FF0205#6994319FE5021193
(1746126229.951953) can0 11FF0205#6AE708201BE50230
(1746126229.951954) can0 11FF0205#6BA0E10331A0E102
(1746126229.953089) can0 11FF0205#6C3083E00331A0E1
(1746126229.953090) can0 11FF0205#6D033081E00020A0
(1746126229.954230) can0 11FF0205#6EE31020C3E50C20
(1746126229.954231) can0 11FF0205#6F5BE568319FE502
(1746126229.955310) can0 11FF0205#701193E708201BE5
(1746126229.955311) can0 11FF0205#710230A0E10331A0
(1746126229.956471) can0 11FF0205#72E1023083E00331
(1746126229.956473) can0 11FF0205#73A0E1FFFFFFFFFF
(1746126229.995358) can0 11FF0205#8086419F63EA4400
(1746126229.996500) can0 11FF0205#81033081E010205B
(1746126229.996501) can0 11FF0205#82E50020C3E50C20
(1746126229.997643) can0 11FF0205#835BE53C319FE502
(1746126229.997644) can0 11FF0205#841193E708201BE5
(1746126229.998769) can0 11FF0205#850230A0E10331A0
(1746126229.998771) can0 11FF0205#86E1023083E00331
(1746126229.999901) can0 11FF0205#87A0E1033081E018
(1746126229.999902) can0 11FF0205#88201BE5042083E5
(1746126230.000944) can0 11FF0205#890C205BE510319F
(1746126230.000946) can0 11FF0205#8AE5021193E70820
(1746126230.002146) can0 11FF0205#8B1BE50230A0E103
(1746126230.002147) can0 11FF0205#8C31A0E1023083E0
(1746126230.003251) can0 11FF0205#8D0331A0E1033081
(1746126230.003252) can0 11FF0205#8EE008209BE50C20
(1746126230.004374) can0 11FF0205#8F83E50C205BE5E4
(1746126230.004375) can0 11FF0205#90309FE5021193E7
(1746126230.005495) can0 11FF0205#9108201BE50230A0
(1746126230.005496) can0 11FF0205#92E10331A0E10230
(1746126230.006636) can0 11FF0205#9383E0FFFFFFFFFF
(1746126230.045434) can0 11FF0205#A086419F63EA4500
(1746126230.045435) can0 11FF0205#A10331A0E1033081
(1746126230.046624) can0 11FF0205#A2E0B4215BE1B220
(1746126230.046625) can0 11FF0205#A3C3E10C205BE5B8
(1746126230.047705) can0 11FF0205#A4309FE5021193E7
(1746126230.047706) can0 11FF0205#A508201BE50230A0
(1746126230.048858) can0 11FF0205#A6E10331A0E10230
(1746126230.048859) can0 11FF0205#A783E00331A0E103
(1746126230.049980) can0 11FF0205#A83081E0BC215BE1
(1746126230.049980) can0 11FF0205#A9B820C3E10C205B
(1746126230.051043) can0 11FF0205#AAE58C309FE50211
(1746126230.051044) can0 11FF0205#AB93E708201BE502
(1746126230.052212) can0 11FF0205#AC30A0E10331A0E1
(1746126230.052214) can0 11FF0205#AD023083E00331A0
(1746126230.053358) can0 11FF0205#AEE1033081E00020
(1746126230.053360) can0 11FF0205#AFA0E31120C3E50C
(1746126230.054431) can0 11FF0205#B0205BE564309FE5
(1746126230.054433) can0 11FF0205#B10231D3E7FF3003
(1746126230.055531) can0 11FF0205#B2E2000053E31100
(1746126230.055533) can0 11FF0205#B3001AFFFFFFFFFF
(1746126230.094977) can0 11FF0205#C086419F63EA4600
(1746126230.094978) can0 11FF0205#C10C205BE54C309F
(1746126230.096097) can0 11FF0205#C2E50210A0E30211
(1746126230.096098) can0 11FF0205#C3C3E70C105BE508
(1746126230.097207) can0 11FF0205#C4301BE5FF2003E2
(1746126230.097209) can0 11FF0205#C534009FE50130A0
(1746126230.098328) can0 11FF0205#C6E30111A0E10110
(1746126230.098329) can0 11FF0205#C780E0033081E000
(1746126230.099446) can0 11FF0205#C820C3E50C205BE5
(1746126230.099447) can0 11FF0205#C91C309FE5023193
(1746126230.100504) can0 11FF0205#CAE72020A0E30020
(1746126230.100505) can0 11FF0205#CBC3E504D04BE200
(1746126230.101683) can0 11FF0205#CC48BDE81EFF2FE1
(1746126230.101684) can0 11FF0205#CD3C0000409C2C00
(1746126230.102850) can0 11FF0205#CE40AC4805000048
(1746126230.102851) can0 11FF0205#CF2DE904B08DE20C
(1746126230.103845) can0 11FF0205#D0D04DE20020A0E1
(1746126230.103846) can0 11FF0205#D10130A0E10C204B
(1746126230.104970) can0 11FF0205#D2E510304BE50C20
(1746126230.104971) can0 11FF0205#D35BE5FFFFFFFFFF
(1746126230.144442) can0 11FF0205#E086419F63EA4700
(1746126230.144443) can0 11FF0205#E110305BE50200A0
(1746126230.145545) can0 11FF0205#E2E10310A0E1E800
(1746126230.145548) can0 11FF0205#E300EB0030A0E108
(1746126230.146663) can0 11FF0205#E4300BE508301BE5
(1746126230.146664) can0 11FF0205#E5FF0053E3190000
(1746126230.147768) can0 11FF0205#E60A0C205BE57030
(1746126230.147769) can0 11FF0205#E79FE5021193E708
(1746126230.148922) can0 11FF0205#E8201BE50230A0E1
(1746126230.148924) can0 11FF0205#E90331A0E1023083
(1746126230.150041) can0 11FF0205#EAE00331A0E10330
(1746126230.150042) can0 11FF0205#EB81E00030D3E5FF
(1746126230.151168) can0 11FF0205#EC0053E30D00000A
(1746126230.151169) can0 11FF0205#ED0C205BE540309F
(1746126230.152291) can0 11FF0205#EEE5021193E70820
(1746126230.152293) can0 11FF0205#EF1BE50230A0E103
(1746126230.153399) can0 11FF0205#F031A0E1023083E0
(1746126230.153401) can0 11FF0205#F10331A0E1033081
(1746126230.154527) can0 11FF0205#F2E01030D3E50100
(1746126230.154527) can0 11FF0205#F353E3FFFFFFFFFF
(1746126230.196846) can0 11FF0205#0086419F63EA4800
(1746126230.196848) can0 11FF0205#010100001A0130A0
(1746126230.197963) can0 11FF0205#02E3000000EA0030
(1746126230.197964) can0 11FF0205#03A0E30300A0E104
(1746126230.199061) can0 11FF0205#04D04BE20048BDE8
(1746126230.199062) can0 11FF0205#051EFF2FE13C0000
(1746126230.200186) can0 11FF0205#064000482DE904B0
(1746126230.200187) can0 11FF0205#078DE20CD04DE200
(1746126230.201316) can0 11FF0205#0820A0E10130A0E1
(1746126230.201316) can0 11FF0205#090C204BE510304B
(1746126230.202433) can0 11FF0205#0AE50C205BE51030
(1746126230.202434) can0 11FF0205#0B5BE50200A0E103
(1746126230.203563) can0 11FF0205#0C10A0E1B70000EB
(1746126230.203564) can0 11FF0205#0D0030A0E108300B
(1746126230.204731) can0 11FF0205#0EE508301BE5FF00
(1746126230.204732) can0 11FF0205#0F53E32500000A0C
(1746126230.205885) can0 11FF0205#10205BE5A0309FE5
(1746126230.205886) can0 11FF0205#11021193E708201B
(1746126230.207012) can0 11FF0205#12E50230A0E10331
(1746126230.207013) can0 11FF0205#13A0E1FFFFFFFFFF
(1746126230.246319) can0 11FF0205#2086419F63EA4900
(1746126230.246321) can0 11FF0205#21023083E00331A0
(1746126230.247430) can0 11FF0205#22E1033081E00030
(1746126230.247430) can0 11FF0205#23D3E5FF0053E319
(1746126230.248542) can0 11FF0205#2400000A0C205BE5
(1746126230.248544) can0 11FF0205#2570309FE5021193
(1746126230.249669) can0 11FF0205#26E708201BE50230
(1746126230.249670) can0 11FF0205#27A0E10331A0E102
(1746126230.250768) can0 11FF0205#283083E00331A0E1
(1746126230.250769) can0 11FF0205#29033081E01030D3
(1746126230.251937) can0 11FF0205#2AE5000053E30D00
(1746126230.251938) can0 11FF0205#2B001A0C205BE540
(1746126230.253058) can0 11FF0205#2C309FE5021193E7
(1746126230.253061) can0 11FF0205#2D08201BE50230A0
(1746126230.254165) can0 11FF0205#2EE10331A0E10230
(1746126230.254166) can0 11FF0205#2F83E00331A0E103
(1746126230.255317) can0 11FF0205#303081E01130D3E5
(1746126230.255318) can0 11FF0205#31020053E3010000
(1746126230.256484) can0 11FF0205#329A0130A0E30000
(1746126230.256486) can0 11FF0205#3300EAFFFFFFFFFF
(1746126230.295861) can0 11FF0205#4086419F63EA4A00
(1746126230.295863) can0 11FF0205#410030A0E30300A0
(1746126230.296984) can0 11FF0205#42E104D04BE20048
(1746126230.296985) can0 11FF0205#43BDE81EFF2FE13C
(1746126230.298083) can0 11FF0205#4400004000482DE9
(1746126230.298084) can0 11FF0205#4504B08DE20CD04D
(1746126230.299207) can0 11FF0205#46E20020A0E10130
(1746126230.299208) can0 11FF0205#47A0E10C204BE510
(1746126230.300309) can0 11FF0205#48304BE50030A0E3
(1746126230.300309) can0 11FF0205#4908300BE50C205B
(1746126230.301419) can0 11FF0205#4AE5B4309FE50231
(1746126230.301420) can0 11FF0205#4BD3E7FF3003E200
(1746126230.302579) can0 11FF0205#4C0053E32400001A
(1746126230.302580) can0 11FF0205#4D0C205BE510305B
(1746126230.303685) can0 11FF0205#4EE50200A0E10310
(1746126230.303685) can0 11FF0205#4FA0E10020A0E390
(1746126230.304833) can0 11FF0205#50309FE595FEFFEB
(1746126230.304834) can0 11FF0205#51180000EA0C205B
(1746126230.305956) can0 11FF0205#52E584309FE50211
(1746126230.305957) can0 11FF0205#5393E7FFFFFFFFFF
(1746126230.354642) can0 11FF0205#6086419F63EA4B00
(1746126230.354643) can0 11FF0205#610C205BE570009F
(1746126230.355756) can0 11FF0205#62E50130A0E30221
(1746126230.355757) can0 11FF0205#63A0E1022080E003
(1746126230.356854) can0 11FF0205#643082E00030D3E5
(1746126230.356855) can0 11FF0205#65FF3003E20320A0
(1746126230.357978) can0 11FF0205#66E10230A0E10331
(1746126230.357979) can0 11FF0205#67A0E1023083E003
(1746126230.359080) can0 11FF0205#6831A0E1033081E0
(1746126230.359081) can0 11FF0205#691030D3E5010053
(1746126230.360229) can0 11FF0205#6AE30100001A0130
(1746126230.360230) can0 11FF0205#6BA0E3070000EA08
(1746126230.361330) can0 11FF0205#6C301BE5013083E2
(1746126230.361331) can0 11FF0205#6D08300BE508201B
(1746126230.362478) can0 11FF0205#6EE524309FE50300
(1746126230.362478) can0 11FF0205#6F52E1E2FFFFDA00
(1746126230.363628) can0 11FF0205#7030A0E30300A0E1
(1746126230.363629) can0 11FF0205#7104D04BE20048BD
(1746126230.364712) can0 11FF0205#72E81EFF2FE19C2C
(1746126230.364713) can0 11FF0205#730040FFFFFFFFFF
(1746126230.394998) can0 11FF0205#8086419F63EA4C00
(1746126230.394999) can0 11FF0205#81A92C00403C0000
(1746126230.396133) can0 11FF0205#8240E703000004B0
(1746126230.396134) can0 11FF0205#832DE500B08DE204
(1746126230.397209) can0 11FF0205#84D04DE20030A0E1
(1746126230.397210) can0 11FF0205#8504304BE504205B
(1746126230.398331) can0 11FF0205#86E528309FE50231
(1746126230.398332) can0 11FF0205#87D3E7FF3003E200
(1746126230.399502) can0 11FF0205#880053E30100001A
(1746126230.399502) can0 11FF0205#890130A0E3000000
(1746126230.400581) can0 11FF0205#8AEA0030A0E30300
(1746126230.400582) can0 11FF0205#8BA0E100D08BE200
(1746126230.401706) can0 11FF0205#8C08BDE81EFF2FE1
(1746126230.401707) can0 11FF0205#8D9C2C004004B02D
(1746126230.402788) can0 11FF0205#8EE500B08DE208D0
(1746126230.402789) can0 11FF0205#8F4DE2B8309FE500
(1746126230.403957) can0 11FF0205#9030D3E5000053E3
(1746126230.403958) can0 11FF0205#912800001A0030A0
(1746126230.405083) can0 11FF0205#92E304300BE51F00
(1746126230.405084) can0 11FF0205#9300EAFFFFFFFFFF
(1746126230.444545) can0 11FF0205#A086419F63EA4D00
(1746126230.444547) can0 11FF0205#A10030A0E308300B
(1746126230.445638) can0 11FF0205#A2E50D0000EA9430
(1746126230.445640) can0 11FF0205#A39FE504201BE502
(1746126230.446735) can0 11FF0205#A41193E708201BE5
(1746126230.446736) can0 11FF0205#A50230A0E10331A0
(1746126230.447852) can0 11FF0205#A6E1023083E00331
(1746126230.447853) can0 11FF0205#A7A0E1033081E000
(1746126230.448977) can0 11FF0205#A820E0E30020C3E5
(1746126230.448978) can0 11FF0205#A908301BE5013083
(1746126230.450102) can0 11FF0205#AAE208300BE56020
(1746126230.450103) can0 11FF0205#AB9FE504301BE503
(1746126230.451225) can0 11FF0205#AC3082E00030D3E5
(1746126230.451226) can0 11FF0205#AD0320A0E108301B
(1746126230.452352) can0 11FF0205#AEE5030052E1E9FF
(1746126230.452352) can0 11FF0205#AFFFCA44309FE504
(1746126230.453477) can0 11FF0205#B0201BE50010E0E3
(1746126230.453478) can0 11FF0205#B10211C3E704301B
(1746126230.454583) can0 11FF0205#B2E5013083E20430
(1746126230.454584) can0 11FF0205#B30BE5FFFFFFFFFF
(1746126230.494123) can0 11FF0205#C086419F63EA4E00
(1746126230.494124) can0 11FF0205#C104301BE5020053
(1746126230.495253) can0 11FF0205#C2E3DCFFFFDA1030
(1746126230.495253) can0 11FF0205#C39FE50120A0E300
(1746126230.496377) can0 11FF0205#C420C3E500D08BE2
(1746126230.496377) can0 11FF0205#C50008BDE81EFF2F
(1746126230.497499) can0 11FF0205#C6E1A82C00403C00
(1746126230.497500) can0 11FF0205#C70040A44805009C
(1746126230.498622) can0 11FF0205#C82C004004B02DE5
(1746126230.498623) can0 11FF0205#C900B08DE20CD04D
(1746126230.499727) can0 11FF0205#CAE20020A0E10130
(1746126230.499727) can0 11FF0205#CBA0E108204BE50C
(1746126230.500829) can0 11FF0205#CC304BE50030A0E3
(1746126230.500830) can0 11FF0205#CD04300BE5210000
(1746126230.501976) can0 11FF0205#CEEA08205BE5AC30
(1746126230.501977) can0 11FF0205#CF9FE5021193E704
(1746126230.503102) can0 11FF0205#D0201BE50230A0E1
(1746126230.503103) can0 11FF0205#D10331A0E1023083
(1746126230.504186) can0 11FF0205#D2E00331A0E10330
(1746126230.504186) can0 11FF0205#D381E0FFFFFFFFFF
(1746126230.546518) can0 11FF0205#E086419F63EA4F00
(1746126230.546520) can0 11FF0205#E10030D3E50320A0
(1746126230.547629) can0 11FF0205#E2E10C305BE50330
(1746126230.547631) can0 11FF0205#E322E0F03003E200
(1746126230.548752) can0 11FF0205#E40053E30B00000A
(1746126230.548753) can0 11FF0205#E508205BE56C309F
(1746126230.549852) can0 11FF0205#E6E5021193E70420
(1746126230.549854) can0 11FF0205#E71BE50230A0E103
(1746126230.550979) can0 11FF0205#E831A0E1023083E0
(1746126230.550980) can0 11FF0205#E90331A0E1033081
(1746126230.552103) can0 11FF0205#EAE00030D3E5FF00
(1746126230.552104) can0 11FF0205#EB53E30200001A04
(1746126230.553247) can0 11FF0205#EC301BE5FF3003E2
(1746126230.553248) can0 11FF0205#ED0A0000EA04301B
(1746126230.554351) can0 11FF0205#EEE5013083E20430
(1746126230.554352) can0 11FF0205#EF0BE508305BE528
(1746126230.555459) can0 11FF0205#F0209FE50330D2E7
(1746126230.556600) can0 11FF0205#F10320A0E104301B
(1746126230.556600) can0 11FF0205#F2E5030052E1D6FF
(1746126230.557746) can0 11FF0205#F3FFCAFFFFFFFFFF
(1746126230.596178) can0 11FF0205#0086419F63EA5000
(1746126230.596180) can0 11FF0205#01FF30A0E30300A0
(1746126230.597282) can0 11FF0205#02E100D08BE20008
(1746126230.597284) can0 11FF0205#03BDE81EFF2FE13C
(1746126230.598398) can0 11FF0205#04000040A4480500
(1746126230.598399) can0 11FF0205#0504B02DE500B08D
(1746126230.599526) can0 11FF0205#06E208D04DE20030
(1746126230.599527) can0 11FF0205#07A0E108304BE500
(1746126230.600663) can0 11FF0205#0830A0E301304BE5
(1746126230.600664) can0 11FF0205#09340000EA08205B
(1746126230.601793) can0 11FF0205#0AE514319FE50211
(1746126230.601794) can0 11FF0205#0B93E701205BE502
(1746126230.602915) can0 11FF0205#0C30A0E10331A0E1
(1746126230.602917) can0 11FF0205#0D023083E00331A0
(1746126230.604065) can0 11FF0205#0EE1033081E00030
(1746126230.604066) can0 11FF0205#0FD3E5FF0053E325
(1746126230.605111) can0 11FF0205#1000000A08205BE5
(1746126230.605112) can0 11FF0205#11E4309FE5021193
(1746126230.606207) can0 11FF0205#12E701205BE50230
(1746126230.606208) can0 11FF0205#13A0E1FFFFFFFFFF
(1746126230.645560) can0 11FF0205#2086419F63EA5100
(1746126230.645562) can0 11FF0205#210331A0E1023083
(1746126230.646624) can0 11FF0205#22E00331A0E10330
(1746126230.646625) can0 11FF0205#2381E01030D3E500
(1746126230.647768) can0 11FF0205#240053E31900001A
(1746126230.647768) can0 11FF0205#2508205BE5B4309F
(1746126230.648902) can0 11FF0205#26E5021193E70120
(1746126230.648904) can0 11FF0205#275BE50230A0E103
(1746126230.650020) can0 11FF0205#2831A0E1023083E0
(1746126230.650021) can0 11FF0205#290331A0E1033081
(1746126230.651144) can0 11FF0205#2AE01130D3E50200
(1746126230.651146) can0 11FF0205#2B53E30D00008A08
(1746126230.652270) can0 11FF0205#2C205BE588109FE5
(1746126230.652271) can0 11FF0205#2D0130A0E30221A0
(1746126230.653383) can0 11FF0205#2EE1022081E00330
(1746126230.653384) can0 11FF0205#2F82E001205BE500
(1746126230.654540) can0 11FF0205#3020C3E508205BE5
(1746126230.654540) can0 11FF0205#316C309FE5023193
(1746126230.655665) can0 11FF0205#32E72020A0E30020
(1746126230.655665) can0 11FF0205#33C3E5FFFFFFFFFF
(1746126230.695038) can0 11FF0205#4086419F63EA5200
(1746126230.695039) can0 11FF0205#41080000EA01305B
(1746126230.696191) can0 11FF0205#42E5013083E20130
(1746126230.696192) can0 11FF0205#434BE508305BE54C
(1746126230.697292) can0 11FF0205#44209FE50330D2E7
(1746126230.697293) can0 11FF0205#4501205BE5030052
(1746126230.698417) can0 11FF0205#46E1C4FFFF3A0830
(1746126230.698417) can0 11FF0205#475BE534209FE503
(1746126230.699517) can0 11FF0205#4830D2E701205BE5
(1746126230.699517) can0 11FF0205#49030052E1030000
(1746126230.700643) can0 11FF0205#4A1A08205BE51430
(1746126230.700644) can0 11FF0205#4B9FE50010A0E302
(1746126230.701768) can0 11FF0205#4C11C3E700D08BE2
(1746126230.701769) can0 11FF0205#4D0008BDE81EFF2F
(1746126230.702874) can0 11FF0205#4EE13C0000409C2C
(1746126230.702874) can0 11FF0205#4F0040AC480500A4
(1746126230.703998) can0 11FF0205#5048050000482DE9
(1746126230.703998) can0 11FF0205#5104B08DE208D04D
(1746126230.705101) can0 11FF0205#52E20030A0E10C30
(1746126230.705101) can0 11FF0205#534BE5FFFFFFFFFF
(1746126230.744681) can0 11FF0205#6086419F63EA5300
(1746126230.744689) can0 11FF0205#610C205BE56C309F
(1746126230.745758) can0 11FF0205#62E5023193E70430
(1746126230.745760) can0 11FF0205#6383E20030D3E5FF
(1746126230.746872) can0 11FF0205#643003E2A331A0E1
(1746126230.746873) can0 11FF0205#6505304BE505305B
(1746126230.748001) can0 11FF0205#66E50B0053E30600
(1746126230.748002) can0 11FF0205#67008A05205BE544
(1746126230.749123) can0 11FF0205#68309FE5023193E7
(1746126230.749123) can0 11FF0205#690C205BE50200A0
(1746126230.750226) can0 11FF0205#6AE10FE0A0E113FF
(1746126230.750227) can0 11FF0205#6B2FE10C205BE524
(1746126230.751351) can0 11FF0205#6C309FE5023193E7
(1746126230.751352) can0 11FF0205#6D183083E20820A0
(1746126230.752477) can0 11FF0205#6EE30020C3E5FF30
(1746126230.752477) can0 11FF0205#6FE0E30020A0E300
(1746126230.753623) can0 11FF0205#702083E504D04BE2
(1746126230.753624) can0 11FF0205#710048BDE81EFF2F
(1746126230.754726) can0 11FF0205#72E1AC4805007448
(1746126230.754727) can0 11FF0205#730500FFFFFFFFFF
(1746126230.794101) can0 11FF0205#8086419F63EA5400
(1746126230.794102) can0 11FF0205#8100482DE904B08D
(1746126230.795257) can0 11FF0205#82E204D04DE20030
(1746126230.795259) can0 11FF0205#83A0E108304BE508
(1746126230.796363) can0 11FF0205#84205BE560309FE5
(1746126230.796366) can0 11FF0205#85021193E708205B
(1746126230.797458) can0 11FF0205#86E558009FE50130
(1746126230.797459) can0 11FF0205#87A0E30221A0E102
(1746126230.798579) can0 11FF0205#882080E0033082E0
(1746126230.798581) can0 11FF0205#890030D3E5FF3003
(1746126230.799703) can0 11FF0205#8AE20320A0E10230
(1746126230.799704) can0 11FF0205#8BA0E10331A0E102
(1746126230.800857) can0 11FF0205#8C3083E00331A0E1
(1746126230.800858) can0 11FF0205#8D033081E01120D3
(1746126230.801955) can0 11FF0205#8EE5012082E2FF20
(1746126230.801957) can0 11FF0205#8F02E21120C3E508
(1746126230.803080) can0 11FF0205#90305BE50300A0E1
(1746126230.803081) can0 11FF0205#9169FFFFEB04D04B
(1746126230.804207) can0 11FF0205#92E20048BDE81EFF
(1746126230.804208) can0 11FF0205#932FE1FFFFFFFFFF
(1746126230.846352) can0 11FF0205#A086419F63EA5500
(1746126230.846353) can0 11FF0205#A13C0000409C2C00
(1746126230.847593) can0 11FF0205#A24000482DE904B0
(1746126230.847594) can0 11FF0205#A38DE204D04DE200
(1746126230.848702) can0 11FF0205#A430A0E108304BE5
(1746126230.848704) can0 11FF0205#A508205BE574309F
(1746126230.849848) can0 11FF0205#A6E5021193E70820
(1746126230.849849) can0 11FF0205#A75BE56C009FE501
(1746126230.850935) can0 11FF0205#A830A0E30221A0E1
(1746126230.850936) can0 11FF0205#A9022080E0033082
(1746126230.852059) can0 11FF0205#AAE00030D3E5FF30
(1746126230.852060) can0 11FF0205#AB03E20320A0E102
(1746126230.853198) can0 11FF0205#AC30A0E10331A0E1
(1746126230.853200) can0 11FF0205#AD023083E00331A0
(1746126230.854307) can0 11FF0205#AEE1033081E01120
(1746126230.854308) can0 11FF0205#AFD3E5012082E2FF
(1746126230.855421) can0 11FF0205#B02002E21120C3E5
(1746126230.855423) can0 11FF0205#B108205BE528309F
(1746126230.856561) can0 11FF0205#B2E5023193E71020
(1746126230.856563) can0 11FF0205#B3A0E3FFFFFFFFFF
(1746126230.896046) can0 11FF0205#C086419F63EA5600
(1746126230.896048) can0 11FF0205#C10020C3E508305B
(1746126230.897229) can0 11FF0205#C2E50300A0E142FF
(1746126230.897231) can0 11FF0205#C3FFEB04D04BE200
(1746126230.898353) can0 11FF0205#C448BDE81EFF2FE1
(1746126230.898355) can0 11FF0205#C53C0000409C2C00
(1746126230.899466) can0 11FF0205#C640AC48050004B0
(1746126230.899467) can0 11FF0205#C72DE500B08DE204
(1746126230.900572) can0 11FF0205#C8D04DE20030A0E1
(1746126230.900573) can0 11FF0205#C904304BE504205B
(1746126230.901705) can0 11FF0205#CAE578309FE50231
(1746126230.901707) can0 11FF0205#CB93E7183083E220
(1746126230.902832) can0 11FF0205#CC20A0E30020C3E5
(1746126230.902833) can0 11FF0205#CD04205BE560309F
(1746126230.903965) can0 11FF0205#CEE5023193E70830
(1746126230.903967) can0 11FF0205#CF83E20310A0E104
(1746126230.905078) can0 11FF0205#D0205BE550309FE5
(1746126230.905080) can0 11FF0205#D1020193E704205B
(1746126230.906205) can0 11FF0205#D2E548C09FE50130
(1746126230.906206) can0 11FF0205#D3A0E3FFFFFFFFFF
(1746126230.945637) can0 11FF0205#E086419F63EA5700
(1746126230.945638) can0 11FF0205#E10221A0E102208C
(1746126230.946781) can0 11FF0205#E2E0033082E00030
(1746126230.946782) can0 11FF0205#E3D3E5FF3003E203
(1746126230.947900) can0 11FF0205#E420A0E10230A0E1
(1746126230.947901) can0 11FF0205#E50331A0E1023083
(1746126230.948896) can0 11FF0205#E6E00331A0E10330
(1746126230.948897) can0 11FF0205#E780E00030D3E500
(1746126230.950040) can0 11FF0205#E830C1E500D08BE2
(1746126230.950041) can0 11FF0205#E90008BDE81EFF2F
(1746126230.951165) can0 11FF0205#EAE1AC4805003C00
(1746126230.951166) can0 11FF0205#EB00409C2C004004
(1746126230.952270) can0 11FF0205#ECB02DE500B08DE2
(1746126230.952271) can0 11FF0205#ED04D04DE20030A0
(1746126230.953378) can0 11FF0205#EEE104304BE50420
(1746126230.953379) can0 11FF0205#EF5BE580309FE502
(1746126230.954518) can0 11FF0205#F03193E7183083E2
(1746126230.954519) can0 11FF0205#F12020A0E30020C3
(1746126230.955665) can0 11FF0205#F2E504205BE56830
(1746126230.955665) can0 11FF0205#F39FE5FFFFFFFFFF
(1746126230.995142) can0 11FF0205#0086419F63EA5800
(1746126230.995144) can0 11FF0205#01023193E7083083
(1746126230.996219) can0 11FF0205#02E20310A0E10420
(1746126230.996220) can0 11FF0205#035BE558309FE502
(1746126230.997363) can0 11FF0205#040193E704205BE5
(1746126230.997364) can0 11FF0205#0550C09FE50130A0
(1746126230.998481) can0 11FF0205#06E30221A0E10220
(1746126230.998481) can0 11FF0205#078CE0033082E000
(1746126230.999580) can0 11FF0205#0830D3E5FF3003E2
(1746126230.999581) can0 11FF0205#090320A0E10230A0
(1746126231.000726) can0 11FF0205#0AE10331A0E10230
(1746126231.000727) can0 11FF0205#0B83E00331A0E103
(1746126231.001872) can0 11FF0205#0C3080E00030D3E5
(1746126231.001873) can0 11FF0205#0D013083E2FF3003
(1746126231.002997) can0 11FF0205#0EE20030C1E500D0
(1746126231.002998) can0 11FF0205#0F8BE20008BDE81E
(1746126231.004102) can0 11FF0205#10FF2FE1AC480500
(1746126231.004103) can0 11FF0205#113C0000409C2C00
(1746126231.005268) can0 11FF0205#124000482DE904B0
(1746126231.005269) can0 11FF0205#138DE2FFFFFFFFFF
(1746126231.044665) can0 11FF0205#2086419F63EA5900
(1746126231.044667) can0 11FF0205#2104D04DE20030A0
(1746126231.045778) can0 11FF0205#22E108304BE50820
(1746126231.045779) can0 11FF0205#235BE544319FE502
(1746126231.046975) can0 11FF0205#241193E708205BE5
(1746126231.046976) can0 11FF0205#253C019FE50130A0
(1746126231.048096) can0 11FF0205#26E30221A0E10220
(1746126231.048096) can0 11FF0205#2780E0033082E000
(1746126231.049249) can0 11FF0205#2830D3E5FF3003E2
(1746126231.049250) can0 11FF0205#290320A0E10230A0
(1746126231.050403) can0 11FF0205#2AE10331A0E10230
(1746126231.050403) can0 11FF0205#2B83E00331A0E103
(1746126231.051524) can0 11FF0205#2C3081E0B230D3E1
(1746126231.051524) can0 11FF0205#2D000053E31B0000
(1746126231.052669) can0 11FF0205#2E1A08205BE5FC30
(1746126231.052669) can0 11FF0205#2F9FE5023193E710
(1746126231.053795) can0 11FF0205#3020A0E30020C3E5
(1746126231.053795) can0 11FF0205#3108205BE5E0309F
(1746126231.054923) can0 11FF0205#32E5021193E70820
(1746126231.054923) can0 11FF0205#335BE5FFFFFFFFFF
(1746126231.094261) can0 11FF0205#4086419F63EA5A00
(1746126231.094263) can0 11FF0205#41D8009FE50130A0
(1746126231.095353) can0 11FF0205#42E30221A0E10220
(1746126231.095355) can0 11FF0205#4380E0033082E000
(1746126231.096476) can0 11FF0205#4430D3E5FF3003E2
(1746126231.096478) can0 11FF0205#450320A0E10230A0
(1746126231.097586) can0 11FF0205#46E10331A0E10230
(1746126231.097587) can0 11FF0205#4783E00331A0E103
(1746126231.098798) can0 11FF0205#483081E00120A0E3
(1746126231.098799) can0 11FF0205#491020C3E508305B
(1746126231.099897) can0 11FF0205#4AE50300A0E1B4FE
(1746126231.099898) can0 11FF0205#4BFFEB200000EA08
(1746126231.101024) can0 11FF0205#4C205BE58C309FE5
(1746126231.101025) can0 11FF0205#4D023193E7083083
(1746126231.102139) can0 11FF0205#4EE20310A0E10820
(1746126231.102141) can0 11FF0205#4F5BE570309FE502
(1746126231.103274) can0 11FF0205#500193E708205BE5
(1746126231.103275) can0 11FF0205#5168C09FE50130A0
(1746126231.104391) can0 11FF0205#52E30221A0E10220
(1746126231.104392) can0 11FF0205#538CE0FFFFFFFFFF
(1746126231.146633) can0 11FF0205#6086419F63EA5B00
(1746126231.146634) can0 11FF0205#61033082E00030D3
(1746126231.147699) can0 11FF0205#62E5FF3003E20320
(1746126231.147702) can0 11FF0205#63A0E10230A0E103
(1746126231.148822) can0 11FF0205#6431A0E1023083E0
(1746126231.148823) can0 11FF0205#650331A0E1033080
(1746126231.149913) can0 11FF0205#66E0043093E50030
(1746126231.149914) can0 11FF0205#67D3E50030C1E508
(1746126231.151039) can0 11FF0205#68205BE524109FE5
(1746126231.151041) can0 11FF0205#690230A0E30221A0
(1746126231.152144) can0 11FF0205#6AE1022081E00330
(1746126231.152145) can0 11FF0205#6B82E00120A0E3B0
(1746126231.153268) can0 11FF0205#6C20C3E104D04BE2
(1746126231.153269) can0 11FF0205#6D0048BDE81EFF2F
(1746126231.154392) can0 11FF0205#6EE13C0000409C2C
(1746126231.154394) can0 11FF0205#6F0040AC48050000
(1746126231.155519) can0 11FF0205#70482DE904B08DE2
(1746126231.155520) can0 11FF0205#7104D04DE20030A0
(1746126231.156643) can0 11FF0205#72E108304BE50820
(1746126231.156645) can0 11FF0205#735BE5FFFFFFFFFF
(1746126231.196045) can0 11FF0205#8086419F63EA5C00
(1746126231.196047) can0 11FF0205#8174309FE5021193
(1746126231.197170) can0 11FF0205#82E708205BE56C00
(1746126231.197171) can0 11FF0205#839FE50130A0E302
(1746126231.198252) can0 11FF0205#8421A0E1022080E0
(1746126231.198253) can0 11FF0205#85033082E00030D3
(1746126231.199365) can0 11FF0205#86E5FF3003E20320
(1746126231.199366) can0 11FF0205#87A0E10230A0E103
(1746126231.200496) can0 11FF0205#8831A0E1023083E0
(1746126231.200496) can0 11FF0205#890331A0E1033081
(1746126231.201622) can0 11FF0205#8AE01120D3E50120
(1746126231.201623) can0 11FF0205#8B82E2FF2002E211
(1746126231.202747) can0 11FF0205#8C20C3E508205BE5
(1746126231.202748) can0 11FF0205#8D28309FE5023193
(1746126231.203855) can0 11FF0205#8EE71020A0E30020
(1746126231.203856) can0 11FF0205#8FC3E508305BE503
(1746126231.204976) can0 11FF0205#9000A0E16AFEFFEB
(1746126231.204977) can0 11FF0205#9104D04BE20048BD
(1746126231.206101) can0 11FF0205#92E81EFF2FE13C00
(1746126231.206103) can0 11FF0205#930040FFFFFFFFFF
(1746126231.245612) can0 11FF0205#A086419F63EA5D00
(1746126231.245613) can0 11FF0205#A19C2C0040AC4805
(1746126231.246728) can0 11FF0205#A20000482DE904B0
(1746126231.247832) can0 11FF0205#A38DE204D04DE200
(1746126231.247833) can0 11FF0205#A430A0E108304BE5
(1746126231.248955) can0 11FF0205#A508205BE5E8119F
(1746126231.248956) can0 11FF0205#A6E50230A0E30221
(1746126231.250059) can0 11FF0205#A7A0E1022081E003
(1746126231.250060) can0 11FF0205#A83082E0B030D3E1
(1746126231.251182) can0 11FF0205#A90338A0E12318A0
(1746126231.251183) can0 11FF0205#AAE108205BE5C831
(1746126231.252305) can0 11FF0205#AB9FE5020193E708
(1746126231.252306) can0 11FF0205#AC205BE5B8C19FE5
(1746126231.253424) can0 11FF0205#AD0130A0E30221A0
(1746126231.253424) can0 11FF0205#AEE102208CE00330
(1746126231.254556) can0 11FF0205#AF82E00030D3E5FF
(1746126231.254556) can0 11FF0205#B03003E20320A0E1
(1746126231.255655) can0 11FF0205#B10230A0E10331A0
(1746126231.255655) can0 11FF0205#B2E1023083E00331
(1746126231.256827) can0 11FF0205#B3A0E1FFFFFFFFFF
(1746126231.295663) can0 11FF0205#C086419F63EA5E00
(1746126231.295663) can0 11FF0205#C1033080E0B230D3
(1746126231.296763) can0 11FF0205#C2E1030051E12700
(1746126231.296764) can0 11FF0205#C3001A08205BE574
(1746126231.297912) can0 11FF0205#C4319FE50231D3E7
(1746126231.297913) can0 11FF0205#C5FF3003E2010053
(1746126231.299037) can0 11FF0205#C6E31B00001A0820
(1746126231.299038) can0 11FF0205#C75BE564319FE502
(1746126231.300163) can0 11FF0205#C83193E71020A0E3
(1746126231.300164) can0 11FF0205#C90020C3E508205B
(1746126231.301287) can0 11FF0205#CAE54C319FE50211
(1746126231.301288) can0 11FF0205#CB93E708205BE53C
(1746126231.302391) can0 11FF0205#CC019FE50130A0E3
(1746126231.302392) can0 11FF0205#CD0221A0E1022080
(1746126231.303534) can0 11FF0205#CEE0033082E00030
(1746126231.303534) can0 11FF0205#CFD3E5FF3003E203
(1746126231.304665) can0 11FF0205#D020A0E10230A0E1
(1746126231.304666) can0 11FF0205#D10331A0E1023083
(1746126231.305789) can0 11FF0205#D2E00331A0E10330
(1746126231.305790) can0 11FF0205#D381E0FFFFFFFFFF
(1746126231.344583) can0 11FF0205#E086419F63EA5F00
(1746126231.344584) can0 11FF0205#E10120A0E31020C3
(1746126231.345738) can0 11FF0205#E2E508305BE50300
(1746126231.345740) can0 11FF0205#E3A0E121FEFFEB3A
(1746126231.346812) can0 11FF0205#E40000EA08205BE5
(1746126231.346814) can0 11FF0205#E5F4309FE5023193
(1746126231.347934) can0 11FF0205#E6E72020A0E30020
(1746126231.347935) can0 11FF0205#E7C3E5340000EA08
(1746126231.349058) can0 11FF0205#E8205BE5DC309FE5
(1746126231.349059) can0 11FF0205#E9023193E7083083
(1746126231.350186) can0 11FF0205#EAE20310A0E10820
(1746126231.350187) can0 11FF0205#EB5BE5C4309FE502
(1746126231.351308) can0 11FF0205#EC0193E708205BE5
(1746126231.351309) can0 11FF0205#EDB4C09FE50130A0
(1746126231.352411) can0 11FF0205#EEE30221A0E10220
(1746126231.352413) can0 11FF0205#EF8CE0033082E000
(1746126231.353538) can0 11FF0205#F030D3E5FF3003E2
(1746126231.353539) can0 11FF0205#F10320A0E10230A0
(1746126231.354665) can0 11FF0205#F2E10331A0E10230
(1746126231.354666) can0 11FF0205#F383E0FFFFFFFFFF
(1746126231.418959) can0 11FF0205#0086419F63EA6000
(1746126231.418961) can0 11FF0205#010331A0E1033080
(1746126231.420173) can0 11FF0205#02E0042093E50800
(1746126231.420174) can0 11FF0205#035BE578C09FE502
(1746126231.421299) can0 11FF0205#0430A0E30001A0E1
(1746126231.421300) can0 11FF0205#0500008CE0033080
(1746126231.422432) can0 11FF0205#06E0B030D3E10338
(1746126231.422433) can0 11FF0205#07A0E12338A0E103
(1746126231.423569) can0 11FF0205#083082E00030D3E5
(1746126231.423570) can0 11FF0205#090030C1E508305B
(1746126231.424687) can0 11FF0205#0AE548009FE50220
(1746126231.424688) can0 11FF0205#0BA0E30311A0E101
(1746126231.425832) can0 11FF0205#0C1080E0022081E0
(1746126231.425833) can0 11FF0205#0DB020D2E10228A0
(1746126231.426958) can0 11FF0205#0EE12228A0E10120
(1746126231.426959) can0 11FF0205#0F82E20228A0E122
(1746126231.428084) can0 11FF0205#1028A0E11C009FE5
(1746126231.428085) can0 11FF0205#110210A0E30331A0
(1746126231.429204) can0 11FF0205#12E1033080E00130
(1746126231.429205) can0 11FF0205#1383E0FFFFFFFFFF
(1746126231.471393) can0 11FF0205#2086419F63EA6100
(1746126231.471394) can0 11FF0205#21B020C3E104D04B
(1746126231.472523) can0 11FF0205#22E20048BDE81EFF
(1746126231.472524) can0 11FF0205#232FE19C2C00403C
(1746126231.473640) can0 11FF0205#24000040AC480500
(1746126231.473641) can0 11FF0205#2500482DE904B08D
(1746126231.474786) can0 11FF0205#26E204D04DE20030
(1746126231.474787) can0 11FF0205#27A0E108304BE508
(1746126231.475875) can0 11FF0205#28205BE580319FE5
(1746126231.475876) can0 11FF0205#29021193E708205B
(1746126231.477029) can0 11FF0205#2AE578019FE50130
(1746126231.477030) can0 11FF0205#2BA0E30221A0E102
(1746126231.478174) can0 11FF0205#2C2080E0033082E0
(1746126231.478174) can0 11FF0205#2D0030D3E5FF3003
(1746126231.479195) can0 11FF0205#2EE20320A0E10230
(1746126231.479196) can0 11FF0205#2FA0E10331A0E102
(1746126231.480352) can0 11FF0205#303083E00331A0E1
(1746126231.480352) can0 11FF0205#31033081E0B830D3
(1746126231.481430) can0 11FF0205#32E1000053E31B00
(1746126231.481432) can0 11FF0205#33001AFFFFFFFFFF
