(1746579995.596000) can0 09F80203#FFFC88CF0A00FFFF
(1746579995.597000) can0 0DFE1103#600EC0E488CF0A00
(1746579995.598000) can0 0DFE1103#61FFFFFFFFFFFFFF
(1746579995.598000) can0 0DFE1103#62FFFFFFFFFFFFFF
(1746579995.599000) can0 09F80103#5BB9801AF58B11D0
(1746579995.697000) can0 0DF90303#FF7FFFFFFF7FFFFF
(1746579995.698000) can0 09F80103#5BB9801AF58B11D0
(1746579995.798000) can0 09F80203#FFFC88CF0A00FFFF
(1746579995.799000) can0 09F80103#5AB9801AF68B11D0
(1746579995.800000) can0 19FA0603#600FE43002000000
(1746579995.800000) can0 19FA0603#6100000000000000
(1746579995.801000) can0 19FA0603#620000FFFFFFFFFF
(1746579995.802000) can0 1DFF1E03#800C3B9F13033DCB
(1746579995.803000) can0 1DFF1E03#8109066200FFFFFF
(1746579995.899000) can0 19FA0403#A0B742FF0F07AE1E
(1746579995.900000) can0 19FA0403#A1F1CF8C0A000000
(1746579995.901000) can0 19FA0403#A200F2088B279574
(1746579995.902000) can0 19FA0403#A3D00700000000F2
(1746579995.902000) can0 19FA0403#A409172209A71C0C
(1746579995.903000) can0 19FA0403#A500000000F20B69
(1746579995.904000) can0 19FA0403#A603AC78E8030000
(1746579995.905000) can0 19FA0403#A70000F210E8198B
(1746579995.906000) can0 19FA0403#A827600900000000
(1746579995.907000) can0 19FA0403#A9F215C604DD1700
(1746579995.907000) can0 19FA0403#AA0000000000F017
(1746579995.908000) can0 19FA0403#ABDD17FE86780500
(1746579995.909000) can0 19FA0403#AC000000F21A8007
(1746579995.910000) can0 19FA0403#ADB92FE803000000
(1746579995.911000) can0 19FA0403#AE00F21B452ADC35
(1746579995.911000) can0 19FA0403#AFF00A00000000F2
(1746579995.912000) can0 19FA0403#B01E510E36CD0000
(1746579995.913000) can0 19FA0403#B100000000F02123
(1746579995.914000) can0 19FA0403#B206A24900000000
(1746579995.915000) can0 19FA0403#B30000F02E8B1815
(1746579995.916000) can0 19FA0403#B48B000000000000
(1746579995.917000) can0 19FA0403#B5F033D115959200
(1746579995.917000) can0 19FA0403#B60000000000F005
(1746579995.918000) can0 19FA0403#B7AF00E5DC000000
(1746579995.919000) can0 19FA0403#B8000000F01C5D01
(1746579995.920000) can0 19FA0403#B920AB0000000000
(1746579995.921000) can0 19FA0403#BA00F0FFFFFFFFFF
(1746579995.922000) can0 09F80103#5AB9801AF68B11D0
(1746579995.923000) can0 19F11A03#FFF7344034F9FFFF
(1746579996.000000) can0 09F80203#FFFC88CF0A00FFFF
(1746579996.001000) can0 09F80103#5AB9801AF68B11D0
(1746579996.103000) can0 0DF80503#202BE29E44C0B396
(1746579996.103000) can0 0DF80503#2131000465D010B1
(1746579996.104000) can0 0DF80503#222B06001C6CBCFD
(1746579996.105000) can0 0DF80503#230FD7F4FFFFFFFF
(1746579996.106000) can0 0DF80503#24FFFFFF7F13FC08
(1746579996.107000) can0 0DF80503#257D00FF7FFFFFFF
(1746579996.108000) can0 0DF80503#267F00FFFFFFFFFF
(1746579996.109000) can0 09F80103#5AB9801AF68B11D0
(1746579996.109000) can0 0DF80903#9E44C0B3963110FF
(1746579996.203000) can0 09F80203#FFFC88CF0A00FFFF
(1746579996.204000) can0 09F80103#59B9801AF78B11D0
(1746579996.196000) can0 0DF01003#FFFF9E4468BB9631
(1746579996.295000) can0 09F80103#59B9801AF78B11D0
(1746579996.396000) can0 09F80203#FFFC88CF0A00FFFF
(1746579996.397000) can0 09F80103#58B9801AF88B11D0
(1746579996.497000) can0 09F80103#58B9801AF88B11D0
(1746579996.598000) can0 09F80203#FFFC88CF0900FFFF
(1746579996.599000) can0 0DFE1103#800EC0E588CF0900
(1746579996.599000) can0 0DFE1103#81FFFFFFFFFFFFFF
(1746579996.600000) can0 0DFE1103#82FFFFFFFFFFFFFF
(1746579996.601000) can0 09F80103#57B9801AF88B11D0
(1746579996.698000) can0 0DF90303#FF7FFFFFFF7FFFFF
(1746579996.699000) can0 09F80103#57B9801AF88B11D0
(1746579996.799000) can0 09F80203#FFFC88CF0900FFFF
(1746579996.800000) can0 09F80103#56B9801AF98B11D0
(1746579996.801000) can0 19FA0603#800FE52F02000000
(1746579996.802000) can0 19FA0603#8100000000000000
(1746579996.803000) can0 19FA0603#820000FFFFFFFFFF
(1746579996.900000) can0 19FA0403#C0B743FF0F07AE1E
(1746579996.901000) can0 19FA0403#C1F1CF8C0A000000
(1746579996.902000) can0 19FA0403#C200F2088B279574
(1746579996.903000) can0 19FA0403#C3D00700000000F2
(1746579996.903000) can0 19FA0403#C409172209A71C0C
(1746579996.904000) can0 19FA0403#C500000000F20B69
(1746579996.905000) can0 19FA0403#C603AC78E8030000
(1746579996.906000) can0 19FA0403#C70000F210E8198B
(1746579996.907000) can0 19FA0403#C827600900000000
(1746579996.907000) can0 19FA0403#C9F215C604DD1700
(1746579996.908000) can0 19FA0403#CA0000000000F017
(1746579996.909000) can0 19FA0403#CBDD17FE86780500
(1746579996.910000) can0 19FA0403#CC000000F21A8007
(1746579996.911000) can0 19FA0403#CDB92FE803000000
(1746579996.912000) can0 19FA0403#CE00F21B452ADC35
(1746579996.912000) can0 19FA0403#CFF00A00000000F2
(1746579996.913000) can0 19FA0403#D01E510E36CD0000
(1746579996.914000) can0 19FA0403#D100000000F02123
(1746579996.915000) can0 19FA0403#D206A24900000000
(1746579996.916000) can0 19FA0403#D30000F02E8B1815
(1746579996.917000) can0 19FA0403#D48B000000000000
(1746579996.918000) can0 19FA0403#D5F033D115959200
(1746579996.918000) can0 19FA0403#D60000000000F005
(1746579996.919000) can0 19FA0403#D7AF00E5DC000000
(1746579996.920000) can0 19FA0403#D8000000F01C5D01
(1746579996.921000) can0 19FA0403#D920AB0000000000
(1746579996.922000) can0 19FA0403#DA00F0FFFFFFFFFF
(1746579996.923000) can0 09F80103#56B9801AF98B11D0
(1746579996.923000) can0 19F11A03#FFF7344034F9FFFF
(1746579997.001000) can0 09F80203#FFFC88CF0900FFFF
(1746579997.002000) can0 09F80103#55B9801AF98B11D0
(1746579997.102000) can0 0DF80503#402BE39E4480DA96
(1746579997.103000) can0 0DF80503#413100125FA60FB1
(1746579997.104000) can0 0DF80503#422B06007A3C6FFE
(1746579997.105000) can0 0DF80503#430FD7F4FFFFFFFF
(1746579997.105000) can0 0DF80503#44FFFFFF7F13FC08
(1746579997.106000) can0 0DF80503#457D00FF7FFFFFFF
(1746579997.107000) can0 0DF80503#467F00FFFFFFFFFF
(1746579997.108000) can0 09F80103#55B9801AF98B11D0
(1746579997.109000) can0 0DF80903#9E4480DA963110FF
(1746579997.203000) can0 09F80203#FFFC88CF0A00FFFF
(1746579997.204000) can0 09F80103#54B9801AFA8B11D0
(1746579997.194000) can0 0DF01003#FFFF9E4464E29631
(1746579997.293000) can0 09F80103#54B9801AFA8B11D0
(1746579997.394000) can0 09F80203#FFFC88CF0A00FFFF
(1746579997.395000) can0 09F80103#53B9801AFA8B11D0
(1746579997.495000) can0 09F80103#53B9801AFA8B11D0
(1746579997.595000) can0 09F80203#FFFC88CF0A00FFFF
(1746579997.596000) can0 0DFE1103#A00EC0E688CF0A00
(1746579997.597000) can0 0DFE1103#A1FFFFFFFFFFFFFF
(1746579997.598000) can0 0DFE1103#A2FFFFFFFFFFFFFF
(1746579997.599000) can0 09F80103#53B9801AFA8B11D0
(1746579997.696000) can0 0DF90303#FF7FFFFFFF7FFFFF
(1746579997.697000) can0 09F80103#53B9801AFA8B11D0
(1746579997.797000) can0 09F80203#FFFC88CF0A00FFFF
(1746579997.798000) can0 09F80103#52B9801AFB8B11D0
(1746579997.799000) can0 19FA0603#A00FE62E02000000
(1746579997.800000) can0 19FA0603#A100000000000000
(1746579997.801000) can0 19FA0603#A20000FFFFFFFFFF
(1746579997.899000) can0 19FA0403#E0B744FF0F07AE1E
(1746579997.900000) can0 19FA0403#E1F1CF8C0A000000
(1746579997.901000) can0 19FA0403#E200F2088B279574
(1746579997.902000) can0 19FA0403#E3D00700000000F2
(1746579997.903000) can0 19FA0403#E409172209A71C0C
(1746579997.903000) can0 19FA0403#E500000000F20B69
(1746579997.904000) can0 19FA0403#E603AC7814050000
(1746579997.905000) can0 19FA0403#E70000F210E81939
(1746579997.906000) can0 19FA0403#E828FC0800000000
(1746579997.907000) can0 19FA0403#E9F215C604DD1700
(1746579997.908000) can0 19FA0403#EA0000000000F017
(1746579997.909000) can0 19FA0403#EBDD17FE86DC0500
(1746579997.909000) can0 19FA0403#EC000000F21A8007
(1746579997.910000) can0 19FA0403#EDB92F4C04000000
(1746579997.911000) can0 19FA0403#EE00F21B452ADC35
(1746579997.912000) can0 19FA0403#EFF00A00000000F2
(1746579997.913000) can0 19FA0403#F01E510E36CD0000
(1746579997.914000) can0 19FA0403#F100000000F02123
(1746579997.914000) can0 19FA0403#F206A24900000000
(1746579997.915000) can0 19FA0403#F30000F02E8B1815
(1746579997.916000) can0 19FA0403#F48B000000000000
(1746579997.917000) can0 19FA0403#F5F033D115959200
(1746579997.918000) can0 19FA0403#F60000000000F005
(1746579997.919000) can0 19FA0403#F7AF00E5DC000000
(1746579997.919000) can0 19FA0403#F8000000F01C5D01
(1746579997.920000) can0 19FA0403#F920AB0000000000
(1746579997.921000) can0 19FA0403#FA00F0FFFFFFFFFF
(1746579997.922000) can0 09F80103#52B9801AFB8B11D0
(1746579997.923000) can0 19F11A03#FFF7344034F9FFFF
(1746579998.000000) can0 09F80203#FFFC88CF0A00FFFF
(1746579998.001000) can0 09F80103#51B9801AFB8B11D0
(1746579998.101000) can0 0DF80503#602BE49E44900197
(1746579998.102000) can0 0DF80503#613100EAF3B70EB1
(1746579998.103000) can0 0DF80503#622B06000E72E6FE
(1746579998.104000) can0 0DF80503#630FD7F4FFFFFFFF
(1746579998.105000) can0 0DF80503#64FFFFFF7F13FC08
(1746579998.105000) can0 0DF80503#657D00FF7FFFFFFF
(1746579998.106000) can0 0DF80503#667F00FFFFFFFFFF
(1746579998.107000) can0 09F80103#51B9801AFB8B11D0
(1746579998.108000) can0 0DF80903#9E449001973110FF
(1746579998.202000) can0 09F80203#FFFC88CF0A00FFFF
(1746579998.203000) can0 09F80103#50B9801AFC8B11D0
(1746579998.199000) can0 0DF01003#FFFF9E44A6099731
(1746579998.299000) can0 09F80103#50B9801AFC8B11D0
(1746579998.400000) can0 09F80203#FFFC88CF0A00FFFF
(1746579998.401000) can0 09F80103#4FB9801AFC8B11D0
(1746579998.501000) can0 09F80103#4FB9801AFC8B11D0
(1746579998.602000) can0 09F80203#FFFC88CF0A00FFFF
(1746579998.603000) can0 0DFE1103#C00EC0E788CF0A00
(1746579998.604000) can0 0DFE1103#C1FFFFFFFFFFFFFF
(1746579998.604000) can0 0DFE1103#C2FFFFFFFFFFFFFF
(1746579998.605000) can0 09F80103#4EB9801AFD8B11D0
(1746579998.703000) can0 0DF90303#FF7FFFFFFF7FFFFF
(1746579998.704000) can0 09F80103#4EB9801AFD8B11D0
(1746579998.803000) can0 09F80203#FFFC88CF0A00FFFF
(1746579998.804000) can0 09F80103#4DB9801AFD8B11D0
(1746579998.805000) can0 19FA0603#C00FE72D02000000
(1746579998.806000) can0 19FA0603#C100000000000000
(1746579998.807000) can0 19FA0603#C20000FFFFFFFFFF
(1746579998.905000) can0 19FA0403#00B745FF0F07AE1E
(1746579998.906000) can0 19FA0403#01F1CF8C0A000000
(1746579998.907000) can0 19FA0403#0200F2088B279574
(1746579998.908000) can0 19FA0403#03D00700000000F2
(1746579998.909000) can0 19FA0403#0409172209A71C0C
(1746579998.910000) can0 19FA0403#0500000000F20B69
(1746579998.910000) can0 19FA0403#0603AC7814050000
(1746579998.911000) can0 19FA0403#070000F210E81939
(1746579998.912000) can0 19FA0403#0828FC0800000000
(1746579998.913000) can0 19FA0403#09F215C604DD1700
(1746579998.914000) can0 19FA0403#0A0000000000F017
(1746579998.915000) can0 19FA0403#0BDD17FE86DC0500
(1746579998.916000) can0 19FA0403#0C000000F21A8007
(1746579998.917000) can0 19FA0403#0DB92F4C04000000
(1746579998.918000) can0 19FA0403#0E00F21B452ADC35
(1746579998.918000) can0 19FA0403#0FF00A00000000F2
(1746579998.919000) can0 19FA0403#101E510E36CD0000
(1746579998.920000) can0 19FA0403#1100000000F02123
(1746579998.921000) can0 19FA0403#1206A24900000000
(1746579998.922000) can0 19FA0403#130000F02E8B1815
(1746579998.923000) can0 19FA0403#148B000000000000
(1746579998.924000) can0 19FA0403#15F033D115959200
(1746579998.925000) can0 19FA0403#160000000000F005
(1746579998.926000) can0 19FA0403#17AF00E5DC000000
(1746579998.927000) can0 19FA0403#18000000F01C5D01
(1746579998.928000) can0 19FA0403#1920AB0000000000
(1746579998.929000) can0 19FA0403#1A00F0FFFFFFFFFF
(1746579998.930000) can0 09F80103#4DB9801AFD8B11D0
(1746579998.931000) can0 19F11A03#FFF7344034F9FFFF
(1746579999.007000) can0 09F80203#FFFC88CF0A00FFFF
(1746579999.008000) can0 09F80103#4DB9801AFD8B11D0
(1746579999.108000) can0 0DF80503#802BE59E44F02897
(1746579999.109000) can0 0DF80503#813100C288C90DB1
(1746579999.110000) can0 0DF80503#822B0600A2A75DFF
(1746579999.111000) can0 0DF80503#830FD7F4FFFFFFFF
(1746579999.112000) can0 0DF80503#84FFFFFF7F13FC08
(1746579999.112000) can0 0DF80503#857D00FF7FFFFFFF
(1746579999.113000) can0 0DF80503#867F00FFFFFFFFFF
(1746579999.115000) can0 09F80103#4DB9801AFD8B11D0
(1746579999.115000) can0 0DF80903#9E44F028973110FF
(1746579999.209000) can0 09F80203#FFFC88CF0A00FFFF
(1746579999.210000) can0 09F80103#4CB9801AFE8B11D0
(1746579999.194000) can0 0DF01003#FFFF9E4484309731
(1746579999.293000) can0 09F80103#4CB9801AFE8B11D0
(1746579999.395000) can0 09F80203#FFFC88CF0A00FFFF
(1746579999.395000) can0 09F80103#4BB9801AFE8B11D0
(1746579999.495000) can0 09F80103#4BB9801AFE8B11D0
(1746579999.596000) can0 09F80203#FFFC88CF0A00FFFF
(1746579999.597000) can0 0DFE1103#E00EC0E888CF0A00
(1746579999.598000) can0 0DFE1103#E1FFFFFFFFFFFFFF
(1746579999.598000) can0 0DFE1103#E2FFFFFFFFFFFFFF
(1746579999.599000) can0 09F80103#4AB9801AFF8B11D0
(1746579999.697000) can0 0DF90303#FF7FFFFFFF7FFFFF
(1746579999.698000) can0 09F80103#4AB9801AFF8B11D0
(1746579999.797000) can0 09F80203#FFFC88CF0A00FFFF
(1746579999.798000) can0 09F80103#49B9801A008C11D0
(1746579999.799000) can0 19FA0603#E00FE82D02000000
(1746579999.800000) can0 19FA0603#E100000000000000
(1746579999.801000) can0 19FA0603#E20000FFFFFFFFFF
(1746579999.898000) can0 19FA0403#20B746FF0F07AE1E
(1746579999.899000) can0 19FA0403#21F1CF8C0A000000
(1746579999.900000) can0 19FA0403#2200F2088B279574
(1746579999.901000) can0 19FA0403#23080700000000F2
(1746579999.902000) can0 19FA0403#2409172209A71C0C
(1746579999.903000) can0 19FA0403#2500000000F20B69
(1746579999.904000) can0 19FA0403#2603AC7814050000
(1746579999.905000) can0 19FA0403#270000F210E81939
(1746579999.906000) can0 19FA0403#2828FC0800000000
(1746579999.906000) can0 19FA0403#29F215C604DD1700
(1746579999.907000) can0 19FA0403#2A0000000000F017
(1746579999.908000) can0 19FA0403#2BDD17FE86DC0500
(1746579999.909000) can0 19FA0403#2C000000F21A8007
(1746579999.910000) can0 19FA0403#2DB92F4C04000000
(1746579999.911000) can0 19FA0403#2E00F21B452ADC35
(1746579999.912000) can0 19FA0403#2FF00A00000000F2
(1746579999.913000) can0 19FA0403#301E510E36CD0000
(1746579999.914000) can0 19FA0403#3100000000F02123
(1746579999.915000) can0 19FA0403#3206A24900000000
(1746579999.916000) can0 19FA0403#330000F02E8B1815
(1746579999.916000) can0 19FA0403#348B000000000000
(1746579999.917000) can0 19FA0403#35F033D115959200
(1746579999.918000) can0 19FA0403#360000000000F005
(1746579999.919000) can0 19FA0403#37AF00E5DC000000
(1746579999.920000) can0 19FA0403#38000000F01C5D01
(1746579999.921000) can0 19FA0403#3920AB0000000000
(1746579999.922000) can0 19FA0403#3A00F0FFFFFFFFFF
(1746579999.923000) can0 09F80103#49B9801A008C11D0
(1746579999.924000) can0 19F11A03#FFF7344034F9FFFF
(1746580000.001000) can0 09F80203#FFFC88CF0A00FFFF
(1746580000.001000) can0 09F80103#48B9801A008C11D0
(1746580000.102000) can0 0DF80503#A02BE69E44B04F97
(1746580000.102000) can0 0DF80503#A13100D0829F0CB1
(1746580000.103000) can0 0DF80503#A22B060000781000
(1746580000.104000) can0 0DF80503#A310D7F4FFFFFFFF
(1746580000.105000) can0 0DF80503#A4FFFFFF7F13FC08
(1746580000.106000) can0 0DF80503#A57D00FF7FFFFFFF
(1746580000.107000) can0 0DF80503#A67F00FFFFFFFFFF
(1746580000.108000) can0 09F80103#48B9801A008C11D0
(1746580000.108000) can0 0DF80903#9E44B04F973110FF
(1746580000.203000) can0 09F80203#FFFC88CF0A00FFFF
(1746580000.204000) can0 09F80103#46B9801A018C11D0
(1746580000.197000) can0 0DF01003#FFFF9E44B2579731
(1746580000.297000) can0 09F80103#46B9801A018C11D0
(1746580000.398000) can0 09F80203#FFFC88CF0A00FFFF
(1746580000.399000) can0 09F80103#45B9801A018C11D0
(1746580000.499000) can0 09F80103#45B9801A018C11D0
(1746580000.599000) can0 09F80203#FFFC88CF0A00FFFF
(1746580000.600000) can0 0DFE1103#000EC0E988CF0A00
(1746580000.601000) can0 0DFE1103#01FFFFFFFFFFFFFF
(1746580000.602000) can0 0DFE1103#02FFFFFFFFFFFFFF
(1746580000.603000) can0 09F80103#44B9801A028C11D0
(1746580000.701000) can0 0DF90303#FF7FFFFFFF7FFFFF
(1746580000.702000) can0 09F80103#44B9801A028C11D0
(1746580000.802000) can0 09F80203#FFFC88CF0A00FFFF
(1746580000.803000) can0 09F80103#43B9801A028C11D0
(1746580000.804000) can0 19FA0603#000FE92C02000000
(1746580000.804000) can0 19FA0603#0100000000000000
(1746580000.805000) can0 19FA0603#020000FFFFFFFFFF
(1746580000.903000) can0 19FA0403#40B747FF0F07AE1E
(1746580000.904000) can0 19FA0403#41F1CF8C0A000000
(1746580000.905000) can0 19FA0403#4200F2088B279574
(1746580000.905000) can0 19FA0403#43080700000000F2
(1746580000.906000) can0 19FA0403#4409172209A71C0C
(1746580000.907000) can0 19FA0403#4500000000F20B69
(1746580000.908000) can0 19FA0403#4603AC7814050000
(1746580000.909000) can0 19FA0403#470000F210E81939
(1746580000.910000) can0 19FA0403#4828FC0800000000
(1746580000.911000) can0 19FA0403#49F215C604DD1700
(1746580000.912000) can0 19FA0403#4A0000000000F017
(1746580000.913000) can0 19FA0403#4BDD17FE86DC0500
(1746580000.914000) can0 19FA0403#4C000000F21A8007
(1746580000.915000) can0 19FA0403#4DB92F4C04000000
(1746580000.916000) can0 19FA0403#4E00F21B452ADC35
(1746580000.917000) can0 19FA0403#4FF00A00000000F2
(1746580000.918000) can0 19FA0403#501E510E36CD0000
(1746580000.919000) can0 19FA0403#5100000000F02123
(1746580000.920000) can0 19FA0403#5206A24900000000
(1746580000.920000) can0 19FA0403#530000F02E8B1815
(1746580000.921000) can0 19FA0403#548B000000000000
(1746580000.922000) can0 19FA0403#55F033D115959200
(1746580000.923000) can0 19FA0403#560000000000F005
(1746580000.924000) can0 19FA0403#57AF00E5DC000000
(1746580000.925000) can0 19FA0403#58000000F01C5D01
(1746580000.926000) can0 19FA0403#5920AB0000000000
(1746580000.927000) can0 19FA0403#5A00F0FFFFFFFFFF
(1746580000.927000) can0 09F80103#43B9801A028C11D0
(1746580000.928000) can0 19F11A03#FFF7344034F9FFFF
(1746580001.004000) can0 09F80203#FFFC88CF0A00FFFF
(1746580001.005000) can0 09F80103#42B9801A038C11D0
(1746580001.105000) can0 0DF80503#C02BE79E44C07697
(1746580001.105000) can0 0DF80503#C1310014E2390BB1
(1746580001.106000) can0 0DF80503#C22B06005E48C300
(1746580001.107000) can0 0DF80503#C310D7F4FFFFFFFF
(1746580001.108000) can0 0DF80503#C4FFFFFF7F13FC08
(1746580001.109000) can0 0DF80503#C57D00FF7FFFFFFF
(1746580001.110000) can0 0DF80503#C67F00FFFFFFFFFF
(1746580001.111000) can0 09F80103#42B9801A038C11D0
(1746580001.111000) can0 0DF80903#9E44C076973110FF
(1746580001.208000) can0 09F80203#FFFC88CF0A00FFFF
(1746580001.209000) can0 09F80103#40B9801A038C11D0
(1746580001.194000) can0 0DF01003#FFFF9E44A47E9731
(1746580001.293000) can0 09F80103#40B9801A038C11D0
(1746580001.394000) can0 09F80203#FFFC88CF0A00FFFF
(1746580001.395000) can0 09F80103#3FB9801A048C11D0
(1746580001.498000) can0 09F80103#3FB9801A048C11D0
(1746580001.600000) can0 09F80203#FFFC88CF0A00FFFF
(1746580001.601000) can0 0DFE1103#200EC0EA88CF0A00
(1746580001.602000) can0 0DFE1103#21FFFFFFFFFFFFFF
(1746580001.603000) can0 0DFE1103#22FFFFFFFFFFFFFF
(1746580001.604000) can0 09F80103#3EB9801A048C11D0
(1746580001.701000) can0 0DF90303#FF7FFFFFFF7FFFFF
(1746580001.702000) can0 09F80103#3EB9801A048C11D0
(1746580001.803000) can0 09F80203#FFFC88CF0A00FFFF
(1746580001.803000) can0 09F80103#3CB9801A058C11D0
(1746580001.804000) can0 19FA0603#200FEA2B02000000
(1746580001.805000) can0 19FA0603#2100000000000000
(1746580001.806000) can0 19FA0603#220000FFFFFFFFFF
(1746580001.904000) can0 19FA0403#60B748FF0F07AE1E
(1746580001.905000) can0 19FA0403#61F1CF8C0A000000
(1746580001.906000) can0 19FA0403#6200F2088B279574
(1746580001.906000) can0 19FA0403#636C0700000000F2
(1746580001.907000) can0 19FA0403#6409172209A7800C
(1746580001.908000) can0 19FA0403#6500000000F20B69
(1746580001.909000) can0 19FA0403#6603AC7814050000
(1746580001.910000) can0 19FA0403#670000F210E81939
(1746580001.911000) can0 19FA0403#6828FC0800000000
(1746580001.912000) can0 19FA0403#69F215C604DD1700
(1746580001.913000) can0 19FA0403#6A0000000000F017
(1746580001.914000) can0 19FA0403#6BDD17FE86DC0500
(1746580001.915000) can0 19FA0403#6C000000F21A8007
(1746580001.915000) can0 19FA0403#6DB92F4C04000000
(1746580001.916000) can0 19FA0403#6E00F21B452ADC35
(1746580001.917000) can0 19FA0403#6FF00A00000000F2
(1746580001.918000) can0 19FA0403#701E510E36CD0000
(1746580001.919000) can0 19FA0403#7100000000F02123
(1746580001.920000) can0 19FA0403#7206A24900000000
(1746580001.920000) can0 19FA0403#730000F02E8B1815
(1746580001.921000) can0 19FA0403#748B000000000000
(1746580001.922000) can0 19FA0403#75F033D115959200
(1746580001.923000) can0 19FA0403#760000000000F005
(1746580001.924000) can0 19FA0403#77AF00E5DC000000
(1746580001.925000) can0 19FA0403#78000000F01C5D01
(1746580001.926000) can0 19FA0403#7920AB0000000000
(1746580001.927000) can0 19FA0403#7A00F0FFFFFFFFFF
(1746580001.927000) can0 09F80103#3BB9801A058C11D0
(1746580001.928000) can0 19F11A03#FFF7344034F9FFFF
(1746580002.006000) can0 09F80203#FFFC88CF0A00FFFF
(1746580002.007000) can0 09F80103#3BB9801A058C11D0
(1746580002.107000) can0 0DF80503#E02BE89E44DA9D97
(1746580002.108000) can0 0DF80503#E131008EA69809B1
(1746580002.109000) can0 0DF80503#E22B0600F27D3A01
(1746580002.110000) can0 0DF80503#E310D7F4FFFFFFFF
(1746580002.111000) can0 0DF80503#E4FFFFFF7F13FC08
(1746580002.111000) can0 0DF80503#E57D00FF7FFFFFFF
(1746580002.112000) can0 0DF80503#E67F00FFFFFFFFFF
(1746580002.113000) can0 09F80103#3BB9801A058C11D0
(1746580002.113000) can0 0DF80903#9E44DA9D973110FF
(1746580002.207000) can0 09F80203#FFFC88CF0A00FFFF
(1746580002.208000) can0 09F80103#3AB9801A068C11D0
(1746580002.201000) can0 0DF01003#FFFF9E44FAA59731
(1746580002.300000) can0 09F80103#38B9801A068C11D0
(1746580002.401000) can0 09F80203#FFFC88CF0A00FFFF
(1746580002.402000) can0 09F80103#38B9801A068C11D0
(1746580002.531000) can0 09F80103#37B9801A078C11D0
(1746580002.632000) can0 09F80203#FFFC88CF0A00FFFF
(1746580002.633000) can0 0DFE1103#400EC0EB88CF0A00
(1746580002.634000) can0 0DFE1103#41FFFFFFFFFFFFFF
(1746580002.635000) can0 0DFE1103#42FFFFFFFFFFFFFF
(1746580002.636000) can0 09F80103#37B9801A078C11D0
(1746580002.733000) can0 0DF90303#FF7FFFFFFF7FFFFF
(1746580002.734000) can0 09F80103#35B9801A078C11D0
(1746580002.834000) can0 09F80203#FFFC88CF0A00FFFF
(1746580002.835000) can0 09F80103#35B9801A078C11D0
(1746580002.836000) can0 19FA0603#400FEB2B02000000
(1746580002.837000) can0 19FA0603#4100000000000000
(1746580002.838000) can0 19FA0603#420000FFFFFFFFFF
(1746580002.935000) can0 19FA0403#80B749FF0F07AE1E
(1746580002.936000) can0 19FA0403#81F1CF8C0A000000
(1746580002.937000) can0 19FA0403#8200F2088B279574
(1746580002.937000) can0 19FA0403#836C0700000000F2
(1746580002.938000) can0 19FA0403#8409172209A7800C
(1746580002.939000) can0 19FA0403#8500000000F20B69
(1746580002.940000) can0 19FA0403#8603AC7814050000
(1746580002.941000) can0 19FA0403#870000F210E81939
(1746580002.942000) can0 19FA0403#8828FC0800000000
(1746580002.942000) can0 19FA0403#89F215C604DD1700
(1746580002.943000) can0 19FA0403#8A0000000000F017
(1746580002.944000) can0 19FA0403#8BDD17FE86DC0500
(1746580002.945000) can0 19FA0403#8C000000F21A8007
(1746580002.946000) can0 19FA0403#8DB92F4C04000000
(1746580002.946000) can0 19FA0403#8E00F21B452ADC35
(1746580002.947000) can0 19FA0403#8FF00A00000000F2
(1746580002.948000) can0 19FA0403#901E510E36CD0000
(1746580002.949000) can0 19FA0403#9100000000F02123
(1746580002.950000) can0 19FA0403#9206A24900000000
(1746580002.951000) can0 19FA0403#930000F02E8B1815
(1746580002.952000) can0 19FA0403#948B000000000000
(1746580002.953000) can0 19FA0403#95F033D115959200
(1746580002.954000) can0 19FA0403#960000000000F005
(1746580002.954000) can0 19FA0403#97AF00E5DC000000
(1746580002.955000) can0 19FA0403#98000000F01C5D01
(1746580002.956000) can0 19FA0403#9920AB0000000000
(1746580002.957000) can0 19FA0403#9A00F0FFFFFFFFFF
(1746580002.958000) can0 09F80103#34B9801A088C11D0
(1746580002.959000) can0 19F11A03#FFF7344034F9FFFF
(1746580003.037000) can0 09F80203#FFFC88CF0A00FFFF
(1746580003.038000) can0 09F80103#34B9801A088C11D0
(1746580003.137000) can0 0DF80503#002BE99E44C4CC97
(1746580003.138000) can0 0DF80503#01310074358007B1
(1746580003.139000) can0 0DF80503#022B06001AE92802
(1746580003.140000) can0 0DF80503#0310D7F4FFFFFFFF
(1746580003.141000) can0 0DF80503#04FFFFFF7F13FC08
(1746580003.142000) can0 0DF80503#057D00FF7FFFFFFF
(1746580003.143000) can0 0DF80503#067F00FFFFFFFFFF
(1746580003.144000) can0 09F80103#32B9801A098C11D0
(1746580003.144000) can0 0DF80903#9E44C4CC973110FF
(1746580003.237000) can0 09F80203#FFFC88CF0A00FFFF
(1746580003.238000) can0 09F80103#32B9801A098C11D0
(1746580003.194000) can0 0DF01003#FFFF9E44C4CC9731
(1746580003.293000) can0 09F80103#31B9801A098C11D0
(1746580003.394000) can0 09F80203#FFFC88CF0A00FFFF
(1746580003.395000) can0 09F80103#31B9801A098C11D0
(1746580003.495000) can0 09F80103#2FB9801A098C11D0
(1746580003.596000) can0 09F80203#FFFC88CF0A00FFFF
(1746580003.596000) can0 0DFE1103#600EC0EC88CF0A00
(1746580003.597000) can0 0DFE1103#61FFFFFFFFFFFFFF
(1746580003.598000) can0 0DFE1103#62FFFFFFFFFFFFFF
(1746580003.599000) can0 09F80103#2FB9801A098C11D0
(1746580003.697000) can0 0DF90303#FF7FFFFFFF7FFFFF
(1746580003.698000) can0 09F80103#2DB9801A0A8C11D0
(1746580003.798000) can0 09F80203#FFFC88CF0A00FFFF
(1746580003.799000) can0 09F80103#2DB9801A0A8C11D0
(1746580003.800000) can0 19FA0603#600FEC2A02000000
(1746580003.800000) can0 19FA0603#6100000000000000
(1746580003.801000) can0 19FA0603#620000FFFFFFFFFF
(1746580003.899000) can0 19FA0403#A0B74AFF0F07AE1E
(1746580003.900000) can0 19FA0403#A1F1CF8C0A000000
(1746580003.901000) can0 19FA0403#A200F2088B279574
(1746580003.902000) can0 19FA0403#A36C0700000000F2
(1746580003.902000) can0 19FA0403#A409172209A71C0C
(1746580003.903000) can0 19FA0403#A500000000F20B69
(1746580003.904000) can0 19FA0403#A603AC784C040000
(1746580003.905000) can0 19FA0403#A70000F210E81939
(1746580003.906000) can0 19FA0403#A828980800000000
(1746580003.907000) can0 19FA0403#A9F215C604DD1700
(1746580003.907000) can0 19FA0403#AA0000000000F017
(1746580003.908000) can0 19FA0403#ABDD17FE86400600
(1746580003.909000) can0 19FA0403#AC000000F21A8007
(1746580003.910000) can0 19FA0403#ADB92F8403000000
(1746580003.911000) can0 19FA0403#AE00F21B452ADC35
(1746580003.912000) can0 19FA0403#AFF00A00000000F2
(1746580003.912000) can0 19FA0403#B01E510E36CD0000
(1746580003.913000) can0 19FA0403#B100000000F02123
(1746580003.914000) can0 19FA0403#B206A24900000000
(1746580003.915000) can0 19FA0403#B30000F02E8B1815
(1746580003.916000) can0 19FA0403#B48B000000000000
(1746580003.916000) can0 19FA0403#B5F033D115959200
(1746580003.917000) can0 19FA0403#B60000000000F005
(1746580003.918000) can0 19FA0403#B7AF00E5DC000000
(1746580003.919000) can0 19FA0403#B8000000F01C5D01
(1746580003.920000) can0 19FA0403#B920AB0000000000
(1746580003.920000) can0 19FA0403#BA00F0FFFFFFFFFF
(1746580003.921000) can0 09F80103#2CB9801A0A8C11D0
(1746580003.922000) can0 19F11A03#FFF7344034F9FFFF
(1746580004.000000) can0 09F80203#FFFC88CF0A00FFFF
(1746580004.001000) can0 09F80103#2CB9801A0A8C11D0
(1746580004.101000) can0 0DF80503#202BEA9E4424F497
(1746580004.102000) can0 0DF80503#213100245FA305B1
(1746580004.103000) can0 0DF80503#222B0600AE1EA002
(1746580004.104000) can0 0DF80503#2310D7F4FFFFFFFF
(1746580004.104000) can0 0DF80503#24FFFFFF7F13FC08
(1746580004.105000) can0 0DF80503#257D00FF7FFFFFFF
(1746580004.106000) can0 0DF80503#267F00FFFFFFFFFF
(1746580004.107000) can0 09F80103#2AB9801A0B8C11D0
(1746580004.108000) can0 0DF80903#9E4424F4973110FF
(1746580004.202000) can0 09F80203#FFFC88CF0A00FFFF
(1746580004.203000) can0 09F80103#2AB9801A0B8C11D0
(1746580004.202000) can0 0DF01003#FFFF9E4424F49731
(1746580004.301000) can0 09F80103#28B9801A0C8C11D0
(1746580004.402000) can0 09F80203#FFFC88CF0A00FFFF
(1746580004.403000) can0 09F80103#28B9801A0C8C11D0
(1746580004.404000) can0 19F81403#A014573834000000
(1746580004.405000) can0 19F81403#A100000000000000
(1746580004.406000) can0 19F81403#A200000057383400
(1746580004.504000) can0 09F80103#26B9801A0C8C11D0
(1746580004.604000) can0 09F80203#FFFC88CF0A00FFFF
(1746580004.605000) can0 0DFE1103#800EC0ED88CF0A00
(1746580004.606000) can0 0DFE1103#81FFFFFFFFFFFFFF
(1746580004.607000) can0 0DFE1103#82FFFFFFFFFFFFFF
(1746580004.608000) can0 09F80103#26B9801A0C8C11D0
(1746580004.706000) can0 0DF90303#FF7FFFFFFF7FFFFF
(1746580004.707000) can0 09F80103#25B9801A0D8C11D0
(1746580004.808000) can0 09F80203#FFFC88CF0A00FFFF
(1746580004.809000) can0 09F80103#25B9801A0D8C11D0
(1746580004.810000) can0 19FA0603#800FED2A02000000
(1746580004.811000) can0 19FA0603#8100000000000000
(1746580004.812000) can0 19FA0603#820000FFFFFFFFFF
(1746580004.909000) can0 19FA0403#C0B74BFF0F07AE1E
(1746580004.910000) can0 19FA0403#C1F1CF8C0A000000
(1746580004.911000) can0 19FA0403#C200F2088B279574
(1746580004.912000) can0 19FA0403#C36C0700000000F2
(1746580004.913000) can0 19FA0403#C409172209A71C0C
(1746580004.913000) can0 19FA0403#C500000000F20B69
(1746580004.914000) can0 19FA0403#C603AC784C040000
(1746580004.915000) can0 19FA0403#C70000F210E81939
(1746580004.916000) can0 19FA0403#C828980800000000
(1746580004.917000) can0 19FA0403#C9F215C604DD1700
(1746580004.918000) can0 19FA0403#CA0000000000F017
(1746580004.918000) can0 19FA0403#CBDD17FE86400600
(1746580004.919000) can0 19FA0403#CC000000F21A8007
(1746580004.920000) can0 19FA0403#CDB92F8403000000
(1746580004.921000) can0 19FA0403#CE00F21B452ADC35
(1746580004.922000) can0 19FA0403#CFF00A00000000F2
(1746580004.923000) can0 19FA0403#D01E510E36CD0000
(1746580004.924000) can0 19FA0403#D100000000F02123
(1746580004.924000) can0 19FA0403#D206A24900000000
(1746580004.925000) can0 19FA0403#D30000F02E8B1815
(1746580004.926000) can0 19FA0403#D48B000000000000
(1746580004.927000) can0 19FA0403#D5F033D115959200
(1746580004.928000) can0 19FA0403#D60000000000F005
(1746580004.929000) can0 19FA0403#D7AF00E5DC000000
(1746580004.930000) can0 19FA0403#D8000000F01C5D01
(1746580004.930000) can0 19FA0403#D920AB0000000000
(1746580004.931000) can0 19FA0403#DA00F0FFFFFFFFFF
(1746580004.932000) can0 09F80103#23B9801A0D8C11D0
(1746580004.933000) can0 19F11A03#FFF7344034F9FFFF
(1746580004.934000) can0 1CFF1F03#3B9FFF34F9FFFFFF
(1746580005.010000) can0 09F80203#FFFC88CF0A00FFFF
(1746580005.011000) can0 09F80103#23B9801A0D8C11D0
(1746580005.112000) can0 0DF80503#402BEB9E44E41A98
(1746580005.112000) can0 0DF80503#4131004EE857E4B0
(1746580005.113000) can0 0DF80503#422B0600B8124F0A
(1746580005.114000) can0 0DF80503#4310D7F4FFFFFFFF
(1746580005.115000) can0 0DF80503#44FFFFFF7F13FC08
(1746580005.116000) can0 0DF80503#457D00FF7FFFFFFF
(1746580005.117000) can0 0DF80503#467F00FFFFFFFFFF
(1746580005.118000) can0 09F80103#9BB8801A2C8C11D0
(1746580005.119000) can0 0DF80903#9E44E41A983110FF
(1746580005.213000) can0 09F80203#FFFC88CF0A00FFFF
(1746580005.213000) can0 09F80103#9BB8801A2C8C11D0
(1746580005.194000) can0 0DF01003#FFFF9E44E41A9831
(1746580005.293000) can0 09F80103#9EB8801A298C11D0
(1746580005.394000) can0 09F80203#FFFC88CF0A00FFFF
(1746580005.395000) can0 09F80103#9EB8801A298C11D0
(1746580005.396000) can0 1CFF5203#3B9FC0C7FFFFFFFF
(1746580005.496000) can0 09F80103#9DB8801A298C11D0
(1746580005.597000) can0 09F80203#FFFC88CF0A00FFFF
(1746580005.598000) can0 0DFE1103#A00EC0EE88CF0A00
(1746580005.599000) can0 0DFE1103#A1FFFFFFFFFFFFFF
(1746580005.600000) can0 0DFE1103#A2FFFFFFFFFFFFFF
(1746580005.601000) can0 09F80103#9DB8801A298C11D0
(1746580005.699000) can0 0DF90303#FF7FFFFFFF7FFFFF
(1746580005.700000) can0 09F80103#94B8801A158C11D0
(1746580005.802000) can0 09F80203#FFFC88CF0B00FFFF
(1746580005.803000) can0 09F80103#94B8801A158C11D0
(1746580005.804000) can0 19FA0603#A00FEE2E02000000
(1746580005.805000) can0 19FA0603#A100000000000000
(1746580005.806000) can0 19FA0603#A20000FFFFFFFFFF
(1746580005.807000) can0 1DFF1E03#A00C3B9F13033DCB
(1746580005.808000) can0 1DFF1E03#A109066200FFFFFF
(1746580005.903000) can0 19FA0403#E0B74CFF0F07AE1E
(1746580005.904000) can0 19FA0403#E1F1CF280A000000
(1746580005.905000) can0 19FA0403#E200F2088B279574
(1746580005.905000) can0 19FA0403#E36C0700000000F2
(1746580005.906000) can0 19FA0403#E409172209A7800C
(1746580005.907000) can0 19FA0403#E500000000F20B69
(1746580005.908000) can0 19FA0403#E603AC784C040000
(1746580005.909000) can0 19FA0403#E70000F210E81939
(1746580005.910000) can0 19FA0403#E828340800000000
(1746580005.910000) can0 19FA0403#E9F215C604DD1700
(1746580005.911000) can0 19FA0403#EA0000000000F017
(1746580005.912000) can0 19FA0403#EBDD17FE86140500
(1746580005.913000) can0 19FA0403#EC000000F21A8007
(1746580005.914000) can0 19FA0403#EDB92F8403000000
(1746580005.914000) can0 19FA0403#EE00F21B452ADC35
(1746580005.915000) can0 19FA0403#EFF00A00000000F2
(1746580005.916000) can0 19FA0403#F01E510E36CD0000
(1746580005.917000) can0 19FA0403#F100000000F02123
(1746580005.918000) can0 19FA0403#F206A24900000000
(1746580005.919000) can0 19FA0403#F30000F02E8B1815
(1746580005.920000) can0 19FA0403#F48B000000000000
(1746580005.921000) can0 19FA0403#F5F033D115959200
(1746580005.922000) can0 19FA0403#F60000000000F005
(1746580005.923000) can0 19FA0403#F7AF00E5DC000000
(1746580005.924000) can0 19FA0403#F8000000F01C5D01
(1746580005.925000) can0 19FA0403#F920AB0000000000
(1746580005.926000) can0 19FA0403#FA00F0FFFFFFFFFF
(1746580005.927000) can0 09F80103#92B8801A048C11D0
(1746580005.927000) can0 19F11A03#FFF7344034F9FFFF
(1746580006.004000) can0 09F80203#FFFC88CF1100FFFF
(1746580006.005000) can0 09F80103#92B8801A048C11D0
(1746580006.105000) can0 0DF80503#602BEC9E441C4298
(1746580006.106000) can0 0DF80503#613100267D69E3B0
(1746580006.107000) can0 0DF80503#622B0600B0A133FE
(1746580006.108000) can0 0DF80503#630FD7F4FFFFFFFF
(1746580006.108000) can0 0DF80503#64FFFFFF7F13FC08
(1746580006.109000) can0 0DF80503#657D00FF7FFFFFFF
(1746580006.110000) can0 0DF80503#667F00FFFFFFFFFF
(1746580006.111000) can0 09F80103#97B8801AF88B11D0
(1746580006.112000) can0 0DF80903#9E441C42983110FF
(1746580006.206000) can0 09F80203#FFFC88CF1200FFFF
(1746580006.207000) can0 09F80103#97B8801AF88B11D0
(1746580006.198000) can0 0DF01003#FFFF9E441C429831
(1746580006.297000) can0 09F80103#93B8801AF68B11D0
(1746580006.398000) can0 09F80203#FFFC88CF1300FFFF
(1746580006.399000) can0 09F80103#93B8801AF68B11D0
(1746580006.499000) can0 09F80103#94B8801AF38B11D0
(1746580006.601000) can0 09F80203#FFFC54AB1400FFFF
(1746580006.602000) can0 0DFE1103#C00EC0EF54AB1400
(1746580006.602000) can0 0DFE1103#C1FFFFFFFFFFFFFF
(1746580006.603000) can0 0DFE1103#C2FFFFFFFFFFFFFF
(1746580006.604000) can0 09F80103#94B8801AF38B11D0
(1746580006.701000) can0 0DF90303#FF7FFFFFFF7FFFFF
(1746580006.702000) can0 09F80103#97B8801AF68B11D0
(1746580006.802000) can0 09F80203#FFFCEBAA1400FFFF
(1746580006.803000) can0 09F80103#97B8801AF68B11D0
(1746580006.804000) can0 19FA0603#C00FEF2E02000000
(1746580006.805000) can0 19FA0603#C100000000000000
(1746580006.806000) can0 19FA0603#C20000FFFFFFFFFF
(1746580006.903000) can0 19FA0403#00B74DFF0F07AE1E
(1746580006.904000) can0 19FA0403#01F1CF280A000000
(1746580006.905000) can0 19FA0403#0200F2088B279574
(1746580006.906000) can0 19FA0403#036C0700000000F2
(1746580006.907000) can0 19FA0403#0409172209A7800C
(1746580006.908000) can0 19FA0403#0500000000F20B69
(1746580006.909000) can0 19FA0403#0603AC784C040000
(1746580006.910000) can0 19FA0403#070000F210E81939
(1746580006.911000) can0 19FA0403#0828340800000000
(1746580006.912000) can0 19FA0403#09F215C604DD1700
(1746580006.912000) can0 19FA0403#0A0000000000F017
(1746580006.913000) can0 19FA0403#0BDD17FE86140500
(1746580006.915000) can0 19FA0403#0C000000F21A8007
(1746580006.916000) can0 19FA0403#0DB92F8403000000
(1746580006.917000) can0 19FA0403#0E00F21B452ADC35
(1746580006.918000) can0 19FA0403#0FF00A00000000F2
(1746580006.919000) can0 19FA0403#101E510E36CD0000
(1746580006.919000) can0 19FA0403#1100000000F02123
(1746580006.920000) can0 19FA0403#1206A24900000000
(1746580006.921000) can0 19FA0403#130000F02E8B1815
(1746580006.922000) can0 19FA0403#148B000000000000
(1746580006.923000) can0 19FA0403#15F033D115959200
(1746580006.924000) can0 19FA0403#160000000000F005
(1746580006.925000) can0 19FA0403#17AF00E5DC000000
(1746580006.926000) can0 19FA0403#18000000F01C5D01
(1746580006.927000) can0 19FA0403#1920AB0000000000
(1746580006.928000) can0 19FA0403#1A00F0FFFFFFFFFF
(1746580006.929000) can0 09F80103#99B8801AF78B11D0
(1746580006.929000) can0 19F11A03#FFF7344034F9FFFF
(1746580007.005000) can0 09F80203#FFFC94AA1500FFFF
(1746580007.005000) can0 09F80103#99B8801AF78B11D0
(1746580007.108000) can0 0DF80503#802BED9E44FA6898
(1746580007.109000) can0 0DF80503#813100FE117BE2B0
(1746580007.109000) can0 0DF80503#822B0600A2A75DFF
(1746580007.110000) can0 0DF80503#830FD7F4FFFFFFFF
(1746580007.111000) can0 0DF80503#84FFFFFF7F13FC08
(1746580007.112000) can0 0DF80503#857D00FF7FFFFFFF
(1746580007.113000) can0 0DF80503#867F00FFFFFFFFFF
(1746580007.114000) can0 09F80103#93B8801AFD8B11D0
(1746580007.115000) can0 0DF80903#9E44FA68983110FF
(1746580007.208000) can0 09F80203#FFFCA0A91500FFFF
(1746580007.209000) can0 09F80103#93B8801AFD8B11D0
(1746580007.193000) can0 0DF01003#FFFF9E44FA689831
(1746580007.293000) can0 09F80103#8DB8801AF98B11D0
(1746580007.393000) can0 09F80203#FFFC89A81500FFFF
(1746580007.394000) can0 09F80103#8DB8801AF98B11D0
(1746580007.495000) can0 09F80103#92B8801AEF8B11D0
(1746580007.596000) can0 09F80203#FFFC43A81500FFFF
(1746580007.596000) can0 0DFE1103#E00EC0F043A81500
(1746580007.597000) can0 0DFE1103#E1FFFFFFFFFFFFFF
(1746580007.598000) can0 0DFE1103#E2FFFFFFFFFFFFFF
(1746580007.599000) can0 09F80103#92B8801AEF8B11D0
(1746580007.696000) can0 0DF90303#FF7FFFFFFF7FFFFF
(1746580007.697000) can0 09F80103#90B8801AEC8B11D0
(1746580007.797000) can0 09F80203#FFFCEBA71600FFFF
(1746580007.798000) can0 09F80103#90B8801AEC8B11D0
(1746580007.799000) can0 19FA0603#E00FF02E02000000
(1746580007.800000) can0 19FA0603#E100000000000000
(1746580007.801000) can0 19FA0603#E20000FFFFFFFFFF
(1746580007.899000) can0 19FA0403#20B74EFF0F07AE1E
(1746580007.900000) can0 19FA0403#21F1CF280A000000
(1746580007.901000) can0 19FA0403#2200F2088B279574
(1746580007.902000) can0 19FA0403#236C0700000000F2
(1746580007.903000) can0 19FA0403#2409172209A71C0C
(1746580007.904000) can0 19FA0403#2500000000F20B69
(1746580007.904000) can0 19FA0403#2603AC784C040000
(1746580007.905000) can0 19FA0403#270000F210E81939
(1746580007.906000) can0 19FA0403#2828D00700000000
(1746580007.907000) can0 19FA0403#29F215C604DD1700
(1746580007.908000) can0 19FA0403#2A0000000000F017
(1746580007.909000) can0 19FA0403#2BDD17FE86D00700
(1746580007.910000) can0 19FA0403#2C000000F21A8007
(1746580007.911000) can0 19FA0403#2DB92F8403000000
(1746580007.911000) can0 19FA0403#2E00F21B452ADC35
(1746580007.912000) can0 19FA0403#2FF00A00000000F2
(1746580007.913000) can0 19FA0403#301E510E36CD0000
(1746580007.914000) can0 19FA0403#3100000000F02123
(1746580007.915000) can0 19FA0403#3206A24900000000
(1746580007.916000) can0 19FA0403#330000F02E8B1815
(1746580007.917000) can0 19FA0403#348B000000000000
(1746580007.917000) can0 19FA0403#35F033D115959200
(1746580007.918000) can0 19FA0403#360000000000F005
(1746580007.919000) can0 19FA0403#37AF00E5DC000000
(1746580007.920000) can0 19FA0403#38000000F01C5D01
(1746580007.921000) can0 19FA0403#3920AB0000000000
(1746580007.922000) can0 19FA0403#3A00F0FFFFFFFFFF
(1746580007.922000) can0 09F80103#96B8801AEA8B11D0
(1746580007.923000) can0 19F11A03#FFF7344034F9FFFF
(1746580008.001000) can0 09F80203#FFFC20A81500FFFF
(1746580008.002000) can0 09F80103#96B8801AEA8B11D0
(1746580008.104000) can0 0DF80503#A02BEE9E44289098
(1746580008.105000) can0 0DF80503#A13100267D69E3B0
(1746580008.106000) can0 0DF80503#A22B060002FBA3FB
(1746580008.107000) can0 0DF80503#A30FD7F4FFFFFFFF
(1746580008.108000) can0 0DF80503#A4FFFFFF7F13FC08
(1746580008.108000) can0 0DF80503#A57D00FF7FFFFFFF
(1746580008.109000) can0 0DF80503#A67F00FFFFFFFFFF
(1746580008.110000) can0 09F80103#97B8801AED8B11D0
(1746580008.110000) can0 0DF80903#9E442890983110FF
(1746580008.205000) can0 09F80203#FFFC43A81500FFFF
(1746580008.206000) can0 09F80103#97B8801AED8B11D0
(1746580008.196000) can0 0DF01003#FFFF9E4428909831
(1746580008.297000) can0 09F80103#96B8801AEE8B11D0
(1746580008.401000) can0 09F80203#FFFC31A81500FFFF
(1746580008.402000) can0 09F80103#96B8801AEE8B11D0
(1746580008.504000) can0 09F80103#96B8801AEE8B11D0
(1746580008.607000) can0 09F80203#FFFCFDA71500FFFF
(1746580008.608000) can0 0DFE1103#000EC0F1FDA71500
(1746580008.609000) can0 0DFE1103#01FFFFFFFFFFFFFF
(1746580008.610000) can0 0DFE1103#02FFFFFFFFFFFFFF
(1746580008.611000) can0 09F80103#96B8801AEE8B11D0
(1746580008.709000) can0 0DF90303#FF7FFFFFFF7FFFFF
(1746580008.710000) can0 09F80103#92B8801AF28B11D0
(1746580008.810000) can0 09F80203#FFFCEBA71500FFFF
(1746580008.811000) can0 09F80103#92B8801AF28B11D0
(1746580008.812000) can0 19FA0603#000FF12D02000000
(1746580008.813000) can0 19FA0603#0100000000000000
(1746580008.814000) can0 19FA0603#020000FFFFFFFFFF
(1746580008.913000) can0 19FA0403#40B74FFF0F07AE1E
(1746580008.913000) can0 19FA0403#41F1CF280A000000
(1746580008.914000) can0 19FA0403#4200F2088B279574
(1746580008.915000) can0 19FA0403#436C0700000000F2
(1746580008.916000) can0 19FA0403#4409172209A71C0C
(1746580008.917000) can0 19FA0403#4500000000F20B69
(1746580008.918000) can0 19FA0403#4603AC784C040000
(1746580008.919000) can0 19FA0403#470000F210E81939
(1746580008.920000) can0 19FA0403#4828D00700000000
(1746580008.921000) can0 19FA0403#49F215C604DD1700
(1746580008.921000) can0 19FA0403#4A0000000000F017
(1746580008.922000) can0 19FA0403#4BDD17FE86D00700
(1746580008.923000) can0 19FA0403#4C000000F21A8007
(1746580008.924000) can0 19FA0403#4DB92F8403000000
(1746580008.925000) can0 19FA0403#4E00F21B452ADC35
(1746580008.926000) can0 19FA0403#4FF00A00000000F2
(1746580008.927000) can0 19FA0403#501E510E36CD0000
(1746580008.927000) can0 19FA0403#5100000000F02123
(1746580008.928000) can0 19FA0403#5206A24900000000
(1746580008.929000) can0 19FA0403#530000F02E8B1815
(1746580008.930000) can0 19FA0403#548B000000000000
(1746580008.931000) can0 19FA0403#55F033D115959200
(1746580008.932000) can0 19FA0403#560000000000F005
(1746580008.933000) can0 19FA0403#57AF00E5DC000000
(1746580008.934000) can0 19FA0403#58000000F01C5D01
(1746580008.935000) can0 19FA0403#5920AB0000000000
(1746580008.936000) can0 19FA0403#5A00F0FFFFFFFFFF
(1746580008.936000) can0 09F80103#92B8801AF28B11D0
(1746580008.937000) can0 19F11A03#FFF7344034F9FFFF
(1746580009.015000) can0 09F80203#FFFCDAA71500FFFF
(1746580009.016000) can0 09F80103#92B8801AF28B11D0
(1746580009.117000) can0 0DF80503#C02BEF9E4468B998
(1746580009.118000) can0 0DF80503#C1310034773FE2B0
(1746580009.119000) can0 0DF80503#C22B0600F400CEFC
(1746580009.119000) can0 0DF80503#C30FD7F4FFFFFFFF
(1746580009.121000) can0 0DF80503#C4FFFFFF7F13FC08
(1746580009.121000) can0 0DF80503#C57D00FF7FFFFFFF
(1746580009.122000) can0 0DF80503#C67F00FFFFFFFFFF
(1746580009.123000) can0 09F80103#92B8801AF28B11D0
(1746580009.123000) can0 0DF80903#9E4468B9983110FF
(1746580009.217000) can0 09F80203#FFFCB7A71400FFFF
(1746580009.218000) can0 09F80103#92B8801AF28B11D0
(1746580009.252000) can0 0DF01003#FFFF9E4468B99831
(1746580009.351000) can0 09F80103#92B8801AF28B11D0
(1746580009.452000) can0 09F80203#FFFCB7A71400FFFF
(1746580009.453000) can0 09F80103#92B8801AF28B11D0
(1746580009.552000) can0 09F80103#92B8801AF28B11D0
(1746580009.653000) can0 09F80203#FFFCEBA71400FFFF
(1746580009.654000) can0 0DFE1103#200EC0F2EBA71400
(1746580009.655000) can0 0DFE1103#21FFFFFFFFFFFFFF
(1746580009.656000) can0 0DFE1103#22FFFFFFFFFFFFFF
(1746580009.657000) can0 09F80103#92B8801AF28B11D0
(1746580009.754000) can0 0DF90303#FF7FFFFFFF7FFFFF
(1746580009.755000) can0 09F80103#92B8801AF28B11D0
(1746580009.855000) can0 09F80203#FFFCEBA71300FFFF
(1746580009.856000) can0 09F80103#92B8801AF28B11D0
(1746580009.857000) can0 19FA0603#200FF22E02000000
(1746580009.858000) can0 19FA0603#2100000000000000
(1746580009.859000) can0 19FA0603#220000FFFFFFFFFF
(1746580009.956000) can0 19FA0403#60B750FF0F07AE1E
(1746580009.957000) can0 19FA0403#61F1CF280A000000
(1746580009.958000) can0 19FA0403#6200F2088B279574
(1746580009.959000) can0 19FA0403#63D00700000000F2
(1746580009.959000) can0 19FA0403#6409172209A7800C
(1746580009.960000) can0 19FA0403#6500000000F20B69
(1746580009.961000) can0 19FA0403#6603AC78B0040000
(1746580009.962000) can0 19FA0403#670000F210E81939
(1746580009.963000) can0 19FA0403#6828340800000000
(1746580009.963000) can0 19FA0403#69F215C604DD1700
(1746580009.964000) can0 19FA0403#6A0000000000F017
(1746580009.965000) can0 19FA0403#6BDD17FE866C0700
(1746580009.966000) can0 19FA0403#6C000000F21A8007
(1746580009.967000) can0 19FA0403#6DB92F0000000000
(1746580009.968000) can0 19FA0403#6E00F01B452ADC35
(1746580009.968000) can0 19FA0403#6FF00A00000000F2
(1746580009.969000) can0 19FA0403#701E510E36CD0000
(1746580009.970000) can0 19FA0403#7100000000F02123
(1746580009.971000) can0 19FA0403#7206A24900000000
(1746580009.972000) can0 19FA0403#730000F02E8B1815
(1746580009.973000) can0 19FA0403#748B000000000000
(1746580009.973000) can0 19FA0403#75F033D115959200
(1746580009.974000) can0 19FA0403#760000000000F01C
(1746580009.975000) can0 19FA0403#775D0120AB000000
(1746580009.976000) can0 19FA0403#78000000F005AF00
(1746580009.977000) can0 19FA0403#79E5DC0000000000
(1746580009.978000) can0 19FA0403#7A00F0FFFFFFFFFF
(1746580009.979000) can0 09F80103#92B8801AF28B11D0
(1746580009.980000) can0 19F11A03#FFF7344034F9FFFF
(1746580010.057000) can0 09F80203#FFFCEBA71300FFFF
(1746580010.058000) can0 09F80103#92B8801AF28B11D0
(1746580010.158000) can0 0DF80503#E02BF09E446EE098
(1746580010.159000) can0 0DF80503#E1310034773FE2B0
(1746580010.160000) can0 0DF80503#E22B0600F400CEFC
(1746580010.161000) can0 0DF80503#E30FD7F4FFFFFFFF
(1746580010.162000) can0 0DF80503#E4FFFFFF7F13FC07
(1746580010.162000) can0 0DF80503#E58100FF7FFFFFFF
(1746580010.163000) can0 0DF80503#E67F00FFFFFFFFFF
(1746580010.164000) can0 09F80103#92B8801AF28B11D0
(1746580010.164000) can0 0DF80903#9E446EE0983110FF
(1746580010.258000) can0 09F80203#FFFCEBA71300FFFF
(1746580010.259000) can0 09F80103#93B8801AF18B11D0
(1746580010.393000) can0 0DF01003#FFFF9E44FAE59831
(1746580010.492000) can0 09F80103#93B8801AF18B11D0
(1746580010.593000) can0 09F80203#FFFCEBA71300FFFF
(1746580010.594000) can0 09F80103#93B8801AF18B11D0
(1746580010.694000) can0 09F80103#93B8801AF18B11D0
(1746580010.795000) can0 09F80203#FFFCEBA71300FFFF
(1746580010.796000) can0 0DFE1103#400EC0F3EBA71300
(1746580010.797000) can0 0DFE1103#41FFFFFFFFFFFFFF
(1746580010.798000) can0 0DFE1103#42FFFFFFFFFFFFFF
(1746580010.799000) can0 09F80103#94B8801AF08B11D0
(1746580010.896000) can0 0DF90303#FF7FFFFFFF7FFFFF
(1746580010.896000) can0 09F80103#94B8801AF08B11D0
(1746580010.997000) can0 09F80203#FFFCEBA71200FFFF
(1746580010.998000) can0 09F80103#C6B8801ABA8B11D0
(1746580010.999000) can0 19FA0603#400FF32F02000000
(1746580011.000000) can0 19FA0603#4100000000000000
(1746580011.001000) can0 19FA0603#420000FFFFFFFFFF
(1746580011.098000) can0 19FA0403#80B751FF0F07AE1E
(1746580011.099000) can0 19FA0403#81F1CF280A000000
(1746580011.100000) can0 19FA0403#8200F2088B279574
(1746580011.101000) can0 19FA0403#83D00700000000F2
(1746580011.101000) can0 19FA0403#8409172209A7800C
(1746580011.102000) can0 19FA0403#8500000000F20B69
(1746580011.103000) can0 19FA0403#8603AC78B0040000
(1746580011.104000) can0 19FA0403#870000F210E81939
(1746580011.105000) can0 19FA0403#8828340800000000
(1746580011.105000) can0 19FA0403#89F215C604DD1700
(1746580011.106000) can0 19FA0403#8A0000000000F017
(1746580011.107000) can0 19FA0403#8BDD17FE866C0700
(1746580011.108000) can0 19FA0403#8C000000F21A8007
(1746580011.109000) can0 19FA0403#8DB92F0000000000
(1746580011.110000) can0 19FA0403#8E00F01B452ADC35
(1746580011.110000) can0 19FA0403#8FF00A00000000F2
(1746580011.111000) can0 19FA0403#901E510E36CD0000
(1746580011.112000) can0 19FA0403#9100000000F02123
(1746580011.113000) can0 19FA0403#9206A24900000000
(1746580011.114000) can0 19FA0403#930000F02E8B1815
(1746580011.115000) can0 19FA0403#948B000000000000
(1746580011.115000) can0 19FA0403#95F033D115959200
(1746580011.116000) can0 19FA0403#960000000000F01C
(1746580011.117000) can0 19FA0403#975D0120AB000000
(1746580011.118000) can0 19FA0403#98000000F005AF00
(1746580011.119000) can0 19FA0403#99E5DC0000000000
(1746580011.120000) can0 19FA0403#9A00F0FFFFFFFFFF
(1746580011.120000) can0 09F80103#C6B8801ABA8B11D0
(1746580011.121000) can0 19F11A03#FFF7344034F9FFFF
(1746580011.199000) can0 09F80203#FFFCEBA71200FFFF
(1746580011.200000) can0 09F80103#CAB8801AB98B11D0
(1746580011.300000) can0 0DF80503#002BF19E443A0599
(1746580011.301000) can0 0DF80503#013100645349EFB0
(1746580011.302000) can0 0DF80503#022B0600FA8988EF
(1746580011.303000) can0 0DF80503#030FD7F4FFFFFFFF
(1746580011.303000) can0 0DF80503#04FFFFFF7F13FC07
(1746580011.304000) can0 0DF80503#058100FF7FFFFFFF
(1746580011.305000) can0 0DF80503#067F00FFFFFFFFFF
(1746580011.306000) can0 09F80103#CAB8801AB98B11D0
(1746580011.307000) can0 0DF80903#9E443A05993110FF
(1746580011.401000) can0 09F80203#FFFCEBA71200FFFF
(1746580011.402000) can0 09F80103#CDB8801AB88B11D0
(1746580011.394000) can0 0DF01003#FFFF9E44140D9931
(1746580011.494000) can0 09F80103#CDB8801AB88B11D0
(1746580011.595000) can0 09F80203#FFFCEBA71200FFFF
(1746580011.596000) can0 09F80103#D0B8801AB38B11D0
(1746580011.696000) can0 09F80103#D0B8801AB38B11D0
(1746580011.797000) can0 09F80203#FFFCEBA71200FFFF
(1746580011.798000) can0 0DFE1103#600EC0F4EBA71200
(1746580011.799000) can0 0DFE1103#61FFFFFFFFFFFFFF
(1746580011.799000) can0 0DFE1103#62FFFFFFFFFFFFFF
(1746580011.800000) can0 09F80103#D0B8801AB38B11D0
(1746580011.897000) can0 0DF90303#FF7FFFFFFF7FFFFF
(1746580011.898000) can0 09F80103#D6B8801AAF8B11D0
(1746580012.000000) can0 09F80203#FFFCEBA71200FFFF
(1746580012.001000) can0 09F80103#D9B8801AAD8B11D0
(1746580012.001000) can0 19FA0603#600FF42F02000000
(1746580012.002000) can0 19FA0603#6100000000000000
(1746580012.003000) can0 19FA0603#620000FFFFFFFFFF
(1746580012.101000) can0 19FA0403#A0B752FF0F07AE1E
(1746580012.102000) can0 19FA0403#A1F1CF280A000000
(1746580012.103000) can0 19FA0403#A200F2088B279574
(1746580012.103000) can0 19FA0403#A36C0700000000F2
(1746580012.104000) can0 19FA0403#A409172209A7800C
(1746580012.105000) can0 19FA0403#A500000000F20B69
(1746580012.106000) can0 19FA0403#A603AC78B0040000
(1746580012.107000) can0 19FA0403#A70000F2103A1939
(1746580012.108000) can0 19FA0403#A828D00700000000
(1746580012.108000) can0 19FA0403#A9F215C604DD1700
(1746580012.109000) can0 19FA0403#AA0000000000F017
(1746580012.110000) can0 19FA0403#ABDD17FE866C0700
(1746580012.111000) can0 19FA0403#AC000000F21A8007
(1746580012.112000) can0 19FA0403#ADB92F0000000000
(1746580012.113000) can0 19FA0403#AE00F01B452ADC35
(1746580012.113000) can0 19FA0403#AFF00A00000000F2
(1746580012.114000) can0 19FA0403#B01E510E36CD0000
(1746580012.115000) can0 19FA0403#B100000000F02123
(1746580012.116000) can0 19FA0403#B206A24900000000
(1746580012.117000) can0 19FA0403#B30000F02E8B1815
(1746580012.118000) can0 19FA0403#B48B000000000000
(1746580012.118000) can0 19FA0403#B5F033D115959200
(1746580012.119000) can0 19FA0403#B60000000000F01C
(1746580012.120000) can0 19FA0403#B75D0120AB000000
(1746580012.121000) can0 19FA0403#B8000000F005AF00
(1746580012.122000) can0 19FA0403#B9E5DC0000000000
(1746580012.122000) can0 19FA0403#BA00F0FFFFFFFFFF
(1746580012.123000) can0 09F80103#D9B8801AAD8B11D0
(1746580012.124000) can0 19F11A03#FFF7344034F9FFFF
(1746580012.202000) can0 09F80203#FFFCEBA71200FFFF
(1746580012.203000) can0 09F80103#E8B8801AA58B11D0
(1746580012.303000) can0 0DF80503#202BF29E44862C99
(1746580012.304000) can0 0DF80503#213100107745F6B0
(1746580012.304000) can0 0DF80503#222B06003272E0EA
(1746580012.305000) can0 0DF80503#230FD7F4FFFFFFFF
(1746580012.306000) can0 0DF80503#24FFFFFF7F13FC07
(1746580012.307000) can0 0DF80503#258100FF7FFFFFFF
(1746580012.308000) can0 0DF80503#267F00FFFFFFFFFF
(1746580012.309000) can0 09F80103#E8B8801AA58B11D0
(1746580012.309000) can0 0DF80903#9E44862C993110FF
(1746580012.404000) can0 09F80203#FFFCEBA71200FFFF
(1746580012.404000) can0 09F80103#F0B8801A9B8B11D0
(1746580012.394000) can0 0DF01003#FFFF9E4424349931
(1746580012.494000) can0 09F80103#F0B8801A9B8B11D0
(1746580012.594000) can0 09F80203#FFFCEBA71200FFFF
(1746580012.595000) can0 09F80103#EDB8801A9B8B11D0
(1746580012.715000) can0 09F80103#EDB8801A9B8B11D0
(1746580012.816000) can0 09F80203#FFFCEBA71200FFFF
(1746580012.817000) can0 0DFE1103#800EC0F5EBA71200
(1746580012.818000) can0 0DFE1103#81FFFFFFFFFFFFFF
(1746580012.819000) can0 0DFE1103#82FFFFFFFFFFFFFF
(1746580012.820000) can0 09F80103#F2B8801A918B11D0
(1746580012.917000) can0 0DF90303#FF7FFFFFFF7FFFFF
(1746580012.918000) can0 09F80103#F2B8801A918B11D0
(1746580013.018000) can0 09F80203#FFFCEBA71200FFFF
(1746580013.019000) can0 09F80103#FFB8801A898B11D0
(1746580013.019000) can0 19FA0603#800FF52F02000000
(1746580013.020000) can0 19FA0603#8100000000000000
(1746580013.021000) can0 19FA0603#820000FFFFFFFFFF
(1746580013.119000) can0 19FA0403#C0B753FF0F07AE1E
(1746580013.120000) can0 19FA0403#C1F1CF280A000000
(1746580013.121000) can0 19FA0403#C200F2088B279574
(1746580013.121000) can0 19FA0403#C36C0700000000F2
(1746580013.122000) can0 19FA0403#C409172209A7800C
(1746580013.123000) can0 19FA0403#C500000000F20B69
(1746580013.124000) can0 19FA0403#C603AC78B0040000
(1746580013.125000) can0 19FA0403#C70000F2103A1939
(1746580013.126000) can0 19FA0403#C828D00700000000
(1746580013.127000) can0 19FA0403#C9F215C604DD1700
(1746580013.127000) can0 19FA0403#CA0000000000F017
(1746580013.128000) can0 19FA0403#CBDD17FE866C0700
(1746580013.129000) can0 19FA0403#CC000000F21A8007
(1746580013.130000) can0 19FA0403#CDB92F0000000000
(1746580013.131000) can0 19FA0403#CE00F01B452ADC35
(1746580013.132000) can0 19FA0403#CFF00A00000000F2
(1746580013.132000) can0 19FA0403#D01E510E36CD0000
(1746580013.133000) can0 19FA0403#D100000000F02123
(1746580013.134000) can0 19FA0403#D206A24900000000
(1746580013.135000) can0 19FA0403#D30000F02E8B1815
(1746580013.136000) can0 19FA0403#D48B000000000000
(1746580013.136000) can0 19FA0403#D5F033D115959200
(1746580013.137000) can0 19FA0403#D60000000000F01C
(1746580013.138000) can0 19FA0403#D75D0120AB000000
(1746580013.139000) can0 19FA0403#D8000000F005AF00
(1746580013.140000) can0 19FA0403#D9E5DC0000000000
(1746580013.141000) can0 19FA0403#DA00F0FFFFFFFFFF
(1746580013.141000) can0 09F80103#FFB8801A898B11D0
(1746580013.142000) can0 19F11A03#FFF7344034F9FFFF
(1746580013.220000) can0 09F80203#FFFCEBA71200FFFF
(1746580013.221000) can0 09F80103#04B9801A848B11D0
(1746580013.321000) can0 0DF80503#402BF39E44645399
(1746580013.322000) can0 0DF80503#4131002865CAFCB0
(1746580013.323000) can0 0DF80503#422B0600287E31E3
(1746580013.324000) can0 0DF80503#430FD7F4FFFFFFFF
(1746580013.325000) can0 0DF80503#44FFFFFF7F13FC07
(1746580013.326000) can0 0DF80503#458100FF7FFFFFFF
(1746580013.327000) can0 0DF80503#467F00FFFFFFFFFF
(1746580013.328000) can0 09F80103#04B9801A848B11D0
(1746580013.328000) can0 0DF80903#9E446453993110FF
(1746580013.422000) can0 09F80203#FFFCEBA71200FFFF
(1746580013.423000) can0 09F80103#01B9801A798B11D0
(1746580013.395000) can0 0DF01003#FFFF9E443E5B9931
(1746580013.495000) can0 09F80103#01B9801A798B11D0
(1746580013.596000) can0 09F80203#FFFCEBA71200FFFF
(1746580013.597000) can0 09F80103#07B9801A758B11D0
(1746580013.697000) can0 09F80103#07B9801A758B11D0
(1746580013.798000) can0 09F80203#FFFCEBA71300FFFF
(1746580013.799000) can0 0DFE1103#A00EC0F6EBA71300
(1746580013.799000) can0 0DFE1103#A1FFFFFFFFFFFFFF
(1746580013.800000) can0 0DFE1103#A2FFFFFFFFFFFFFF
(1746580013.801000) can0 09F80103#07B9801A788B11D0
(1746580013.899000) can0 0DF90303#FF7FFFFFFF7FFFFF
(1746580013.899000) can0 09F80103#07B9801A788B11D0
(1746580013.999000) can0 09F80203#FFFCEBA71300FFFF
(1746580014.000000) can0 09F80103#0AB9801A738B11D0
(1746580014.001000) can0 19FA0603#A00FF63102000000
(1746580014.002000) can0 19FA0603#A100000000000000
(1746580014.003000) can0 19FA0603#A20000FFFFFFFFFF
(1746580014.100000) can0 19FA0403#E0B754FF0F07AE1E
(1746580014.101000) can0 19FA0403#E1F1CFC409000000
(1746580014.102000) can0 19FA0403#E200F2088B279574
(1746580014.103000) can0 19FA0403#E3080700000000F2
(1746580014.104000) can0 19FA0403#E409172209A71C0C
(1746580014.105000) can0 19FA0403#E500000000F20B69
(1746580014.105000) can0 19FA0403#E603AC78B0040000
(1746580014.106000) can0 19FA0403#E70000F2103A1939
(1746580014.107000) can0 19FA0403#E828D00700000000
(1746580014.108000) can0 19FA0403#E9F215C604DD1700
(1746580014.109000) can0 19FA0403#EA0000000000F017
(1746580014.110000) can0 19FA0403#EBDD17FE86D00700
(1746580014.110000) can0 19FA0403#EC000000F21A8007
(1746580014.111000) can0 19FA0403#EDB92F0000000000
(1746580014.112000) can0 19FA0403#EE00F01B9729DC35
(1746580014.113000) can0 19FA0403#EFF00A00000000F2
(1746580014.114000) can0 19FA0403#F01E510E36CD0000
(1746580014.115000) can0 19FA0403#F100000000F02123
(1746580014.115000) can0 19FA0403#F206A24900000000
(1746580014.116000) can0 19FA0403#F30000F02E8B1815
(1746580014.117000) can0 19FA0403#F48B000000000000
(1746580014.118000) can0 19FA0403#F5F033D115959200
(1746580014.119000) can0 19FA0403#F60000000000F01C
(1746580014.119000) can0 19FA0403#F75D0120AB000000
(1746580014.120000) can0 19FA0403#F8000000F005AF00
(1746580014.121000) can0 19FA0403#F9E5DC0000000000
(1746580014.122000) can0 19FA0403#FA00F0FFFFFFFFFF
(1746580014.123000) can0 09F80103#0AB9801A738B11D0
(1746580014.124000) can0 19F11A03#FFF7344034F9FFFF
(1746580014.201000) can0 09F80203#FFFCEBA71300FFFF
(1746580014.202000) can0 09F80103#12B9801A6F8B11D0
(1746580014.302000) can0 0DF80503#602BF49E447E7A99
(1746580014.303000) can0 0DF80503#61310034DC0C00B1
(1746580014.304000) can0 0DF80503#622B060096CB4DDE
(1746580014.305000) can0 0DF80503#630FD7F4FFFFFFFF
(1746580014.306000) can0 0DF80503#64FFFFFF7F13FC07
(1746580014.306000) can0 0DF80503#658100FF7FFFFFFF
(1746580014.307000) can0 0DF80503#667F00FFFFFFFFFF
(1746580014.308000) can0 09F80103#12B9801A6F8B11D0
(1746580014.309000) can0 0DF80903#9E447E7A993110FF
(1746580014.403000) can0 09F80203#FFFCEBA71300FFFF
(1746580014.404000) can0 09F80103#13B9801A738B11D0
(1746580014.391000) can0 0DF01003#FFFF9E4426829931
(1746580014.490000) can0 09F80103#13B9801A738B11D0
(1746580014.591000) can0 09F80203#FFFCEBA71300FFFF
(1746580014.592000) can0 09F80103#0DB9801A798B11D0
(1746580014.592000) can0 19F81403#C014573834000000
(1746580014.593000) can0 19F81403#C100000000000000
(1746580014.594000) can0 19F81403#C200000057383400
(1746580014.692000) can0 09F80103#0DB9801A798B11D0
(1746580014.792000) can0 09F80203#FFFCEBA71300FFFF
(1746580014.793000) can0 0DFE1103#C00EC0F7EBA71300
(1746580014.794000) can0 0DFE1103#C1FFFFFFFFFFFFFF
(1746580014.795000) can0 0DFE1103#C2FFFFFFFFFFFFFF
(1746580014.796000) can0 09F80103#0BB9801A828B11D0
(1746580014.893000) can0 0DF90303#FF7FFFFFFF7FFFFF
(1746580014.894000) can0 09F80103#0BB9801A828B11D0
(1746580014.994000) can0 09F80203#FFFCEBA71200FFFF
(1746580014.995000) can0 09F80103#0AB9801A838B11D0
(1746580014.996000) can0 19FA0603#C00FF73202000000
(1746580014.997000) can0 19FA0603#C100000000000000
(1746580014.997000) can0 19FA0603#C20000FFFFFFFFFF
(1746580015.095000) can0 19FA0403#00B755FF0F07AE1E
(1746580015.096000) can0 19FA0403#01F1CFC409000000
(1746580015.097000) can0 19FA0403#0200F2088B279574
(1746580015.098000) can0 19FA0403#03080700000000F2
(1746580015.098000) can0 19FA0403#0409172209A71C0C
(1746580015.099000) can0 19FA0403#0500000000F20B69
(1746580015.100000) can0 19FA0403#0603AC78B0040000
(1746580015.101000) can0 19FA0403#070000F2103A1939
(1746580015.102000) can0 19FA0403#0828D00700000000
(1746580015.103000) can0 19FA0403#09F215C604DD1700
(1746580015.103000) can0 19FA0403#0A0000000000F017
(1746580015.104000) can0 19FA0403#0BDD17FE86D00700
(1746580015.105000) can0 19FA0403#0C000000F21A8007
(1746580015.106000) can0 19FA0403#0DB92F0000000000
(1746580015.107000) can0 19FA0403#0E00F01B9729DC35
(1746580015.107000) can0 19FA0403#0FF00A00000000F2
(1746580015.108000) can0 19FA0403#101E510E36CD0000
(1746580015.109000) can0 19FA0403#1100000000F02123
(1746580015.110000) can0 19FA0403#1206A24900000000
(1746580015.111000) can0 19FA0403#130000F02E8B1815
(1746580015.112000) can0 19FA0403#148B000000000000
(1746580015.112000) can0 19FA0403#15F033D115959200
(1746580015.113000) can0 19FA0403#160000000000F01C
(1746580015.114000) can0 19FA0403#175D0120AB000000
(1746580015.115000) can0 19FA0403#18000000F005AF00
(1746580015.116000) can0 19FA0403#19E5DC0000000000
(1746580015.117000) can0 19FA0403#1A00F0FFFFFFFFFF
(1746580015.117000) can0 09F80103#0AB9801A838B11D0
(1746580015.118000) can0 19F11A03#FFF7344034F9FFFF
(1746580015.119000) can0 1CFF1F03#3B9FFF34F9FFFFFF
(1746580015.196000) can0 09F80203#FFFCEBA71200FFFF
(1746580015.197000) can0 09F80103#0AB9801A838B11D0
(1746580015.297000) can0 0DF80503#802BF59E44B4A399
(1746580015.298000) can0 0DF80503#813100E40530FEB0
(1746580015.299000) can0 0DF80503#822B06005EE3F5E2
(1746580015.300000) can0 0DF80503#830FD7F4FFFFFFFF
(1746580015.300000) can0 0DF80503#84FFFFFF7F13FC07
(1746580015.301000) can0 0DF80503#858100FF7FFFFFFF
(1746580015.302000) can0 0DF80503#867F00FFFFFFFFFF
(1746580015.303000) can0 09F80103#0AB9801A838B11D0
(1746580015.304000) can0 0DF80903#9E44B4A3993110FF
(1746580015.398000) can0 09F80203#FFFCEBA71200FFFF
(1746580015.399000) can0 09F80103#0AB9801A838B11D0
(1746580015.250000) can0 0DF01003#FFFF9E44B4A39931
(1746580015.349000) can0 09F80103#0AB9801A838B11D0
(1746580015.450000) can0 09F80203#FFFCEBA71200FFFF
(1746580015.451000) can0 09F80103#06B9801A838B11D0
(1746580015.452000) can0 1CFF5203#3B9FC0C7FFFFFFFF
(1746580015.551000) can0 09F80103#06B9801A838B11D0
(1746580015.652000) can0 09F80203#FFFCEBA71200FFFF
(1746580015.653000) can0 0DFE1103#E00EC0F8EBA71200
(1746580015.654000) can0 0DFE1103#E1FFFFFFFFFFFFFF
(1746580015.655000) can0 0DFE1103#E2FFFFFFFFFFFFFF
(1746580015.656000) can0 09F80103#05B9801A838B11D0
(1746580015.753000) can0 0DF90303#FF7FFFFFFF7FFFFF
(1746580015.754000) can0 09F80103#05B9801A838B11D0
(1746580015.854000) can0 09F80203#FFFCEBA71200FFFF
(1746580015.855000) can0 09F80103#05B9801A838B11D0
(1746580015.855000) can0 19FA0603#E00FF83302000000
(1746580015.856000) can0 19FA0603#E100000000000000
(1746580015.857000) can0 19FA0603#E20000FFFFFFFFFF
(1746580015.858000) can0 1DFF1E03#C00C3B9F13033DCB
(1746580015.859000) can0 1DFF1E03#C109066200FFFFFF
(1746580015.955000) can0 19FA0403#20B756FF0F07AE1E
(1746580015.956000) can0 19FA0403#21F1CF280A000000
(1746580015.956000) can0 19FA0403#2200F2088B279574
(1746580015.957000) can0 19FA0403#23080700000000F2
(1746580015.958000) can0 19FA0403#2409172209A71C0C
(1746580015.959000) can0 19FA0403#2500000000F2103A
(1746580015.960000) can0 19FA0403#2619392834080000
(1746580015.961000) can0 19FA0403#270000F215C604DD
(1746580015.961000) can0 19FA0403#2817000000000000
(1746580015.962000) can0 19FA0403#29F017DD17FE86D0
(1746580015.963000) can0 19FA0403#2A0700000000F21A
(1746580015.964000) can0 19FA0403#2B8007B92F000000
(1746580015.965000) can0 19FA0403#2C000000F01B9729
(1746580015.966000) can0 19FA0403#2DDC35F00A000000
(1746580015.966000) can0 19FA0403#2E00F21E510E36CD
(1746580015.967000) can0 19FA0403#2F780500000000F1
(1746580015.968000) can0 19FA0403#30212306A2490000
(1746580015.969000) can0 19FA0403#3100000000F02E8B
(1746580015.970000) can0 19FA0403#3218158B00000000
(1746580015.971000) can0 19FA0403#330000F033D11595
(1746580015.972000) can0 19FA0403#3492000000000000
(1746580015.972000) can0 19FA0403#35F01C5D0120AB00
(1746580015.973000) can0 19FA0403#360000000000F005
(1746580015.974000) can0 19FA0403#37AF00E5DC000000
(1746580015.975000) can0 19FA0403#38000000F00B6903
(1746580015.976000) can0 19FA0403#39AC780000000000
(1746580015.977000) can0 19FA0403#3A00F0FFFFFFFFFF
(1746580015.978000) can0 09F80103#05B9801A838B11D0
(1746580015.978000) can0 19F11A03#FFF7344034F9FFFF
(1746580016.055000) can0 09F80203#FFFCEBA71200FFFF
(1746580016.056000) can0 09F80103#05B9801A848B11D0
(1746580016.156000) can0 0DF80503#A02BF69E44BCC899
(1746580016.157000) can0 0DF80503#A13100F2FF05FDB0
(1746580016.158000) can0 0DF80503#A22B0600287E31E3
(1746580016.159000) can0 0DF80503#A30FD7F4FFFFFFFF
(1746580016.160000) can0 0DF80503#A4FFFFFF7F13FC06
(1746580016.161000) can0 0DF80503#A58100FF7FFFFFFF
(1746580016.162000) can0 0DF80503#A67F00FFFFFFFFFF
(1746580016.163000) can0 09F80103#05B9801A848B11D0
(1746580016.163000) can0 0DF80903#9E44BCC8993110FF
(1746580016.257000) can0 09F80203#FFFCEBA71200FFFF
(1746580016.258000) can0 09F80103#05B9801A848B11D0
(1746580016.198000) can0 0DF01003#FFFF9E44BCC89931
(1746580016.297000) can0 09F80103#05B9801A848B11D0
(1746580016.398000) can0 09F80203#FFFCEBA71200FFFF
(1746580016.399000) can0 09F80103#06B9801A848B11D0
(1746580016.499000) can0 09F80103#06B9801A848B11D0
(1746580016.600000) can0 09F80203#FFFCEBA71200FFFF
(1746580016.601000) can0 0DFE1103#000EC0F9EBA71200
(1746580016.601000) can0 0DFE1103#01FFFFFFFFFFFFFF
(1746580016.602000) can0 0DFE1103#02FFFFFFFFFFFFFF
(1746580016.603000) can0 09F80103#06B9801A838B11D0
(1746580016.702000) can0 0DF90303#FF7FFFFFFF7FFFFF
(1746580016.703000) can0 09F80103#06B9801A838B11D0
(1746580016.803000) can0 09F80203#FFFCEBA71200FFFF
(1746580016.804000) can0 09F80103#0DB9801A7C8B11D0
(1746580016.804000) can0 19FA0603#000FF93402000000
(1746580016.805000) can0 19FA0603#0100000000000000
(1746580016.806000) can0 19FA0603#020000FFFFFFFFFF
(1746580016.904000) can0 19FA0403#40B757FF0F07AE1E
(1746580016.904000) can0 19FA0403#41F1CF280A000000
(1746580016.905000) can0 19FA0403#4200F2088B279574
(1746580016.906000) can0 19FA0403#43080700000000F2
(1746580016.907000) can0 19FA0403#4409172209A71C0C
(1746580016.908000) can0 19FA0403#4500000000F2103A
(1746580016.909000) can0 19FA0403#4619392834080000
(1746580016.909000) can0 19FA0403#470000F215C604DD
(1746580016.910000) can0 19FA0403#4817000000000000
(1746580016.911000) can0 19FA0403#49F017DD17FE86D0
(1746580016.912000) can0 19FA0403#4A0700000000F21A
(1746580016.913000) can0 19FA0403#4B8007B92F000000
(1746580016.914000) can0 19FA0403#4C000000F01B9729
(1746580016.914000) can0 19FA0403#4DDC35F00A000000
(1746580016.915000) can0 19FA0403#4E00F21E510E36CD
(1746580016.916000) can0 19FA0403#4F780500000000F1
(1746580016.917000) can0 19FA0403#50212306A2490000
(1746580016.918000) can0 19FA0403#5100000000F02E8B
(1746580016.919000) can0 19FA0403#5218158B00000000
(1746580016.919000) can0 19FA0403#530000F033D11595
(1746580016.920000) can0 19FA0403#5492000000000000
(1746580016.921000) can0 19FA0403#55F01C5D0120AB00
(1746580016.922000) can0 19FA0403#560000000000F005
(1746580016.923000) can0 19FA0403#57AF00E5DC000000
(1746580016.924000) can0 19FA0403#58000000F00B6903
(1746580016.924000) can0 19FA0403#59AC780000000000
(1746580016.925000) can0 19FA0403#5A00F0FFFFFFFFFF
(1746580016.926000) can0 09F80103#0DB9801A7C8B11D0
(1746580016.927000) can0 19F11A03#FFF7344034F9FFFF
(1746580017.005000) can0 09F80203#FFFCEBA71200FFFF
(1746580017.005000) can0 09F80103#16B9801A788B11D0
(1746580017.105000) can0 0DF80503#C02BF79E44A4EF99
(1746580017.106000) can0 0DF80503#C131005C47FB00B1
(1746580017.107000) can0 0DF80503#C22B0600B03C66E0
(1746580017.108000) can0 0DF80503#C30FD7F4FFFFFFFF
(1746580017.109000) can0 0DF80503#C4FFFFFF7F13FC06
(1746580017.110000) can0 0DF80503#C58100FF7FFFFFFF
(1746580017.110000) can0 0DF80503#C67F00FFFFFFFFFF
(1746580017.111000) can0 09F80103#16B9801A788B11D0
(1746580017.111000) can0 0DF80903#9E44A4EF993110FF
(1746580017.205000) can0 09F80203#FFFCEBA71200FFFF
(1746580017.206000) can0 09F80103#13B9801A7F8B11D0
(1746580017.394000) can0 0DF01003#FFFF9E4474F79931
(1746580017.493000) can0 09F80103#13B9801A7F8B11D0
(1746580017.594000) can0 09F80203#FFFCEBA71200FFFF
(1746580017.595000) can0 09F80103#13B9801A808B11D0
(1746580017.695000) can0 09F80103#13B9801A808B11D0
(1746580017.796000) can0 09F80203#FFFCEBA71200FFFF
(1746580017.797000) can0 0DFE1103#200EC0FAEBA71200
(1746580017.798000) can0 0DFE1103#21FFFFFFFFFFFFFF
(1746580017.799000) can0 0DFE1103#22FFFFFFFFFFFFFF
(1746580017.799000) can0 09F80103#13B9801A808B11D0
(1746580017.897000) can0 0DF90303#FF7FFFFFFF7FFFFF
(1746580017.898000) can0 09F80103#13B9801A808B11D0
(1746580017.998000) can0 09F80203#FFFCEBA71200FFFF
(1746580017.999000) can0 09F80103#16B9801A768B11D0
(1746580017.999000) can0 19FA0603#200FFA3802000000
(1746580018.000000) can0 19FA0603#2100000000000000
(1746580018.001000) can0 19FA0603#220000FFFFFFFFFF
(1746580018.099000) can0 19FA0403#60B758FF0F07AE1E
(1746580018.100000) can0 19FA0403#61F1CFC409000000
(1746580018.100000) can0 19FA0403#6200F2088B279574
(1746580018.101000) can0 19FA0403#63A40600000000F2
(1746580018.102000) can0 19FA0403#6409172209A71C0C
(1746580018.103000) can0 19FA0403#6500000000F2103A
(1746580018.104000) can0 19FA0403#661939286C070000
(1746580018.104000) can0 19FA0403#670000F215C604DD
(1746580018.105000) can0 19FA0403#6817000000000000
(1746580018.106000) can0 19FA0403#69F017DD17FE866C
(1746580018.107000) can0 19FA0403#6A0700000000F21A
(1746580018.108000) can0 19FA0403#6B8007B92F000000
(1746580018.109000) can0 19FA0403#6C000000F01B9729
(1746580018.110000) can0 19FA0403#6DDC358C0A000000
(1746580018.110000) can0 19FA0403#6E00F21E510E36CD
(1746580018.111000) can0 19FA0403#6F140500000000F1
(1746580018.112000) can0 19FA0403#70212306A2490000
(1746580018.113000) can0 19FA0403#7100000000F02E8B
(1746580018.114000) can0 19FA0403#7218158B00000000
(1746580018.115000) can0 19FA0403#730000F033D11595
(1746580018.115000) can0 19FA0403#7492000000000000
(1746580018.116000) can0 19FA0403#75F01C5D0120AB00
(1746580018.117000) can0 19FA0403#760000000000F005
(1746580018.118000) can0 19FA0403#77AF00E5DC000000
(1746580018.119000) can0 19FA0403#78000000F00B6903
(1746580018.119000) can0 19FA0403#79AC780000000000
(1746580018.120000) can0 19FA0403#7A00F0FFFFFFFFFF
(1746580018.121000) can0 09F80103#16B9801A768B11D0
(1746580018.122000) can0 19F11A03#FFF7344034F9FFFF
(1746580018.200000) can0 09F80203#FFFCEBA71200FFFF
(1746580018.200000) can0 09F80103#1FB9801A698B11D0
(1746580018.300000) can0 0DF80503#E02BF89E44DC169A
(1746580018.301000) can0 0DF80503#E1310076B81303B1
(1746580018.302000) can0 0DF80503#E22B0600DA2AE8DC
(1746580018.303000) can0 0DF80503#E30FD7F4FFFFFFFF
(1746580018.304000) can0 0DF80503#E4FFFFFF7F13FC06
(1746580018.305000) can0 0DF80503#E58100FF7FFFFFFF
(1746580018.306000) can0 0DF80503#E67F00FFFFFFFFFF
(1746580018.307000) can0 09F80103#1FB9801A698B11D0
(1746580018.307000) can0 0DF80903#9E44DC169A3110FF
(1746580018.401000) can0 09F80203#FFFCEBA71200FFFF
(1746580018.402000) can0 09F80103#1FB9801A668B11D0
(1746580018.393000) can0 0DF01003#FFFF9E447A1E9A31
(1746580018.492000) can0 09F80103#1FB9801A668B11D0
(1746580018.593000) can0 09F80203#FFFCEBA71300FFFF
(1746580018.594000) can0 09F80103#19B9801A668B11D0
(1746580018.694000) can0 09F80103#19B9801A668B11D0
(1746580018.795000) can0 09F80203#FFFCEBA71300FFFF
(1746580018.796000) can0 0DFE1103#400EC0FBEBA71300
(1746580018.797000) can0 0DFE1103#41FFFFFFFFFFFFFF
(1746580018.797000) can0 0DFE1103#42FFFFFFFFFFFFFF
(1746580018.798000) can0 09F80103#17B9801A6F8B11D0
(1746580018.896000) can0 0DF90303#FF7FFFFFFF7FFFFF
(1746580018.897000) can0 09F80103#17B9801A6F8B11D0
(1746580018.997000) can0 09F80203#FFFCEBA71300FFFF
(1746580018.998000) can0 09F80103#19B9801A698B11D0
(1746580018.999000) can0 19FA0603#400FFB3B02000000
(1746580019.000000) can0 19FA0603#4100000000000000
(1746580019.001000) can0 19FA0603#420000FFFFFFFFFF
(1746580019.098000) can0 19FA0403#80B759FF0F07AE1E
(1746580019.099000) can0 19FA0403#81F1CFC409000000
(1746580019.100000) can0 19FA0403#8200F2088B279574
(1746580019.101000) can0 19FA0403#83A40600000000F2
(1746580019.102000) can0 19FA0403#8409172209A71C0C
(1746580019.102000) can0 19FA0403#8500000000F2103A
(1746580019.103000) can0 19FA0403#861939286C070000
(1746580019.104000) can0 19FA0403#870000F215C604DD
(1746580019.105000) can0 19FA0403#8817000000000000
(1746580019.106000) can0 19FA0403#89F017DD17FE866C
(1746580019.107000) can0 19FA0403#8A0700000000F21A
(1746580019.108000) can0 19FA0403#8B8007B92F000000
(1746580019.108000) can0 19FA0403#8C000000F01B9729
(1746580019.109000) can0 19FA0403#8DDC358C0A000000
(1746580019.110000) can0 19FA0403#8E00F21E510E36CD
(1746580019.111000) can0 19FA0403#8F140500000000F1
(1746580019.112000) can0 19FA0403#90212306A2490000
(1746580019.112000) can0 19FA0403#9100000000F02E8B
(1746580019.113000) can0 19FA0403#9218158B00000000
(1746580019.114000) can0 19FA0403#930000F033D11595
(1746580019.115000) can0 19FA0403#9492000000000000
(1746580019.116000) can0 19FA0403#95F01C5D0120AB00
(1746580019.117000) can0 19FA0403#960000000000F005
(1746580019.117000) can0 19FA0403#97AF00E5DC000000
(1746580019.118000) can0 19FA0403#98000000F00B6903
(1746580019.119000) can0 19FA0403#99AC780000000000
(1746580019.120000) can0 19FA0403#9A00F0FFFFFFFFFF
(1746580019.121000) can0 09F80103#19B9801A698B11D0
(1746580019.121000) can0 19F11A03#FFF7344034F9FFFF
(1746580019.199000) can0 09F80203#FFFCEBA71300FFFF
(1746580019.200000) can0 09F80103#1FB9801A558B11D0
(1746580019.301000) can0 0DF80503#002BF99E44C43D9A
(1746580019.302000) can0 0DF80503#01310076B81303B1
(1746580019.303000) can0 0DF80503#022B0600121340D8
(1746580019.303000) can0 0DF80503#030FD7F4FFFFFFFF
(1746580019.304000) can0 0DF80503#04FFFFFF7F13FC06
(1746580019.305000) can0 0DF80503#058100FF7FFFFFFF
(1746580019.306000) can0 0DF80503#067F00FFFFFFFFFF
(1746580019.307000) can0 09F80103#1FB9801A558B11D0
(1746580019.308000) can0 0DF80903#9E44C43D9A3110FF
(1746580019.402000) can0 09F80203#FFFCE0B11400FFFF
(1746580019.403000) can0 09F80103#21B9801A518B11D0
(1746580019.395000) can0 0DF01003#FFFF9E449E459A31
(1746580019.494000) can0 09F80103#21B9801A518B11D0
(1746580019.596000) can0 09F80203#FFFC03B21400FFFF
(1746580019.597000) can0 09F80103#24B9801A518B11D0
(1746580019.696000) can0 09F80103#24B9801A518B11D0
(1746580019.797000) can0 09F80203#FFFC7DB21400FFFF
(1746580019.798000) can0 0DFE1103#600EC0007DB21400
(1746580019.799000) can0 0DFE1103#61FFFFFFFFFFFFFF
(1746580019.800000) can0 0DFE1103#62FFFFFFFFFFFFFF
(1746580019.801000) can0 09F80103#2BB9801A568B11D0
(1746580019.898000) can0 0DF90303#FF7FFFFFFF7FFFFF
(1746580019.899000) can0 09F80103#2BB9801A568B11D0
(1746580019.999000) can0 09F80203#FFFCE5B21400FFFF
(1746580020.000000) can0 09F80103#2AB9801A568B11D0
(1746580020.001000) can0 19FA0603#600F003D02000000
(1746580020.001000) can0 19FA0603#6100000000000000
(1746580020.002000) can0 19FA0603#620000FFFFFFFFFF
(1746580020.101000) can0 19FA0403#A0B75AFF0F07AE1E
(1746580020.102000) can0 19FA0403#A1F1CF6009000000
(1746580020.103000) can0 19FA0403#A200F2088B279574
(1746580020.104000) can0 19FA0403#A3A40600000000F2
(1746580020.104000) can0 19FA0403#A409172209A71C0C
(1746580020.105000) can0 19FA0403#A500000000F2103A
(1746580020.106000) can0 19FA0403#A61939286C070000
(1746580020.107000) can0 19FA0403#A70000F215C604DD
(1746580020.108000) can0 19FA0403#A817000000000000
(1746580020.109000) can0 19FA0403#A9F017DD17FE86D0
(1746580020.110000) can0 19FA0403#AA0700000000F21A
(1746580020.111000) can0 19FA0403#AB8007B92F000000
(1746580020.112000) can0 19FA0403#AC000000F01B9729
(1746580020.113000) can0 19FA0403#ADDC35F00A000000
(1746580020.114000) can0 19FA0403#AE00F21E510E36CD
(1746580020.115000) can0 19FA0403#AF140500000000F2
(1746580020.115000) can0 19FA0403#B0212306A2490000
(1746580020.116000) can0 19FA0403#B100000000F02E8B
(1746580020.117000) can0 19FA0403#B218158B00000000
(1746580020.118000) can0 19FA0403#B30000F033D11595
(1746580020.119000) can0 19FA0403#B492000000000000
(1746580020.120000) can0 19FA0403#B5F01C5D0120AB00
(1746580020.121000) can0 19FA0403#B60000000000F005
(1746580020.122000) can0 19FA0403#B7AF00E5DC000000
(1746580020.123000) can0 19FA0403#B8000000F00B6903
(1746580020.123000) can0 19FA0403#B9AC780000000000
(1746580020.124000) can0 19FA0403#BA00F0FFFFFFFFFF
(1746580020.125000) can0 09F80103#2AB9801A568B11D0
(1746580020.126000) can0 19F11A03#FFF7344034F9FFFF
(1746580020.202000) can0 09F80203#FFFC94B31400FFFF
(1746580020.203000) can0 09F80103#24B9801A548B11D0
(1746580020.303000) can0 0DF80503#202BFA9E441A659A
(1746580020.303000) can0 0DF80503#21310068BE3D04B1
(1746580020.304000) can0 0DF80503#222B0600487804D8
(1746580020.305000) can0 0DF80503#230FD7F4FFFFFFFF
(1746580020.306000) can0 0DF80503#24FFFFFF7F13FC07
(1746580020.307000) can0 0DF80503#257700FF7FFFFFFF
(1746580020.308000) can0 0DF80503#267F00FFFFFFFFFF
(1746580020.309000) can0 09F80103#24B9801A548B11D0
(1746580020.309000) can0 0DF80903#9E441A659A3110FF
(1746580020.403000) can0 09F80203#FFFCC8B31400FFFF
(1746580020.404000) can0 09F80103#15B9801A598B11D0
(1746580020.392000) can0 0DF01003#FFFF9E44906C9A31
(1746580020.491000) can0 09F80103#15B9801A598B11D0
(1746580020.592000) can0 09F80203#FFFC71B31400FFFF
(1746580020.593000) can0 09F80103#01B9801A698B11D0
(1746580020.694000) can0 09F80103#01B9801A698B11D0
(1746580020.795000) can0 09F80203#FFFC2BB31400FFFF
(1746580020.796000) can0 0DFE1103#800EC0012BB31400
(1746580020.797000) can0 0DFE1103#81FFFFFFFFFFFFFF
(1746580020.798000) can0 0DFE1103#82FFFFFFFFFFFFFF
(1746580020.799000) can0 09F80103#00B9801A698B11D0
(1746580020.896000) can0 0DF90303#FF7FFFFFFF7FFFFF
(1746580020.897000) can0 09F80103#00B9801A698B11D0
(1746580020.997000) can0 09F80203#FFFC3DB31400FFFF
(1746580020.998000) can0 09F80103#F6B8801A728B11D0
(1746580020.998000) can0 19FA0603#800F014002000000
(1746580020.999000) can0 19FA0603#8100000000000000
(1746580021.000000) can0 19FA0603#820000FFFFFFFFFF
(1746580021.098000) can0 19FA0403#C0B75BFF0F07AE1E
(1746580021.098000) can0 19FA0403#C1F1CF6009000000
(1746580021.099000) can0 19FA0403#C200F2088B279574
(1746580021.100000) can0 19FA0403#C3A40600000000F2
(1746580021.101000) can0 19FA0403#C409172209A71C0C
(1746580021.102000) can0 19FA0403#C500000000F2103A
(1746580021.103000) can0 19FA0403#C61939286C070000
(1746580021.103000) can0 19FA0403#C70000F215C604DD
(1746580021.104000) can0 19FA0403#C817000000000000
(1746580021.105000) can0 19FA0403#C9F017DD17FE86D0
(1746580021.106000) can0 19FA0403#CA0700000000F21A
(1746580021.107000) can0 19FA0403#CB8007B92F000000
(1746580021.108000) can0 19FA0403#CC000000F01B9729
(1746580021.109000) can0 19FA0403#CDDC35F00A000000
(1746580021.110000) can0 19FA0403#CE00F21E510E36CD
(1746580021.110000) can0 19FA0403#CF140500000000F2
(1746580021.111000) can0 19FA0403#D0212306A2490000
(1746580021.112000) can0 19FA0403#D100000000F02E8B
(1746580021.113000) can0 19FA0403#D218158B00000000
(1746580021.114000) can0 19FA0403#D30000F033D11595
(1746580021.114000) can0 19FA0403#D492000000000000
(1746580021.115000) can0 19FA0403#D5F01C5D0120AB00
(1746580021.116000) can0 19FA0403#D60000000000F005
(1746580021.117000) can0 19FA0403#D7AF00E5DC000000
(1746580021.118000) can0 19FA0403#D8000000F00B6903
(1746580021.119000) can0 19FA0403#D9AC780000000000
(1746580021.119000) can0 19FA0403#DA00F0FFFFFFFFFF
(1746580021.120000) can0 09F80103#F6B8801A728B11D0
(1746580021.121000) can0 19F11A03#FFF7344034F9FFFF
(1746580021.200000) can0 09F80203#FFFC4EB31400FFFF
(1746580021.201000) can0 09F80103#F5B8801A738B11D0
(1746580021.300000) can0 0DF80503#402BFB9E44EE8B9A
(1746580021.301000) can0 0DF80503#41310052534CF9B0
(1746580021.302000) can0 0DF80503#422B0600BE363CDF
(1746580021.303000) can0 0DF80503#430FD7F4FFFFFFFF
(1746580021.304000) can0 0DF80503#44FFFFFF7F13FC07
(1746580021.305000) can0 0DF80503#457700FF7FFFFFFF
(1746580021.306000) can0 0DF80503#467F00FFFFFFFFFF
(1746580021.307000) can0 09F80103#F5B8801A738B11D0
(1746580021.307000) can0 0DF80903#9E44EE8B9A3110FF
(1746580021.401000) can0 09F80203#FFFCF7B21400FFFF
(1746580021.402000) can0 09F80103#F5B8801A738B11D0
(1746580021.445000) can0 0DF01003#FFFF9E44B2959A31
(1746580021.544000) can0 09F80103#F5B8801A738B11D0
(1746580021.645000) can0 09F80203#FFFCB1B21400FFFF
(1746580021.646000) can0 09F80103#D2B8801A8C8B11D0
(1746580021.749000) can0 09F80103#D2B8801A8C8B11D0
(1746580021.850000) can0 09F80203#FFFCB1B21300FFFF
(1746580021.851000) can0 0DFE1103#A00EC002B1B21300
(1746580021.851000) can0 0DFE1103#A1FFFFFFFFFFFFFF
(1746580021.852000) can0 0DFE1103#A2FFFFFFFFFFFFFF
(1746580021.853000) can0 09F80103#D2B8801A8D8B11D0
(1746580021.950000) can0 0DF90303#FF7FFFFFFF7FFFFF
(1746580021.951000) can0 09F80103#D2B8801A8D8B11D0
(1746580022.052000) can0 09F80203#FFFCB1B21300FFFF
(1746580022.053000) can0 09F80103#D1B8801A8D8B11D0
(1746580022.054000) can0 19FA0603#A00F024302000000
(1746580022.054000) can0 19FA0603#A100000000000000
(1746580022.055000) can0 19FA0603#A20000FFFFFFFFFF
(1746580022.153000) can0 19FA0403#E0B75CFF0F07AE1E
(1746580022.154000) can0 19FA0403#E1F1CF6009000000
(1746580022.154000) can0 19FA0403#E200F2088B279574
(1746580022.155000) can0 19FA0403#E3400600000000F2
(1746580022.156000) can0 19FA0403#E409172209A71C0C
(1746580022.157000) can0 19FA0403#E500000000F2103A
(1746580022.158000) can0 19FA0403#E61939286C070000
(1746580022.159000) can0 19FA0403#E70000F215C604DD
(1746580022.160000) can0 19FA0403#E817000000000000
(1746580022.160000) can0 19FA0403#E9F017DD17FE866C
(1746580022.161000) can0 19FA0403#EA0700000000F21A
(1746580022.162000) can0 19FA0403#EB8007B92F000000
(1746580022.163000) can0 19FA0403#EC000000F01B9729
(1746580022.164000) can0 19FA0403#EDDC358C0A000000
(1746580022.164000) can0 19FA0403#EE00F21E510E36CD
(1746580022.165000) can0 19FA0403#EF780500000000F2
(1746580022.166000) can0 19FA0403#F0212306A2490000
(1746580022.167000) can0 19FA0403#F100000000F02E8B
(1746580022.168000) can0 19FA0403#F218158B00000000
(1746580022.169000) can0 19FA0403#F30000F033D11595
(1746580022.169000) can0 19FA0403#F492000000000000
(1746580022.170000) can0 19FA0403#F5F01C5D0120AB00
(1746580022.171000) can0 19FA0403#F60000000000F005
(1746580022.172000) can0 19FA0403#F7AF00E5DC000000
(1746580022.173000) can0 19FA0403#F8000000F00B6903
(1746580022.174000) can0 19FA0403#F9AC780000000000
(1746580022.175000) can0 19FA0403#FA00F0FFFFFFFFFF
(1746580022.175000) can0 09F80103#D1B8801A8D8B11D0
(1746580022.176000) can0 19F11A03#FFF7344034F9FFFF
(1746580022.254000) can0 09F80203#FFFCB1B21300FFFF
(1746580022.254000) can0 09F80103#D1B8801A8D8B11D0
(1746580022.355000) can0 0DF80503#602B009E4424B59A
(1746580022.356000) can0 0DF80503#613100EA8EEAF0B0
(1746580022.357000) can0 0DF80503#622B060042EF49E5
(1746580022.358000) can0 0DF80503#630FD7F4FFFFFFFF
(1746580022.359000) can0 0DF80503#64FFFFFF7F13FC07
(1746580022.360000) can0 0DF80503#657700FF7FFFFFFF
(1746580022.360000) can0 0DF80503#667F00FFFFFFFFFF
(1746580022.361000) can0 09F80103#D1B8801A8D8B11D0
(1746580022.361000) can0 0DF80903#9E4424B59A3110FF
(1746580022.455000) can0 09F80203#FFFCB1B21300FFFF
(1746580022.455000) can0 09F80103#BAB8801AA88B11D0
(1746580022.392000) can0 0DF01003#FFFF9E44B0BA9A31
(1746580022.492000) can0 09F80103#BAB8801AA88B11D0
(1746580022.593000) can0 09F80203#FFFCB1B21300FFFF
(1746580022.594000) can0 09F80103#B9B8801AA88B11D0
(1746580022.731000) can0 09F80103#A4B8801AA68B11D0
(1746580022.832000) can0 09F80203#FFFCB1B21300FFFF
(1746580022.833000) can0 0DFE1103#C00EC003B1B21300
(1746580022.834000) can0 0DFE1103#C1FFFFFFFFFFFFFF
(1746580022.835000) can0 0DFE1103#C2FFFFFFFFFFFFFF
(1746580022.836000) can0 09F80103#A4B8801AA68B11D0
(1746580022.935000) can0 0DF90303#FF7FFFFFFF7FFFFF
(1746580022.936000) can0 09F80103#94B8801AA78B11D0
(1746580023.037000) can0 09F80203#FFFCB1B21300FFFF
(1746580023.038000) can0 09F80103#94B8801AA78B11D0
(1746580023.039000) can0 19FA0603#C00F034702000000
(1746580023.040000) can0 19FA0603#C100000000000000
(1746580023.040000) can0 19FA0603#C20000FFFFFFFFFF
(1746580023.138000) can0 19FA0403#00B75DFF0F07AE1E
(1746580023.139000) can0 19FA0403#01F1CF6009000000
(1746580023.140000) can0 19FA0403#0200F2088B279574
(1746580023.141000) can0 19FA0403#03400600000000F2
(1746580023.142000) can0 19FA0403#0409172209A71C0C
(1746580023.143000) can0 19FA0403#0500000000F2103A
(1746580023.144000) can0 19FA0403#061939286C070000
(1746580023.145000) can0 19FA0403#070000F215C604DD
(1746580023.146000) can0 19FA0403#0817000000000000
(1746580023.146000) can0 19FA0403#09F017DD17FE866C
(1746580023.147000) can0 19FA0403#0A0700000000F21A
(1746580023.148000) can0 19FA0403#0B8007B92F000000
(1746580023.149000) can0 19FA0403#0C000000F01B9729
(1746580023.150000) can0 19FA0403#0DDC358C0A000000
(1746580023.151000) can0 19FA0403#0E00F21E510E36CD
(1746580023.151000) can0 19FA0403#0F780500000000F2
(1746580023.152000) can0 19FA0403#10212306A2490000
(1746580023.153000) can0 19FA0403#1100000000F02E8B
(1746580023.154000) can0 19FA0403#1218158B00000000
(1746580023.155000) can0 19FA0403#130000F033D11595
(1746580023.155000) can0 19FA0403#1492000000000000
(1746580023.156000) can0 19FA0403#15F01C5D0120AB00
(1746580023.157000) can0 19FA0403#160000000000F005
(1746580023.158000) can0 19FA0403#17AF00E5DC000000
(1746580023.159000) can0 19FA0403#18000000F00B6903
(1746580023.162000) can0 19FA0403#19AC780000000000
(1746580023.162000) can0 19FA0403#1A00F0FFFFFFFFFF
(1746580023.163000) can0 09F80103#80B8801AAC8B11D0
(1746580023.164000) can0 19F11A03#FFF7344034F9FFFF
(1746580023.239000) can0 09F80203#FFFCCEB41400FFFF
(1746580023.240000) can0 09F80103#80B8801AAC8B11D0
(1746580023.345000) can0 0DF80503#802B019E44DEE19A
(1746580023.346000) can0 0DF80503#8131007CDC00D8B0
(1746580023.347000) can0 0DF80503#822B060030EF4CEF
(1746580023.348000) can0 0DF80503#830FD7F4FFFFFFFF
(1746580023.349000) can0 0DF80503#84FFFFFF7F13FC07
(1746580023.350000) can0 0DF80503#857700FF7FFFFFFF
(1746580023.351000) can0 0DF80503#867F00FFFFFFFFFF
(1746580023.352000) can0 09F80103#66B8801AB88B11D0
(1746580023.353000) can0 0DF80903#9E44DEE19A3110FF
(1746580023.445000) can0 09F80203#FFFCA5B31400FFFF
(1746580023.446000) can0 09F80103#66B8801AB88B11D0
(1746580023.395000) can0 0DF01003#FFFF9E44DEE19A31
(1746580023.494000) can0 09F80103#47B8801ACA8B11D0
(1746580023.595000) can0 09F80203#FFFC54A21600FFFF
(1746580023.596000) can0 09F80103#47B8801ACA8B11D0
(1746580023.696000) can0 09F80103#49B8801AD08B11D0
(1746580023.797000) can0 09F80203#FFFCD4A01600FFFF
(1746580023.798000) can0 0DFE1103#E00EC004D4A01600
(1746580023.799000) can0 0DFE1103#E1FFFFFFFFFFFFFF
(1746580023.800000) can0 0DFE1103#E2FFFFFFFFFFFFFF
(1746580023.801000) can0 09F80103#49B8801AD08B11D0
(1746580023.898000) can0 0DF90303#FF7FFFFFFF7FFFFF
(1746580023.899000) can0 09F80103#44B8801AD78B11D0
(1746580024.001000) can0 09F80203#FFFC26A01600FFFF
(1746580024.002000) can0 09F80103#44B8801AD78B11D0
(1746580024.003000) can0 19FA0603#E00F044C02000000
(1746580024.004000) can0 19FA0603#E100000000000000
(1746580024.005000) can0 19FA0603#E20000FFFFFFFFFF
(1746580024.102000) can0 19FA0403#20B75EFF0F075D1F
(1746580024.103000) can0 19FA0403#21F1CFFC08000000
(1746580024.104000) can0 19FA0403#2200F2088B279574
(1746580024.105000) can0 19FA0403#23780500000000F2
(1746580024.106000) can0 19FA0403#240917225AA61C0C
(1746580024.107000) can0 19FA0403#2500000000F2103A
(1746580024.108000) can0 19FA0403#2619392808070000
(1746580024.108000) can0 19FA0403#270000F215C604DD
(1746580024.109000) can0 19FA0403#2817000000000000
(1746580024.110000) can0 19FA0403#29F017DD17FE866C
(1746580024.111000) can0 19FA0403#2A0700000000F21A
(1746580024.112000) can0 19FA0403#2B8007B92F000000
(1746580024.113000) can0 19FA0403#2C000000F01B9729
(1746580024.113000) can0 19FA0403#2DDC35F00A000000
(1746580024.114000) can0 19FA0403#2E00F21E510E36CD
(1746580024.115000) can0 19FA0403#2F4C0400000000F2
(1746580024.116000) can0 19FA0403#30212306A2490000
(1746580024.117000) can0 19FA0403#3100000000F02E8B
(1746580024.118000) can0 19FA0403#3218158B00000000
(1746580024.119000) can0 19FA0403#330000F033D11595
(1746580024.120000) can0 19FA0403#3492000000000000
(1746580024.120000) can0 19FA0403#35F01C5D0120AB00
(1746580024.121000) can0 19FA0403#360000000000F005
(1746580024.122000) can0 19FA0403#37AF00E5DC000000
(1746580024.123000) can0 19FA0403#38000000F00B6903
(1746580024.124000) can0 19FA0403#39AC780000000000
(1746580024.125000) can0 19FA0403#3A00F0FFFFFFFFFF
(1746580024.126000) can0 09F80103#4CB8801AD48B11D0
(1746580024.126000) can0 19F11A03#FFF7344034F9FFFF
(1746580024.204000) can0 09F80203#FFFCA0A01600FFFF
(1746580024.205000) can0 09F80103#4CB8801AD48B11D0
(1746580024.305000) can0 0DF80503#A02B029E44E4089B
(1746580024.306000) can0 0DF80503#A13100B4C458D3B0
(1746580024.307000) can0 0DF80503#A22B06007E4296F5
(1746580024.307000) can0 0DF80503#A30FD7F4FFFFFFFF
(1746580024.308000) can0 0DF80503#A4FFFFFF7F13FC07
(1746580024.309000) can0 0DF80503#A57700FF7FFFFFFF
(1746580024.310000) can0 0DF80503#A67F00FFFFFFFFFF
(1746580024.311000) can0 09F80103#52B8801AD38B11D0
(1746580024.312000) can0 0DF80903#9E44E4089B3110FF
(1746580024.407000) can0 09F80203#FFFCFDA11600FFFF
(1746580024.408000) can0 09F80103#52B8801AD38B11D0
(1746580024.394000) can0 0DF01003#FFFF9E44E4089B31
(1746580024.494000) can0 09F80103#54B8801AD78B11D0
(1746580024.595000) can0 09F80203#FFFCD4A31600FFFF
(1746580024.596000) can0 09F80103#54B8801AD78B11D0
(1746580024.597000) can0 19F81403#E014573834000000
(1746580024.598000) can0 19F81403#E100000000000000
(1746580024.598000) can0 19F81403#E200000057383400
(1746580024.696000) can0 09F80103#4BB8801AD78B11D0
(1746580024.797000) can0 09F80203#FFFC54A51600FFFF
(1746580024.798000) can0 0DFE1103#000EC00554A51600
(1746580024.799000) can0 0DFE1103#01FFFFFFFFFFFFFF
(1746580024.800000) can0 0DFE1103#02FFFFFFFFFFFFFF
(1746580024.801000) can0 09F80103#4BB8801AD78B11D0
(1746580024.898000) can0 0DF90303#FF7FFFFFFF7FFFFF
(1746580024.899000) can0 09F80103#46B8801AD18B11D0
(1746580024.999000) can0 09F80203#FFFC2BA71600FFFF
(1746580025.000000) can0 09F80103#46B8801AD18B11D0
(1746580025.001000) can0 19FA0603#000F055202000000
(1746580025.002000) can0 19FA0603#0100000000000000
(1746580025.003000) can0 19FA0603#020000FFFFFFFFFF
(1746580025.100000) can0 19FA0403#40B75FFF0F075D1F
(1746580025.101000) can0 19FA0403#41F1CFFC08000000
(1746580025.102000) can0 19FA0403#4200F2088B279574
(1746580025.103000) can0 19FA0403#43780500000000F2
(1746580025.104000) can0 19FA0403#440917225AA61C0C
(1746580025.105000) can0 19FA0403#4500000000F2103A
(1746580025.106000) can0 19FA0403#4619392808070000
(1746580025.106000) can0 19FA0403#470000F215C604DD
(1746580025.107000) can0 19FA0403#4817000000000000
(1746580025.108000) can0 19FA0403#49F017DD17FE866C
(1746580025.109000) can0 19FA0403#4A0700000000F21A
(1746580025.110000) can0 19FA0403#4B8007B92F000000
(1746580025.111000) can0 19FA0403#4C000000F01B9729
(1746580025.112000) can0 19FA0403#4DDC35F00A000000
(1746580025.112000) can0 19FA0403#4E00F21E510E36CD
(1746580025.113000) can0 19FA0403#4F4C0400000000F2
(1746580025.114000) can0 19FA0403#50212306A2490000
(1746580025.115000) can0 19FA0403#5100000000F02E8B
(1746580025.116000) can0 19FA0403#5218158B00000000
(1746580025.117000) can0 19FA0403#530000F033D11595
(1746580025.118000) can0 19FA0403#5492000000000000
(1746580025.118000) can0 19FA0403#55F01C5D0120AB00
(1746580025.119000) can0 19FA0403#560000000000F005
(1746580025.120000) can0 19FA0403#57AF00E5DC000000
(1746580025.121000) can0 19FA0403#58000000F00B6903
(1746580025.122000) can0 19FA0403#59AC780000000000
(1746580025.123000) can0 19FA0403#5A00F0FFFFFFFFFF
(1746580025.124000) can0 09F80103#43B8801AC98B11D0
(1746580025.124000) can0 19F11A03#FFF7344034F9FFFF
(1746580025.125000) can0 1CFF1F03#3B9FFF34F9FFFFFF
(1746580025.202000) can0 09F80203#FFFC26A91600FFFF
(1746580025.203000) can0 09F80103#43B8801AC98B11D0
(1746580025.302000) can0 0DF80503#C02B039E44FE2F9B
(1746580025.303000) can0 0DF80503#C13100A84D16D0B0
(1746580025.304000) can0 0DF80503#C22B06000601CBF2
(1746580025.305000) can0 0DF80503#C30FD7F4FFFFFFFF
(1746580025.306000) can0 0DF80503#C4FFFFFF7F13FC07
(1746580025.307000) can0 0DF80503#C57700FF7FFFFFFF
(1746580025.308000) can0 0DF80503#C67F00FFFFFFFFFF
(1746580025.309000) can0 09F80103#44B8801AC78B11D0
(1746580025.310000) can0 0DF80903#9E44FE2F9B3110FF
(1746580025.405000) can0 09F80203#FFFC66AB1700FFFF
(1746580025.406000) can0 09F80103#44B8801AC78B11D0
(1746580025.395000) can0 0DF01003#FFFF9E44FE2F9B31
(1746580025.494000) can0 09F80103#50B8801AC68B11D0
(1746580025.595000) can0 09F80203#FFFCA0B81B00FFFF
(1746580025.596000) can0 09F80103#50B8801AC68B11D0
(1746580025.597000) can0 1CFF5203#3B9FC0C7FFFFFFFF
(1746580025.696000) can0 09F80103#55B8801AC78B11D0
(1746580025.798000) can0 09F80203#FFFC5FC22100FFFF
(1746580025.799000) can0 0DFE1103#200EC0065FC22100
(1746580025.800000) can0 0DFE1103#21FFFFFFFFFFFFFF
(1746580025.800000) can0 0DFE1103#22FFFFFFFFFFFFFF
(1746580025.801000) can0 09F80103#55B8801AC78B11D0
(1746580025.899000) can0 0DF90303#FF7FFFFFFF7FFFFF
(1746580025.900000) can0 09F80103#49B8801ACE8B11D0
(1746580026.000000) can0 09F80203#FFFC0EC32100FFFF
(1746580026.001000) can0 09F80103#49B8801ACE8B11D0
(1746580026.002000) can0 19FA0603#200F065702000000
(1746580026.003000) can0 19FA0603#2100000000000000
(1746580026.003000) can0 19FA0603#220000FFFFFFFFFF
(1746580026.004000) can0 1DFF1E03#E00C3B9F13033DCB
(1746580026.005000) can0 1DFF1E03#E109066200FFFFFF
(1746580026.101000) can0 19FA0403#60B760FF0F075D1F
(1746580026.102000) can0 19FA0403#61F1CFFC08000000
(1746580026.103000) can0 19FA0403#6200F2088B279574
(1746580026.104000) can0 19FA0403#63DC0500000000F2
(1746580026.105000) can0 19FA0403#640917225AA61C0C
(1746580026.105000) can0 19FA0403#6500000000F20B17
(1746580026.106000) can0 19FA0403#6604FE7700000000
(1746580026.107000) can0 19FA0403#670000F0103A1939
(1746580026.108000) can0 19FA0403#6828A40600000000
(1746580026.109000) can0 19FA0403#69F215C604DD1700
(1746580026.110000) can0 19FA0403#6A0000000000F017
(1746580026.111000) can0 19FA0403#6BDD17FE86080700
(1746580026.112000) can0 19FA0403#6C000000F21A8007
(1746580026.112000) can0 19FA0403#6DB92F0000000000
(1746580026.113000) can0 19FA0403#6E00F01B9729DC35
(1746580026.114000) can0 19FA0403#6F8C0A00000000F2
(1746580026.115000) can0 19FA0403#701E510E36CDB004
(1746580026.116000) can0 19FA0403#7100000000F22123
(1746580026.117000) can0 19FA0403#7206A24900000000
(1746580026.118000) can0 19FA0403#730000F02E8B1815
(1746580026.118000) can0 19FA0403#748B000000000000
(1746580026.119000) can0 19FA0403#75F033D115959200
(1746580026.120000) can0 19FA0403#760000000000F01C
(1746580026.121000) can0 19FA0403#775D0120AB000000
(1746580026.122000) can0 19FA0403#78000000F005AF00
(1746580026.123000) can0 19FA0403#79E5DC0000000000
(1746580026.124000) can0 19FA0403#7A00F0FFFFFFFFFF
(1746580026.125000) can0 09F80103#43B8801AD18B11D0
(1746580026.125000) can0 19F11A03#FFF7344034F9FFFF
(1746580026.126000) can0 1DF01103#60EA1FCFFFFFFFFF
(1746580026.202000) can0 09F80203#FFFC99C32200FFFF
(1746580026.203000) can0 09F80103#43B8801AD18B11D0
(1746580026.303000) can0 0DF80503#E02B049E44F0569B
(1746580026.304000) can0 0DF80503#E13100A84D16D0B0
(1746580026.305000) can0 0DF80503#E22B06007E4296F5
(1746580026.305000) can0 0DF80503#E30FD7F4FFFFFFFF
(1746580026.306000) can0 0DF80503#E4FFFFFF7F13FC07
(1746580026.307000) can0 0DF80503#E57700FF7FFFFFFF
(1746580026.308000) can0 0DF80503#E67F00FFFFFFFFFF
(1746580026.309000) can0 09F80103#44B8801AD38B11D0
(1746580026.310000) can0 0DF80903#9E44F0569B3110FF
(1746580026.404000) can0 09F80203#FFFC48C42200FFFF
(1746580026.405000) can0 09F80103#44B8801AD38B11D0
(1746580026.392000) can0 0DF01003#FFFF9E44F0569B31
(1746580026.495000) can0 09F80103#3EB8801AD28B11D0
(1746580026.596000) can0 09F80203#FFFCD4C42300FFFF
(1746580026.597000) can0 09F80103#3EB8801AD28B11D0
(1746580026.697000) can0 09F80103#47B8801AC88B11D0
(1746580026.798000) can0 09F80203#FFFCD9C52300FFFF
(1746580026.799000) can0 0DFE1103#400EC007D9C52300
(1746580026.800000) can0 0DFE1103#41FFFFFFFFFFFFFF
(1746580026.800000) can0 0DFE1103#42FFFFFFFFFFFFFF
(1746580026.801000) can0 09F80103#47B8801AC88B11D0
(1746580026.899000) can0 0DF90303#FF7FFFFFFF7FFFFF
(1746580026.899000) can0 09F80103#3EB8801ACE8B11D0
(1746580026.999000) can0 09F80203#FFFC88C62400FFFF
(1746580027.000000) can0 09F80103#3EB8801ACE8B11D0
(1746580027.001000) can0 19FA0603#400F075C02000000
(1746580027.002000) can0 19FA0603#4100000000000000
(1746580027.003000) can0 19FA0603#420000FFFFFFFFFF
(1746580027.100000) can0 19FA0403#80B761FF0F075D1F
(1746580027.101000) can0 19FA0403#81F1CFFC08000000
(1746580027.102000) can0 19FA0403#8200F2088B279574
(1746580027.103000) can0 19FA0403#83DC0500000000F2
(1746580027.104000) can0 19FA0403#840917225AA61C0C
(1746580027.104000) can0 19FA0403#8500000000F20B17
(1746580027.105000) can0 19FA0403#8604FE7700000000
(1746580027.106000) can0 19FA0403#870000F0103A1939
(1746580027.107000) can0 19FA0403#8828A40600000000
(1746580027.108000) can0 19FA0403#89F215C604DD1700
(1746580027.109000) can0 19FA0403#8A0000000000F017
(1746580027.110000) can0 19FA0403#8BDD17FE86080700
(1746580027.110000) can0 19FA0403#8C000000F21A8007
(1746580027.111000) can0 19FA0403#8DB92F0000000000
(1746580027.112000) can0 19FA0403#8E00F01B9729DC35
(1746580027.113000) can0 19FA0403#8F8C0A00000000F2
(1746580027.114000) can0 19FA0403#901E510E36CDB004
(1746580027.115000) can0 19FA0403#9100000000F22123
(1746580027.115000) can0 19FA0403#9206A24900000000
(1746580027.116000) can0 19FA0403#930000F02E8B1815
(1746580027.117000) can0 19FA0403#948B000000000000
(1746580027.118000) can0 19FA0403#95F033D115959200
(1746580027.119000) can0 19FA0403#960000000000F01C
(1746580027.120000) can0 19FA0403#975D0120AB000000
(1746580027.121000) can0 19FA0403#98000000F005AF00
(1746580027.121000) can0 19FA0403#99E5DC0000000000
(1746580027.122000) can0 19FA0403#9A00F0FFFFFFFFFF
(1746580027.123000) can0 09F80103#2AB8801ADC8B11D0
(1746580027.124000) can0 19F11A03#FFF7344034F9FFFF
(1746580027.201000) can0 09F80203#FFFC99C62400FFFF
(1746580027.202000) can0 09F80103#2AB8801ADC8B11D0
(1746580027.302000) can0 0DF80503#002B059E44147E9B
(1746580027.303000) can0 0DF80503#013100A0DCFAC3B0
(1746580027.304000) can0 0DF80503#022B0600465A3EFA
(1746580027.305000) can0 0DF80503#030FD7F4FFFFFFFF
(1746580027.305000) can0 0DF80503#04FFFFFF7F13FC07
(1746580027.306000) can0 0DF80503#057700FF7FFFFFFF
(1746580027.307000) can0 0DF80503#067F00FFFFFFFFFF
(1746580027.308000) can0 09F80103#10B8801AE78B11D0
(1746580027.309000) can0 0DF80903#9E44147E9B3110FF
(1746580027.403000) can0 09F80203#FFFCEBC52400FFFF
(1746580027.404000) can0 09F80103#10B8801AE78B11D0
(1746580027.394000) can0 0DF01003#FFFF9E44147E9B31
(1746580027.494000) can0 09F80103#06B8801AE68B11D0
(1746580027.594000) can0 09F80203#FFFC19C52300FFFF
(1746580027.595000) can0 09F80103#06B8801AE68B11D0
(1746580027.695000) can0 09F80103#00B8801AE68B11D0
(1746580027.803000) can0 09F80203#FFFC7CC42300FFFF
(1746580027.804000) can0 0DFE1103#600EC0087CC42300
(1746580027.805000) can0 0DFE1103#61FFFFFFFFFFFFFF
(1746580027.806000) can0 0DFE1103#62FFFFFFFFFFFFFF
(1746580027.806000) can0 09F80103#00B8801AE68B11D0
(1746580027.904000) can0 0DF90303#FF7FFFFFFF7FFFFF
(1746580027.905000) can0 09F80103#F7B7801AE58B11D0
(1746580028.005000) can0 09F80203#FFFCDFC32300FFFF
(1746580028.005000) can0 09F80103#F7B7801AE58B11D0
(1746580028.006000) can0 19FA0603#600F086002000000
(1746580028.007000) can0 19FA0603#6100000000000000
(1746580028.008000) can0 19FA0603#620000FFFFFFFFFF
(1746580028.105000) can0 19FA0403#A0B762FF0F075D1F
(1746580028.106000) can0 19FA0403#A1F1CFFC08000000
(1746580028.107000) can0 19FA0403#A200F2088B279574
(1746580028.108000) can0 19FA0403#A3DC0500000000F2
(1746580028.109000) can0 19FA0403#A40917225AA61C0C
(1746580028.110000) can0 19FA0403#A500000000F20B17
(1746580028.111000) can0 19FA0403#A604FE7700000000
(1746580028.112000) can0 19FA0403#A70000F0103A1939
(1746580028.112000) can0 19FA0403#A828A40600000000
(1746580028.113000) can0 19FA0403#A9F215C604DD1700
(1746580028.114000) can0 19FA0403#AA0000000000F017
(1746580028.115000) can0 19FA0403#ABDD17FE86080700
(1746580028.116000) can0 19FA0403#AC000000F21A8007
(1746580028.117000) can0 19FA0403#ADB92F0000000000
(1746580028.118000) can0 19FA0403#AE00F01B9729DC35
(1746580028.119000) can0 19FA0403#AF8C0A00000000F2
(1746580028.120000) can0 19FA0403#B01E510E36CD4C04
(1746580028.121000) can0 19FA0403#B100000000F22123
(1746580028.121000) can0 19FA0403#B206A24900000000
(1746580028.122000) can0 19FA0403#B30000F02E8B1815
(1746580028.123000) can0 19FA0403#B48B000000000000
(1746580028.124000) can0 19FA0403#B5F033D115959200
(1746580028.125000) can0 19FA0403#B60000000000F01C
(1746580028.126000) can0 19FA0403#B75D0120AB000000
(1746580028.127000) can0 19FA0403#B8000000F005AF00
(1746580028.128000) can0 19FA0403#B9E5DC0000000000
(1746580028.129000) can0 19FA0403#BA00F0FFFFFFFFFF
(1746580028.129000) can0 09F80103#F1B7801AE38B11D0
(1746580028.130000) can0 19F11A03#FFF7344034F9FFFF
(1746580028.206000) can0 09F80203#FFFC54C32200FFFF
(1746580028.207000) can0 09F80103#F1B7801AE38B11D0
(1746580028.308000) can0 0DF80503#202B069E4406A59B
(1746580028.309000) can0 0DF80503#2131007C7733BAB0
(1746580028.310000) can0 0DF80503#222B06008AB9D8F8
(1746580028.311000) can0 0DF80503#230FD7F4FFFFFFFF
(1746580028.312000) can0 0DF80503#24FFFFFF7F13FC07
