(1746135413.315256) can0 0DF01003#49F0FFFFFFFFFFFF
(1746135413.315256) can0 1DF11A03#4AFFFFFF2FFDFFFF
(1746135413.322518) can0 18FF3D01#419FFFFF02FFFFFF
(1746135413.322519) can0 09F10501#00153038FFFF7FFF
(1746135413.323622) can0 09F10501#01FFFFFF0B11FFFF
(1746135413.323622) can0 09F10501#02FF7FFF7FFF7FFF
(1746135413.324761) can0 09F10501#03FFFFFFFFFFFFFF
(1746135413.324762) can0 09F10D01#FF000000FF7FFFFF
(1746135413.364837) can0 09F80103#FFFFFF7FFFFFFF7F
(1746135413.364842) can0 09FD0205#FFFFFFFFFFF8FFFF
(1746135413.374507) can0 09F10D07#FF07FF7F52E1FFFF
(1746135413.374508) can0 09F10D00#FF07FF7F0000FFFF
(1746135413.414400) can0 1CFF1906#419F010B00000000
(1746135413.463883) can0 09F80103#FFFFFF7FFFFFFF7F
(1746135413.513462) can0 1DF11A04#48FFFFFF2FFDFFFF
(1746135413.513464) can0 09F80203#4AFFFFFFFFFFFFFF
(1746135413.514556) can0 09FD0205#FFFFFFFFFFFBFFFF
(1746135413.524668) can0 09F10D07#FF07FF7F52E1FFFF
(1746135413.524670) can0 09F10D00#FF07FF7F0000FFFF
(1746135413.538202) can0 08FF0005#1399040500000200
(1746135413.565881) can0 09F80103#FFFFFF7FFFFFFF7F
(1746135413.574576) can0 18FF3D01#419FFFFF02FFFFFF
(1746135413.574577) can0 09F10501#20153038FFFF7FFF
(1746135413.575752) can0 09F10501#21FFFFFF0B11FFFF
(1746135413.575753) can0 09F10501#22FF7FFF7FFF7FFF
(1746135413.576910) can0 09F10501#23FFFFFFFFFFFFFF
(1746135413.576911) can0 09F10D01#FF000000FF7FFFFF
(1746135413.624398) can0 09F10D07#FF07FF7F52E1FFFF
(1746135413.624399) can0 09F10D00#FF07FF7F0000FFFF
(1746135413.664880) can0 09F80103#FFFFFF7FFFFFFF7F
(1746135413.664881) can0 09FD0205#FFFFFFFFFFF8FFFF
(1746135413.763845) can0 09F80103#FFFFFF7FFFFFFF7F
(1746135413.763846) can0 09F80203#4AFFFFFFFFFFFFFF
(1746135413.764989) can0 0DF80503#E02B4AFFFFFFFFFF
(1746135413.764992) can0 0DF80503#E1FFFFFFFFFFFFFF
(1746135413.766212) can0 0DF80503#E2FF7FFFFFFFFFFF
(1746135413.766213) can0 0DF80503#E3FFFF7FFFFFFFFF
(1746135413.767355) can0 0DF80503#E4FFFFFF7F00FCFF
(1746135413.767356) can0 0DF80503#E5FF7FFF7FFFFFFF
(1746135413.768480) can0 0DF80503#E67FFFFFFFFFFFFF
(1746135413.775021) can0 18FF3D01#419FFFFF02FFFFFF
(1746135413.775022) can0 09F10501#40153038FFFF7FFF
(1746135413.776153) can0 09F10501#41FFFFFF0B11FFFF
(1746135413.776154) can0 09F10501#42FF7FFF7FFF7FFF
(1746135413.777335) can0 09F10501#43FFFFFFFFFFFFFF
(1746135413.777336) can0 09F10D07#FF07FF7F52E1FFFF
(1746135413.778476) can0 09F10D00#FF07FF7F0000FFFF
(1746135413.778478) can0 09F10D01#FF000000FF7FFFFF
(1746135413.791782) can0 08FF0005#1399040500000200
(1746135413.813521) can0 09FD0205#FFFFFFFFFFFBFFFF
(1746135413.865848) can0 09F80103#FFFFFF7FFFFFFF7F
(1746135413.915335) can0 1CFF1906#419F010300000000
(1746135413.915336) can0 0DF90304#483FFFFFFF7FFFFF
(1746135413.916390) can0 0DF90404#E02248FFFFFFFFFF
(1746135413.916391) can0 0DF90404#E1FFFFFFFFFFFFFF
(1746135413.917529) can0 0DF90404#E2FFFFFFFFFFFFFF
(1746135413.917530) can0 0DF90404#E3FFFFFFFFFFFFFF
(1746135413.918719) can0 0DF90404#E47FFFFFFF7FFF7F
(1746135413.918720) can0 1DF90504#C027FFFF0200FFFF
(1746135413.919897) can0 1DF90504#C1FFFF01030100FF
(1746135413.919899) can0 1DF90504#C20000030100FFFF
(1746135413.921118) can0 1DF90504#C3FF7FFFFFFF7F01
(1746135413.921119) can0 1DF90504#C400030100FFFFFF
(1746135413.922290) can0 1DF90504#C57FFFFFFF7FFFFF
(1746135413.922291) can0 19FA0303#4AFFFF7FFF7FFF7F
(1746135413.923419) can0 19FA0403#C0034AFFFFFFFFFF
(1746135413.923420) can0 0DFE1105#A00EFFFFFFFFFFFF
(1746135413.924625) can0 0DFE1105#A1FFFFFFFFFFFFFF
(1746135413.924626) can0 09F10D07#FF07FF7F52E1FFFF
(1746135413.925662) can0 09F10D00#FF07FF7F0000FFFF
(1746135413.925663) can0 0DFE1105#A2FFFFFFFFFFFFFF
(1746135413.926935) can0 1DFF2C01#E017419F00000000
(1746135413.926936) can0 1DFF2C01#E100FFFFFF7FFFFF
(1746135413.927981) can0 1DFF2C01#E2FFFFFFFFFF7FFF
(1746135413.927982) can0 1DFF2C01#E3FFFF7FFFFFFFFF
(1746135413.948761) can0 04FF1901#419F640A08000000
(1746135413.964864) can0 09F80103#FFFFFF7FFFFFFF7F
(1746135413.964865) can0 09FD0205#FFFFFFFFFFF8FFFF
(1746135414.014492) can0 09F80203#4AFFFFFFFFFFFFFF
(1746135414.024762) can0 18FF3D01#419FFFFF02FFFFFF
(1746135414.024764) can0 09F10501#60153038FFFF7FFF
(1746135414.025919) can0 09F10501#61FFFFFF0B11FFFF
(1746135414.025920) can0 09F10501#62FF7FFF7FFF7FFF
(1746135414.027079) can0 09F10501#63FFFFFFFFFFFFFF
(1746135414.027080) can0 09F10D01#FF000000FF7FFFFF
(1746135414.039282) can0 08FF0005#1399040500000200
(1746135414.064030) can0 09F80103#FFFFFF7FFFFFFF7F
(1746135414.074607) can0 09F10D07#FF07FF7F52E1FFFF
(1746135414.074609) can0 09F10D00#FF07FF7F0000FFFF
(1746135414.113543) can0 09FD0205#FFFFFFFFFFFBFFFF
(1746135414.165866) can0 09F80103#FFFFFF7FFFFFFF7F
(1746135414.199774) can0 04FF1901#419F640202010000
(1746135414.222608) can0 18FF3D01#419FFFFF02FFFFFF
(1746135414.222610) can0 09F10501#80153038FFFF7FFF
(1746135414.223682) can0 09F10501#81FFFFFF0B11FFFF
(1746135414.223683) can0 09F10501#82FF7FFF7FFF7FFF
(1746135414.224867) can0 09F10501#83FFFFFFFFFFFFFF
(1746135414.224869) can0 09F10D07#FF07FF7F52E1FFFF
(1746135414.226036) can0 09F10D00#FF07FF7F0000FFFF
(1746135414.226037) can0 09F10D01#FF000000FF7FFFFF
(1746135414.264909) can0 09F80103#FFFFFF7FFFFFFF7F
(1746135414.264911) can0 09F80203#4AFFFFFFFFFFFFFF
(1746135414.266041) can0 09FD0205#FFFFFFFFFFF8FFFF
(1746135414.289619) can0 08FF0005#1399040500000200
(1746135414.314421) can0 0DF01003#4AF0FFFFFFFFFFFF
(1746135414.314423) can0 1DF11A03#4BFFFFFF2FFDFFFF
(1746135414.324374) can0 09F10D07#FF07FF7F52E1FFFF
(1746135414.324375) can0 09F10D00#FF07FF7F0000FFFF
(1746135414.363880) can0 09F80103#FFFFFF7FFFFFFF7F
(1746135414.413411) can0 1CFF1906#419F010B00000000
(1746135414.413413) can0 09FD0205#FFFFFFFFFFFBFFFF
(1746135414.465756) can0 09F80103#FFFFFF7FFFFFFF7F
(1746135414.472476) can0 18FF3D01#419FFFFF02FFFFFF
(1746135414.472477) can0 09F10501#A0153038FFFF7FFF
(1746135414.473597) can0 09F10501#A1FFFFFF0B11FFFF
(1746135414.473598) can0 09F10501#A2FF7FFF7FFF7FFF
(1746135414.474765) can0 09F10501#A3FFFFFFFFFFFFFF
(1746135414.474766) can0 09F10D07#FF07FF7F52E1FFFF
(1746135414.475910) can0 09F10D00#FF07FF7F0000FFFF
(1746135414.475911) can0 09F10D01#FF000000FF7FFFFF
(1746135414.515199) can0 1DF11A04#49FFFFFF2FFDFFFF
(1746135414.515200) can0 09F80203#4BFFFFFFFFFFFFFF
(1746135414.539996) can0 08FF0005#1399040500000200
(1746135414.564849) can0 09F80103#FFFFFF7FFFFFFF7F
(1746135414.564850) can0 09FD0205#FFFFFFFFFFF8FFFF
(1746135414.574289) can0 09F10D07#FF07FF7F52E1FFFF
(1746135414.574290) can0 09F10D00#FF07FF7F0000FFFF
(1746135414.663833) can0 09F80103#FFFFFF7FFFFFFF7F
(1746135414.713433) can0 09FD0205#FFFFFFFFFFFBFFFF
(1746135414.724532) can0 18FF3D01#419FFFFF02FFFFFF
(1746135414.724533) can0 09F10501#C0153038FFFF7FFF
(1746135414.725648) can0 09F10501#C1FFFFFF0B11FFFF
(1746135414.725649) can0 09F10501#C2FF7FFF7FFF7FFF
(1746135414.726841) can0 09F10501#C3FFFFFFFFFFFFFF
(1746135414.726841) can0 09F10D07#FF07FF7F52E1FFFF
(1746135414.727965) can0 09F10D00#FF07FF7F0000FFFF
(1746135414.727965) can0 09F10D01#FF000000FF7FFFFF
(1746135414.765807) can0 09F80103#FFFFFF7FFFFFFF7F
(1746135414.765809) can0 09F80203#4BFFFFFFFFFFFFFF
(1746135414.766948) can0 0DF80503#002B4BFFFFFFFFFF
(1746135414.766950) can0 0DF80503#01FFFFFFFFFFFFFF
(1746135414.768084) can0 0DF80503#02FF7FFFFFFFFFFF
(1746135414.768085) can0 0DF80503#03FFFF7FFFFFFFFF
(1746135414.769303) can0 0DF80503#04FFFFFF7F00FCFF
(1746135414.769304) can0 0DF80503#05FF7FFF7FFFFFFF
(1746135414.770487) can0 0DF80503#067FFFFFFFFFFFFF
(1746135414.790594) can0 08FF0005#1399040500000200
(1746135414.824516) can0 09F10D07#FF07FF7F52E1FFFF
(1746135414.824518) can0 09F10D00#FF07FF7F0000FFFF
(1746135414.864859) can0 09F80103#FFFFFF7FFFFFFF7F
(1746135414.864860) can0 09FD0205#FFFFFFFFFFF8FFFF
(1746135414.914406) can0 1CFF1906#419F010300000000
(1746135414.914407) can0 0DF90304#493FFFFFFF7FFFFF
(1746135414.915541) can0 0DF90404#002249FFFFFFFFFF
(1746135414.915542) can0 0DF90404#01FFFFFFFFFFFFFF
(1746135414.916731) can0 0DF90404#02FFFFFFFFFFFFFF
(1746135414.916731) can0 0DF90404#03FFFFFFFFFFFFFF
(1746135414.917922) can0 0DF90404#047FFFFFFF7FFF7F
(1746135414.917923) can0 19FA0303#4BFFFF7FFF7FFF7F
(1746135414.919066) can0 19FA0403#E0034BFFFFFFFFFF
(1746135414.919066) can0 0DFE1105#C00EFFFFFFFFFFFF
(1746135414.920254) can0 0DFE1105#C1FFFFFFFFFFFFFF
(1746135414.920254) can0 0DFE1105#C2FFFFFFFFFFFFFF
(1746135414.949095) can0 04FF1901#419F640A08000000
(1746135414.966950) can0 09F80103#FFFFFF7FFFFFFF7F
(1746135414.974267) can0 18FF3D01#419FFFFF02FFFFFF
(1746135414.974268) can0 09F10501#E0153038FFFF7FFF
(1746135414.975432) can0 09F10501#E1FFFFFF0B11FFFF
(1746135414.975433) can0 09F10501#E2FF7FFF7FFF7FFF
(1746135414.976584) can0 09F10501#E3FFFFFFFFFFFFFF
(1746135414.976585) can0 09F10D07#FF07FF7F52E1FFFF
(1746135414.977725) can0 09F10D00#FF07FF7F0000FFFF
(1746135414.977726) can0 09F10D01#FF000000FF7FFFFF
(1746135414.978867) can0 1DFF2C01#0017419F00000000
(1746135414.978868) can0 1DFF2C01#0100FFFFFF7FFFFF
(1746135414.980017) can0 1DFF2C01#02FFFFFFFFFF7FFF
(1746135414.980018) can0 1DFF2C01#03FFFFFFFFFFFFFF
(1746135415.013571) can0 09F80203#4BFFFFFFFFFFFFFF
(1746135415.013573) can0 09FD0205#FFFFFFFFFFFBFFFF
(1746135415.038306) can0 08FF0005#1399040500000200
(1746135415.065896) can0 09F80103#FFFFFF7FFFFFFF7F
(1746135415.073887) can0 09F10D07#FF07FF7F52E1FFFF
(1746135415.122614) can0 09F10D00#FF07FF7F0000FFFF
(1746135415.164770) can0 09F80103#FFFFFF7FFFFFFF7F
(1746135415.164771) can0 09FD0205#FFFFFFFFFFF8FFFF
(1746135415.174619) can0 18FF3D01#419FFFFF02FFFFFF
(1746135415.174620) can0 09F10501#00153038FFFF7FFF
(1746135415.175742) can0 09F10501#01FFFFFF0B11FFFF
(1746135415.175743) can0 09F10501#02FF7FFF7FFF7FFF
(1746135415.176863) can0 09F10501#03FFFFFFFFFFFFFF
(1746135415.176864) can0 09F10D07#FF07FF7F52E1FFFF
(1746135415.177979) can0 09F10D01#FF000000FF7FFFFF
(1746135415.199755) can0 04FF1901#419F640202010000
(1746135415.224495) can0 09F10D00#FF07FF7F0000FFFF
(1746135415.263780) can0 09F80103#FFFFFF7FFFFFFF7F
(1746135415.263782) can0 09F80203#4BFFFFFFFFFFFFFF
(1746135415.288690) can0 08FF0005#1399040500000200
(1746135415.313396) can0 0DF01003#4BF0FFFFFFFFFFFF
(1746135415.313397) can0 1DF11A03#4CFFFFFF2FFDFFFF
(1746135415.314570) can0 09FD0205#FFFFFFFFFFFBFFFF
(1746135415.323741) can0 09F10D07#FF07FF7F52E1FFFF
(1746135415.365774) can0 09F80103#FFFFFF7FFFFFFF7F
(1746135415.374658) can0 09F10D00#FF07FF7F0000FFFF
(1746135415.415252) can0 1CFF1906#419F010B00000000
(1746135415.424580) can0 18FF3D01#419FFFFF02FFFFFF
(1746135415.424581) can0 09F10501#20153038FFFF7FFF
(1746135415.425754) can0 09F10501#21FFFFFF0B11FFFF
(1746135415.425755) can0 09F10501#22FF7FFF7FFF7FFF
(1746135415.426884) can0 09F10501#23FFFFFFFFFFFFFF
(1746135415.426886) can0 09F10D07#FF07FF7F52E1FFFF
(1746135415.428098) can0 09F10D01#FF000000FF7FFFFF
(1746135415.464774) can0 09F80103#FFFFFF7FFFFFFF7F
(1746135415.464775) can0 09FD0205#FFFFFFFFFFF8FFFF
(1746135415.474335) can0 09F10D00#FF07FF7F0000FFFF
(1746135415.514367) can0 1DF11A04#4AFFFFFF2FFDFFFF
(1746135415.514369) can0 09F80203#4CFFFFFFFFFFFFFF
(1746135415.539127) can0 08FF0005#1399040500000200
(1746135415.563804) can0 09F80103#FFFFFF7FFFFFFF7F
(1746135415.573520) can0 09F10D07#FF07FF7F52E1FFFF
(1746135415.613479) can0 09FD0205#FFFFFFFFFFFBFFFF
(1746135415.622559) can0 18FF3D01#419FFFFF02FFFFFF
(1746135415.622560) can0 09F10501#40153038FFFF7FFF
(1746135415.623703) can0 09F10501#41FFFFFF0B11FFFF
(1746135415.623705) can0 09F10501#42FF7FFF7FFF7FFF
(1746135415.624861) can0 09F10501#43FFFFFFFFFFFFFF
(1746135415.624862) can0 09F10D00#FF07FF7F0000FFFF
(1746135415.626028) can0 09F10D01#FF000000FF7FFFFF
(1746135415.665683) can0 09F80103#FFFFFF7FFFFFFF7F
(1746135415.674527) can0 09F10D07#FF07FF7F52E1FFFF
(1746135415.764737) can0 09F80103#FFFFFF7FFFFFFF7F
(1746135415.764738) can0 09F80203#4CFFFFFFFFFFFFFF
(1746135415.765889) can0 0DF80503#202B4CFFFFFFFFFF
(1746135415.765889) can0 0DF80503#21FFFFFFFFFFFFFF
(1746135415.767066) can0 0DF80503#22FF7FFFFFFFFFFF
(1746135415.767066) can0 0DF80503#23FFFF7FFFFFFFFF
(1746135415.768201) can0 0DF80503#24FFFFFF7F00FCFF
(1746135415.768201) can0 0DF80503#25FF7FFF7FFFFFFF
(1746135415.769382) can0 0DF80503#267FFFFFFFFFFFFF
(1746135415.769382) can0 09FD0205#FFFFFFFFFFF8FFFF
(1746135415.773984) can0 09F10D00#FF07FF7F0000FFFF
(1746135415.789637) can0 08FF0005#1399040500000200
(1746135415.823816) can0 09F10D07#FF07FF7F52E1FFFF
(1746135415.863859) can0 09F80103#FFFFFF7FFFFFFF7F
(1746135415.872740) can0 18FF3D01#419FFFFF02FFFFFF
(1746135415.872741) can0 09F10501#60153038FFFF7FFF
(1746135415.873858) can0 09F10501#61FFFFFF0B11FFFF
(1746135415.873859) can0 09F10501#62FF7FFF7FFF7FFF
(1746135415.874983) can0 09F10501#63FFFFFFFFFFFFFF
(1746135415.874984) can0 09F10D01#FF000000FF7FFFFF
(1746135415.913414) can0 1CFF1906#419F010300000000
(1746135415.913415) can0 0DF90304#4A3FFFFFFF7FFFFF
(1746135415.914538) can0 0DF90404#20224AFFFFFFFFFF
(1746135415.914539) can0 0DF90404#21FFFFFFFFFFFFFF
(1746135415.915742) can0 0DF90404#22FFFFFFFFFFFFFF
(1746135415.915743) can0 0DF90404#23FFFFFFFFFFFFFF
(1746135415.916907) can0 0DF90404#247FFFFFFF7FFF7F
(1746135415.916909) can0 19FA0303#4CFFFF7FFF7FFF7F
(1746135415.918050) can0 19FA0403#00034CFFFFFFFFFF
(1746135415.918051) can0 09FD0205#FFFFFFFFFFFBFFFF
(1746135415.919238) can0 0DFE1105#E00EFFFFFFFFFFFF
(1746135415.919239) can0 0DFE1105#E1FFFFFFFFFFFFFF
(1746135415.920401) can0 0DFE1105#E2FFFFFFFFFFFFFF
(1746135415.923091) can0 09F10D00#FF07FF7F0000FFFF
(1746135415.948866) can0 04FF1901#419F640A08000000
(1746135415.965762) can0 09F80103#FFFFFF7FFFFFFF7F
(1746135415.973699) can0 09F10D07#FF07FF7F52E1FFFF
(1746135416.015371) can0 09F80203#4CFFFFFFFFFFFFFF
(1746135416.022513) can0 09F10D00#FF07FF7F0000FFFF
(1746135416.022514) can0 1DFF2C01#2017419F00000000
(1746135416.023632) can0 1DFF2C01#2100FFFFFF7FFFFF
(1746135416.023633) can0 1DFF2C01#22FFFFFFFFFF7FFF
(1746135416.024801) can0 1DFF2C01#23FFFFFFFFFFFFFF
(1746135416.040262) can0 08FF0005#1399040500000200
(1746135416.065008) can0 09F80103#FFFFFF7FFFFFFF7F
(1746135416.065010) can0 09FD0205#FFFFFFFFFFF8FFFF
(1746135416.072574) can0 18FF3D01#419FFFFF02FFFFFF
(1746135416.072575) can0 09F10501#80153038FFFF7FFF
(1746135416.073716) can0 09F10501#81FFFFFF0B11FFFF
(1746135416.073717) can0 09F10501#82FF7FFF7FFF7FFF
(1746135416.074861) can0 09F10501#83FFFFFFFFFFFFFF
(1746135416.074862) can0 09F10D07#FF07FF7F52E1FFFF
(1746135416.076026) can0 09F10D01#FF000000FF7FFFFF
(1746135416.124560) can0 09F10D00#FF07FF7F0000FFFF
(1746135416.164092) can0 09F80103#FFFFFF7FFFFFFF7F
(1746135416.213710) can0 09FD0205#FFFFFFFFFFFBFFFF
(1746135416.223684) can0 09F10D07#FF07FF7F52E1FFFF
(1746135416.223686) can0 09F10D00#FF07FF7F0000FFFF
(1746135416.249873) can0 04FF1901#419F640202010000
(1746135416.263141) can0 09F80103#FFFFFF7FFFFFFF7F
(1746135416.263142) can0 09F80203#4CFFFFFFFFFFFFFF
(1746135416.272732) can0 18FF3D01#419FFFFF02FFFFFF
(1746135416.272733) can0 09F10501#A0153038FFFF7FFF
(1746135416.273877) can0 09F10501#A1FFFFFF0B11FFFF
(1746135416.273878) can0 09F10501#A2FF7FFF7FFF7FFF
(1746135416.275005) can0 09F10501#A3FFFFFFFFFFFFFF
(1746135416.275006) can0 09F10D01#FF000000FF7FFFFF
(1746135416.290758) can0 08FF0005#1399040500000200
(1746135416.315474) can0 0DF01003#4CF0FFFFFFFFFFFF
(1746135416.315475) can0 1DF11A03#4DFFFFFF2FFDFFFF
(1746135416.364954) can0 09F80103#FFFFFF7FFFFFFF7F
(1746135416.364956) can0 09FD0205#FFFFFFFFFFF8FFFF
(1746135416.374243) can0 09F10D07#FF07FF7F52E1FFFF
(1746135416.374245) can0 09F10D00#FF07FF7F0000FFFF
(1746135416.414430) can0 1CFF1906#419F010B00000000
(1746135416.463974) can0 09F80103#FFFFFF7FFFFFFF7F
(1746135416.513521) can0 1DFF0005#00061399FF050001
(1746135416.513522) can0 1DF11A04#4BFFFFFF2FFDFFFF
(1746135416.514650) can0 09F80203#4DFFFFFFFFFFFFFF
(1746135416.514651) can0 09FD0205#FFFFFFFFFFFBFFFF
(1746135416.524650) can0 18FF3D01#419FFFFF02FFFFFF
(1746135416.524651) can0 09F10501#C0153038FFFF7FFF
(1746135416.525798) can0 09F10501#C1FFFFFF0B11FFFF
(1746135416.525798) can0 09F10501#C2FF7FFF7FFF7FFF
(1746135416.526944) can0 09F10501#C3FFFFFFFFFFFFFF
(1746135416.526944) can0 09F10D07#FF07FF7F52E1FFFF
(1746135416.528110) can0 09F10D00#FF07FF7F0000FFFF
(1746135416.528111) can0 09F10D01#FF000000FF7FFFFF
(1746135416.538297) can0 08FF0005#1399040500000200
(1746135416.563030) can0 09F80103#FFFFFF7FFFFFFF7F
(1746135416.665025) can0 09F80103#FFFFFF7FFFFFFF7F
(1746135416.665027) can0 09FD0205#FFFFFFFFFFF8FFFF
(1746135416.673630) can0 09F10D07#FF07FF7F52E1FFFF
(1746135416.673631) can0 09F10D00#FF07FF7F0000FFFF
(1746135416.763978) can0 09F80103#FFFFFF7FFFFFFF7F
(1746135416.763980) can0 09F80203#4DFFFFFFFFFFFFFF
(1746135416.765052) can0 0DF80503#402B4DFFFFFFFFFF
(1746135416.765054) can0 0DF80503#41FFFFFFFFFFFFFF
(1746135416.766215) can0 0DF80503#42FF7FFFFFFFFFFF
(1746135416.766217) can0 0DF80503#43FFFF7FFFFFFFFF
(1746135416.767379) can0 0DF80503#44FFFFFF7F00FCFF
(1746135416.767381) can0 0DF80503#45FF7FFF7FFFFFFF
(1746135416.768547) can0 0DF80503#467FFFFFFFFFFFFF
(1746135416.774694) can0 18FF3D01#419FFFFF02FFFFFF
(1746135416.774695) can0 09F10501#E0153038FFFF7FFF
(1746135416.775835) can0 09F10501#E1FFFFFF0B11FFFF
(1746135416.775837) can0 09F10501#E2FF7FFF7FFF7FFF
(1746135416.777005) can0 09F10501#E3FFFFFFFFFFFFFF
(1746135416.777006) can0 09F10D07#FF07FF7F52E1FFFF
(1746135416.778151) can0 09F10D00#FF07FF7F0000FFFF
(1746135416.778152) can0 09F10D01#FF000000FF7FFFFF
(1746135416.791761) can0 08FF0005#1399040500000200
(1746135416.813578) can0 09FD0205#FFFFFFFFFFFBFFFF
(1746135416.863053) can0 09F80103#FFFFFF7FFFFFFF7F
(1746135416.874309) can0 09F10D07#FF07FF7F52E1FFFF
(1746135416.874311) can0 09F10D00#FF07FF7F0000FFFF
(1746135416.915384) can0 1CFF1906#419F010300000000
(1746135416.915386) can0 0DF90304#4B3FFFFFFF7FFFFF
(1746135416.916584) can0 0DF90404#40224BFFFFFFFFFF
(1746135416.916585) can0 0DF90404#41FFFFFFFFFFFFFF
(1746135416.917778) can0 0DF90404#42FFFFFFFFFFFFFF
(1746135416.917780) can0 0DF90404#43FFFFFFFFFFFFFF
(1746135416.918970) can0 0DF90404#447FFFFFFF7FFF7F
(1746135416.918972) can0 19FA0303#4DFFFF7FFF7FFF7F
(1746135416.920138) can0 19FA0403#20034DFFFFFFFFFF
(1746135416.920139) can0 0DFE1105#000EFFFFFFFFFFFF
(1746135416.921322) can0 0DFE1105#01FFFFFFFFFFFFFF
(1746135416.921323) can0 0DFE1105#02FFFFFFFFFFFFFF
(1746135416.949510) can0 04FF1901#419F640A08000000
(1746135416.965016) can0 09F80103#FFFFFF7FFFFFFF7F
(1746135416.965017) can0 09FD0205#FFFFFFFFFFF8FFFF
(1746135416.974610) can0 18FF3D01#419FFFFF02FFFFFF
(1746135416.974611) can0 09F10501#00153038FFFF7FFF
(1746135416.975744) can0 09F10501#01FFFFFF0B11FFFF
(1746135416.975744) can0 09F10501#02FF7FFF7FFF7FFF
(1746135416.976885) can0 09F10501#03FFFFFFFFFFFFFF
(1746135416.976886) can0 09F10D07#FF07FF7F52E1FFFF
(1746135416.978006) can0 09F10D00#FF07FF7F0000FFFF
(1746135416.978007) can0 09F10D01#FF000000FF7FFFFF
(1746135417.014475) can0 09F80203#4DFFFFFFFFFFFFFF
(1746135417.024523) can0 1DFF2C01#4017419F00000000
(1746135417.024523) can0 1DFF2C01#4100FFFFFF7FFFFF
(1746135417.025743) can0 1DFF2C01#42FFFFFFFFFF7FFF
(1746135417.025743) can0 1DFF2C01#43FFFFFFFFFFFFFF
(1746135417.039408) can0 08FF0005#1399040500000200
(1746135417.064075) can0 09F80103#FFFFFF7FFFFFFF7F
(1746135417.074283) can0 09F10D07#FF07FF7F52E1FFFF
(1746135417.074285) can0 09F10D00#FF07FF7F0000FFFF
(1746135417.116668) can0 09FD0205#FFFFFFFFFFFBFFFF
(1746135417.163034) can0 09F80103#FFFFFF7FFFFFFF7F
(1746135417.224460) can0 18FF3D01#419FFFFF02FFFFFF
(1746135417.224462) can0 09F10501#20153038FFFF7FFF
(1746135417.225569) can0 09F10501#21FFFFFF0B11FFFF
(1746135417.225570) can0 09F10501#22FF7FFF7FFF7FFF
(1746135417.226755) can0 09F10501#23FFFFFFFFFFFFFF
(1746135417.226756) can0 09F10D07#FF07FF7F52E1FFFF
(1746135417.227881) can0 09F10D00#FF07FF7F0000FFFF
(1746135417.227882) can0 09F10D01#FF000000FF7FFFFF
(1746135417.249550) can0 04FF1901#419F640202010000
(1746135417.264907) can0 09F80103#FFFFFF7FFFFFFF7F
(1746135417.264909) can0 09F80203#4DFFFFFFFFFFFFFF
(1746135417.266067) can0 09FD0205#FFFFFFFFFFF8FFFF
(1746135417.289662) can0 08FF0005#1399040500000200
(1746135417.314389) can0 0DF01003#4DF0FFFFFFFFFFFF
(1746135417.314391) can0 1DF11A03#4EFFFFFF2FFDFFFF
(1746135417.363994) can0 09F80103#FFFFFF7FFFFFFF7F
(1746135417.373599) can0 09F10D07#FF07FF7F52E1FFFF
(1746135417.373601) can0 09F10D00#FF07FF7F0000FFFF
(1746135417.413526) can0 1CFF1906#419F010B00000000
(1746135417.413528) can0 09FD0205#FFFFFFFFFFFBFFFF
(1746135417.463016) can0 09F80103#FFFFFF7FFFFFFF7F
(1746135417.474373) can0 18FF3D01#419FFFFF02FFFFFF
(1746135417.474376) can0 09F10501#40153038FFFF7FFF
(1746135417.475590) can0 09F10501#41FFFFFF0B11FFFF
(1746135417.475592) can0 09F10501#42FF7FFF7FFF7FFF
(1746135417.476756) can0 09F10501#43FFFFFFFFFFFFFF
(1746135417.476758) can0 09F10D07#FF07FF7F52E1FFFF
(1746135417.477903) can0 09F10D00#FF07FF7F0000FFFF
(1746135417.477904) can0 09F10D01#FF000000FF7FFFFF
(1746135417.515401) can0 1DF11A04#4CFFFFFF2FFDFFFF
(1746135417.515402) can0 09F80203#4EFFFFFFFFFFFFFF
(1746135417.540171) can0 08FF0005#1399040500000200
(1746135417.564977) can0 09F80103#FFFFFF7FFFFFFF7F
(1746135417.564979) can0 09FD0205#FFFFFFFFFFF8FFFF
(1746135417.622703) can0 09F10D07#FF07FF7F52E1FFFF
(1746135417.622705) can0 09F10D00#FF07FF7F0000FFFF
(1746135417.663951) can0 09F80103#FFFFFF7FFFFFFF7F
(1746135417.674641) can0 18FF3D01#419FFFFF02FFFFFF
(1746135417.674643) can0 09F10501#60153038FFFF7FFF
(1746135417.675803) can0 09F10501#61FFFFFF0B11FFFF
(1746135417.675811) can0 09F10501#62FF7FFF7FFF7FFF
(1746135417.676942) can0 09F10501#63FFFFFFFFFFFFFF
(1746135417.676944) can0 09F10D01#FF000000FF7FFFFF
(1746135417.713486) can0 09FD0205#FFFFFFFFFFFBFFFF
(1746135417.724437) can0 09F10D07#FF07FF7F52E1FFFF
(1746135417.724439) can0 09F10D00#FF07FF7F0000FFFF
(1746135417.762968) can0 09F80103#FFFFFF7FFFFFFF7F
(1746135417.762970) can0 09F80203#4EFFFFFFFFFFFFFF
(1746135417.764164) can0 0DF80503#602B4EFFFFFFFFFF
(1746135417.764166) can0 0DF80503#61FFFFFFFFFFFFFF
(1746135417.765257) can0 0DF80503#62FF7FFFFFFFFFFF
(1746135417.765259) can0 0DF80503#63FFFF7FFFFFFFFF
(1746135417.766393) can0 0DF80503#64FFFFFF7F00FCFF
(1746135417.766394) can0 0DF80503#65FF7FFF7FFFFFFF
(1746135417.767610) can0 0DF80503#667FFFFFFFFFFFFF
(1746135417.790655) can0 08FF0005#1399040500000200
(1746135417.864928) can0 09F80103#FFFFFF7FFFFFFF7F
(1746135417.864929) can0 09FD0205#FFFFFFFFFFF8FFFF
(1746135417.873651) can0 09F10D07#FF07FF7F52E1FFFF
(1746135417.873652) can0 09F10D00#FF07FF7F0000FFFF
(1746135417.914498) can0 1CFF1906#419F010300000000
(1746135417.914499) can0 0DF90304#4C3FFFFFFF7FFFFF
(1746135417.915537) can0 0DF90404#60224CFFFFFFFFFF
(1746135417.915538) can0 0DF90404#61FFFFFFFFFFFFFF
(1746135417.916785) can0 0DF90404#62FFFFFFFFFFFFFF
(1746135417.916786) can0 0DF90404#63FFFFFFFFFFFFFF
(1746135417.917953) can0 0DF90404#647FFFFFFF7FFF7F
(1746135417.917954) can0 19FA0303#4EFFFF7FFF7FFF7F
(1746135417.919106) can0 19FA0403#40034EFFFFFFFFFF
(1746135417.919107) can0 0DFE1105#200EFFFFFFFFFFFF
(1746135417.920290) can0 0DFE1105#21FFFFFFFFFFFFFF
(1746135417.920291) can0 0DFE1105#22FFFFFFFFFFFFFF
(1746135417.924156) can0 18FF3D01#419FFFFF02FFFFFF
(1746135417.924157) can0 09F10501#80153038FFFF7FFF
(1746135417.925307) can0 09F10501#81FFFFFF0B11FFFF
(1746135417.925308) can0 09F10501#82FF7FFF7FFF7FFF
(1746135417.926395) can0 09F10501#83FFFFFFFFFFFFFF
(1746135417.926395) can0 09F10D01#FF000000FF7FFFFF
(1746135417.949346) can0 04FF1901#419F640A08000000
(1746135417.963905) can0 09F80103#FFFFFF7FFFFFFF7F
(1746135417.974047) can0 09F10D07#FF07FF7F52E1FFFF
(1746135417.974048) can0 09F10D00#FF07FF7F0000FFFF
(1746135418.013573) can0 09F80203#4EFFFFFFFFFFFFFF
(1746135418.013574) can0 09FD0205#FFFFFFFFFFFBFFFF
(1746135418.038330) can0 08FF0005#1399040500000200
(1746135418.063049) can0 09F80103#FFFFFF7FFFFFFF7F
(1746135418.074689) can0 1DFF2C01#6017419F00000000
(1746135418.074690) can0 1DFF2C01#6100FFFFFF7FFFFF
(1746135418.075818) can0 1DFF2C01#62FFFFFFFFFF7FFF
(1746135418.075818) can0 1DFF2C01#63FFFFFFFFFFFFFF
(1746135418.124638) can0 18FF3D01#419FFFFF02FFFFFF
(1746135418.124639) can0 09F10501#A0153038FFFF7FFF
(1746135418.125707) can0 09F10501#A1FFFFFF0B11FFFF
(1746135418.125707) can0 09F10501#A2FF7FFF7FFF7FFF
(1746135418.126874) can0 09F10501#A3FFFFFFFFFFFFFF
(1746135418.126874) can0 09F10D07#FF07FF7F52E1FFFF
(1746135418.128038) can0 09F10D00#FF07FF7F0000FFFF
(1746135418.128038) can0 09F10D01#FF000000FF7FFFFF
(1746135418.164930) can0 09F80103#FFFFFF7FFFFFFF7F
(1746135418.164932) can0 09FD0205#FFFFFFFFFFF8FFFF
(1746135418.263961) can0 09F80103#FFFFFF7FFFFFFF7F
(1746135418.263963) can0 09F80203#4EFFFFFFFFFFFFFF
(1746135418.272666) can0 09F10D07#FF07FF7F52E1FFFF
(1746135418.272668) can0 09F10D00#FF07FF7F0000FFFF
(1746135418.288691) can0 08FF0005#1399040500000200
(1746135418.297640) can0 04FF1901#419F640202010000
(1746135418.313448) can0 0DF01003#4EF0FFFFFFFFFFFF
(1746135418.313450) can0 1DF11A03#4FFFFFFF2FFDFFFF
(1746135418.314609) can0 09FD0205#FFFFFFFFFFFBFFFF
(1746135418.362948) can0 09F80103#FFFFFF7FFFFFFF7F
(1746135418.374428) can0 18FF3D01#419FFFFF02FFFFFF
(1746135418.374430) can0 09F10501#C0153038FFFF7FFF
(1746135418.375676) can0 09F10501#C1FFFFFF0B11FFFF
(1746135418.375677) can0 09F10501#C2FF7FFF7FFF7FFF
(1746135418.376708) can0 09F10501#C3FFFFFFFFFFFFFF
(1746135418.376709) can0 09F10D07#FF07FF7F52E1FFFF
(1746135418.377852) can0 09F10D00#FF07FF7F0000FFFF
(1746135418.377853) can0 09F10D01#FF000000FF7FFFFF
(1746135418.415316) can0 1CFF1906#419F010B00000000
(1746135418.464868) can0 09F80103#FFFFFF7FFFFFFF7F
(1746135418.464870) can0 09FD0205#FFFFFFFFFFF8FFFF
(1746135418.514371) can0 1DF11A04#4DFFFFFF2FFDFFFF
(1746135418.514373) can0 09F80203#4FFFFFFFFFFFFFFF
(1746135418.522698) can0 09F10D07#FF07FF7F52E1FFFF
(1746135418.522699) can0 09F10D00#FF07FF7F0000FFFF
(1746135418.539120) can0 08FF0005#1399040500000200
(1746135418.563839) can0 09F80103#FFFFFF7FFFFFFF7F
(1746135418.574717) can0 18FF3D01#419FFFFF02FFFFFF
(1746135418.574719) can0 09F10501#E0153038FFFF7FFF
(1746135418.575812) can0 09F10501#E1FFFFFF0B11FFFF
(1746135418.575813) can0 09F10501#E2FF7FFF7FFF7FFF
(1746135418.576978) can0 09F10501#E3FFFFFFFFFFFFFF
(1746135418.576979) can0 09F10D01#FF000000FF7FFFFF
(1746135418.613452) can0 09FD0205#FFFFFFFFFFFBFFFF
(1746135418.624565) can0 09F10D07#FF07FF7F52E1FFFF
(1746135418.624566) can0 09F10D00#FF07FF7F0000FFFF
(1746135418.662898) can0 09F80103#FFFFFF7FFFFFFF7F
(1746135418.764806) can0 09F80103#FFFFFF7FFFFFFF7F
(1746135418.764807) can0 09F80203#4FFFFFFFFFFFFFFF
(1746135418.766034) can0 0DF80503#802B4FFFFFFFFFFF
(1746135418.766034) can0 0DF80503#81FFFFFFFFFFFFFF
(1746135418.767198) can0 0DF80503#82FF7FFFFFFFFFFF
(1746135418.767199) can0 0DF80503#83FFFF7FFFFFFFFF
(1746135418.768365) can0 0DF80503#84FFFFFF7F00FCFF
(1746135418.768366) can0 0DF80503#85FF7FFF7FFFFFFF
(1746135418.769508) can0 0DF80503#867FFFFFFFFFFFFF
(1746135418.769508) can0 09FD0205#FFFFFFFFFFF8FFFF
(1746135418.773097) can0 18FF3D01#419FFFFF02FFFFFF
(1746135418.773098) can0 09F10501#00153038FFFF7FFF
(1746135418.774237) can0 09F10501#01FFFFFF0B11FFFF
(1746135418.774238) can0 09F10501#02FF7FFF7FFF7FFF
(1746135418.775421) can0 09F10501#03FFFFFFFFFFFFFF
(1746135418.775422) can0 09F10D07#FF07FF7F52E1FFFF
(1746135418.776575) can0 09F10D00#FF07FF7F0000FFFF
(1746135418.776576) can0 09F10D01#FF000000FF7FFFFF
(1746135418.789638) can0 08FF0005#1399040500000200
(1746135418.863975) can0 09F80103#FFFFFF7FFFFFFF7F
(1746135418.916385) can0 1CFF1906#419F010300000000
(1746135418.916387) can0 0DF90304#4D3FFFFFFF7FFFFF
(1746135418.917524) can0 0DF90404#80224DFFFFFFFFFF
(1746135418.917525) can0 0DF90404#81FFFFFFFFFFFFFF
(1746135418.918707) can0 0DF90404#82FFFFFFFFFFFFFF
(1746135418.918708) can0 0DF90404#83FFFFFFFFFFFFFF
(1746135418.919892) can0 0DF90404#847FFFFFFF7FFF7F
(1746135418.919893) can0 1DF90504#E027FFFF0200FFFF
(1746135418.921036) can0 1DF90504#E1FFFF01030100FF
(1746135418.921038) can0 1DF90504#E20000030100FFFF
(1746135418.922206) can0 1DF90504#E3FF7FFFFFFF7F01
(1746135418.922207) can0 1DF90504#E400030100FFFFFF
(1746135418.923312) can0 1DF90504#E57FFFFFFF7FFFFF
(1746135418.923314) can0 19FA0303#4FFFFF7FFF7FFF7F
(1746135418.924520) can0 19FA0403#60034FFFFFFFFFFF
(1746135418.924521) can0 09F10D07#FF07FF7F52E1FFFF
(1746135418.925690) can0 09F10D00#FF07FF7F0000FFFF
(1746135418.925691) can0 09FD0205#FFFFFFFFFFFBFFFF
(1746135418.926858) can0 0DFE1105#400EFFFFFFFFFFFF
(1746135418.926859) can0 0DFE1105#41FFFFFFFFFFFFFF
(1746135418.927968) can0 0DFE1105#42FFFFFFFFFFFFFF
(1746135418.962923) can0 09F80103#FFFFFF7FFFFFFF7F
(1746135418.999759) can0 04FF1901#419F640A08000000
(1746135419.015393) can0 09F80203#4FFFFFFFFFFFFFFF
(1746135419.022686) can0 18FF3D01#419FFFFF02FFFFFF
(1746135419.022688) can0 09F10501#20153038FFFF7FFF
(1746135419.023852) can0 09F10501#21FFFFFF0B11FFFF
(1746135419.023853) can0 09F10501#22FF7FFF7FFF7FFF
(1746135419.025035) can0 09F10501#23FFFFFFFFFFFFFF
(1746135419.025036) can0 09F10D07#FF07FF7F52E1FFFF
(1746135419.026174) can0 09F10D00#FF07FF7F0000FFFF
(1746135419.026175) can0 09F10D01#FF000000FF7FFFFF
(1746135419.040199) can0 08FF0005#1399040500000200
(1746135419.064903) can0 09F80103#FFFFFF7FFFFFFF7F
(1746135419.064903) can0 09FD0205#FFFFFFFFFFF8FFFF
(1746135419.072650) can0 1DFF2C01#8017419F00000000
(1746135419.072651) can0 1DFF2C01#8100FFFFFF7FFFFF
(1746135419.073812) can0 1DFF2C01#82FFFFFFFFFF7FFF
(1746135419.073812) can0 1DFF2C01#83FFFFFFFFFFFFFF
(1746135419.124595) can0 09F10D07#FF07FF7F52E1FFFF
(1746135419.124596) can0 09F10D00#FF07FF7F0000FFFF
(1746135419.163855) can0 09F80103#FFFFFF7FFFFFFF7F
(1746135419.213420) can0 09FD0205#FFFFFFFFFFFBFFFF
(1746135419.262975) can0 09F80103#FFFFFF7FFFFFFF7F
(1746135419.262977) can0 09F80203#4FFFFFFFFFFFFFFF
(1746135419.274739) can0 18FF3D01#419FFFFF02FFFFFF
(1746135419.274740) can0 09F10501#40153038FFFF7FFF
(1746135419.275899) can0 09F10501#41FFFFFF0B11FFFF
(1746135419.275900) can0 09F10501#42FF7FFF7FFF7FFF
(1746135419.277056) can0 09F10501#43FFFFFFFFFFFFFF
(1746135419.277058) can0 09F10D07#FF07FF7F52E1FFFF
(1746135419.278268) can0 09F10D00#FF07FF7F0000FFFF
(1746135419.278269) can0 09F10D01#FF000000FF7FFFFF
(1746135419.290567) can0 08FF0005#1399040500000200
(1746135419.297795) can0 04FF1901#419F640202010000
(1746135419.315251) can0 0DF01003#4FF0FFFFFFFFFFFF
(1746135419.315253) can0 1DF11A03#50FFFFFF2FFDFFFF
(1746135419.364811) can0 09F80103#FFFFFF7FFFFFFF7F
(1746135419.364813) can0 09FD0205#FFFFFFFFFFF8FFFF
(1746135419.374289) can0 09F10D07#FF07FF7F52E1FFFF
(1746135419.374291) can0 09F10D00#FF07FF7F0000FFFF
(1746135419.414261) can0 1CFF1906#419F010B00000000
(1746135419.463916) can0 09F80103#FFFFFF7FFFFFFF7F
(1746135419.513454) can0 1DF11A04#4EFFFFFF2FFDFFFF
(1746135419.513455) can0 09F80203#50FFFFFFFFFFFFFF
(1746135419.514614) can0 09FD0205#FFFFFFFFFFFBFFFF
(1746135419.524770) can0 18FF3D01#419FFFFF02FFFFFF
(1746135419.524772) can0 09F10501#60153038FFFF7FFF
(1746135419.525978) can0 09F10501#61FFFFFF0B11FFFF
(1746135419.525979) can0 09F10501#62FF7FFF7FFF7FFF
(1746135419.527122) can0 09F10501#63FFFFFFFFFFFFFF
(1746135419.527123) can0 09F10D07#FF07FF7F52E1FFFF
(1746135419.528243) can0 09F10D00#FF07FF7F0000FFFF
(1746135419.528244) can0 09F10D01#FF000000FF7FFFFF
(1746135419.538211) can0 08FF0005#1399040500000200
(1746135419.562859) can0 09F80103#FFFFFF7FFFFFFF7F
(1746135419.624226) can0 09F10D07#FF07FF7F52E1FFFF
(1746135419.624228) can0 09F10D00#FF07FF7F0000FFFF
(1746135419.664815) can0 09F80103#FFFFFF7FFFFFFF7F
(1746135419.664816) can0 09FD0205#FFFFFFFFFFF8FFFF
(1746135419.763869) can0 09F80103#FFFFFF7FFFFFFF7F
(1746135419.763870) can0 09F80203#50FFFFFFFFFFFFFF
(1746135419.764978) can0 0DF80503#A02B50FFFFFFFFFF
(1746135419.764979) can0 0DF80503#A1FFFFFFFFFFFFFF
(1746135419.766142) can0 0DF80503#A2FF7FFFFFFFFFFF
(1746135419.766143) can0 0DF80503#A3FFFF7FFFFFFFFF
(1746135419.767292) can0 0DF80503#A4FFFFFF7F00FCFF
(1746135419.767293) can0 0DF80503#A5FF7FFF7FFFFFFF
(1746135419.768463) can0 0DF80503#A67FFFFFFFFFFFFF
(1746135419.774807) can0 18FF3D01#419FFFFF02FFFFFF
(1746135419.774807) can0 09F10501#80153038FFFF7FFF
(1746135419.776017) can0 09F10501#81FFFFFF0B11FFFF
(1746135419.776017) can0 09F10501#82FF7FFF7FFF7FFF
(1746135419.777094) can0 09F10501#83FFFFFFFFFFFFFF
(1746135419.777095) can0 09F10D07#FF07FF7F52E1FFFF
(1746135419.778234) can0 09F10D00#FF07FF7F0000FFFF
(1746135419.778234) can0 09F10D01#FF000000FF7FFFFF
(1746135419.788709) can0 08FF0005#1399040500000200
(1746135419.813445) can0 09FD0205#FFFFFFFFFFFBFFFF
(1746135419.862951) can0 09F80103#FFFFFF7FFFFFFF7F
(1746135419.874414) can0 09F10D07#FF07FF7F52E1FFFF
(1746135419.874415) can0 09F10D00#FF07FF7F0000FFFF
(1746135419.915327) can0 1CFF1906#419F010300000000
(1746135419.915330) can0 0DF90304#4E3FFFFFFF7FFFFF
(1746135419.916437) can0 0DF90404#A0224EFFFFFFFFFF
(1746135419.916438) can0 0DF90404#A1FFFFFFFFFFFFFF
(1746135419.917641) can0 0DF90404#A2FFFFFFFFFFFFFF
(1746135419.917642) can0 0DF90404#A3FFFFFFFFFFFFFF
(1746135419.918804) can0 0DF90404#A47FFFFFFF7FFF7F
(1746135419.918806) can0 19FA0303#50FFFF7FFF7FFF7F
(1746135419.919956) can0 19FA0403#800350FFFFFFFFFF
(1746135419.919957) can0 0DFE1105#600EFFFFFFFFFFFF
(1746135419.921113) can0 0DFE1105#61FFFFFFFFFFFFFF
(1746135419.921114) can0 0DFE1105#62FFFFFFFFFFFFFF
(1746135419.964874) can0 09F80103#FFFFFF7FFFFFFF7F
(1746135419.964876) can0 09FD0205#FFFFFFFFFFF8FFFF
(1746135419.974594) can0 18FF3D01#419FFFFF02FFFFFF
(1746135419.974595) can0 09F10501#A0153038FFFF7FFF
(1746135419.975761) can0 09F10501#A1FFFFFF0B11FFFF
(1746135419.975762) can0 09F10501#A2FF7FFF7FFF7FFF
(1746135419.976912) can0 09F10501#A3FFFFFFFFFFFFFF
(1746135419.976914) can0 09F10D07#FF07FF7F52E1FFFF
(1746135419.978016) can0 09F10D00#FF07FF7F0000FFFF
(1746135419.978017) can0 09F10D01#FF000000FF7FFFFF
(1746135419.994007) can0 18EEFF43#3639A959008932C0
(1746135419.999960) can0 04FF1901#419F640A08000000
(1746135420.014414) can0 09F80203#50FFFFFFFFFFFFFF
(1746135420.039277) can0 08FF0005#1399040500000200
(1746135420.064080) can0 09F80103#FFFFFF7FFFFFFF7F
(1746135420.074343) can0 09F10D07#FF07FF7F52E1FFFF
(1746135420.074346) can0 09F10D00#FF07FF7F0000FFFF
(1746135420.075501) can0 1DFF2C01#A017419F00000000
(1746135420.075502) can0 1DFF2C01#A100FFFFFF7FFFFF
(1746135420.076678) can0 1DFF2C01#A2FFFFFFFFFF7FFF
(1746135420.076679) can0 1DFF2C01#A3FFFFFFFFFFFFFF
(1746135420.113612) can0 0DEDFF05#00130001FF01FFFF
(1746135420.113614) can0 0DEDFF05#01FFFFFFFF030113
(1746135420.114675) can0 0DEDFF05#0201030404FB63FF
(1746135420.114676) can0 09FD0205#FFFFFFFFFFFBFFFF
(1746135420.163091) can0 09F80103#FFFFFF7FFFFFFF7F
(1746135420.222698) can0 18FF3D01#419FFFFF02FFFFFF
(1746135420.222700) can0 09F10501#C0153038FFFF7FFF
(1746135420.223785) can0 09F10501#C1FFFFFF0B11FFFF
(1746135420.223787) can0 09F10501#C2FF7FFF7FFF7FFF
(1746135420.224952) can0 09F10501#C3FFFFFFFFFFFFFF
(1746135420.224953) can0 09F10D07#FF07FF7F52E1FFFF
(1746135420.226095) can0 09F10D00#FF07FF7F0000FFFF
(1746135420.226096) can0 09F10D01#FF000000FF7FFFFF
(1746135420.264952) can0 09F80103#FFFFFF7FFFFFFF7F
(1746135420.264953) can0 09F80203#50FFFFFFFFFFFFFF
(1746135420.266057) can0 09FD0205#FFFFFFFFFFF8FFFF
(1746135420.289838) can0 08FF0005#1399040500000200
(1746135420.299792) can0 04FF1901#419F640202010000
(1746135420.314487) can0 0DF01003#50F0FFFFFFFFFFFF
(1746135420.314489) can0 1DF11A03#51FFFFFF2FFDFFFF
(1746135420.324584) can0 09F10D07#FF07FF7F52E1FFFF
(1746135420.324586) can0 09F10D00#FF07FF7F0000FFFF
(1746135420.364068) can0 09F80103#FFFFFF7FFFFFFF7F
(1746135420.413572) can0 1CFF1906#419F010B00000000
(1746135420.413573) can0 09FD0205#FFFFFFFFFFFBFFFF
(1746135420.424001) can0 18FF3D01#419FFFFF02FFFFFF
(1746135420.424002) can0 09F10501#E0153038FFFF7FFF
(1746135420.425134) can0 09F10501#E1FFFFFF0B11FFFF
(1746135420.425135) can0 09F10501#E2FF7FFF7FFF7FFF
(1746135420.426301) can0 09F10501#E3FFFFFFFFFFFFFF
(1746135420.426302) can0 09F10D01#FF000000FF7FFFFF
(1746135420.463086) can0 0DFF0605#800F1399FF010008
(1746135420.463088) can0 0DFF0605#8100450202C60500
(1746135420.464195) can0 0DFF0605#826441FFFFFFFFFF
(1746135420.464196) can0 09F80103#FFFFFF7FFFFFFF7F
(1746135420.473897) can0 09F10D07#FF07FF7F52E1FFFF
(1746135420.473898) can0 09F10D00#FF07FF7F0000FFFF
(1746135420.515440) can0 1DF11A04#4FFFFFFF2FFDFFFF
(1746135420.515442) can0 09F80203#51FFFFFFFFFFFFFF
(1746135420.540260) can0 08FF0005#1399040500000200
(1746135420.565003) can0 09F80103#FFFFFF7FFFFFFF7F
(1746135420.565004) can0 09FD0205#FFFFFFFFFFF8FFFF
(1746135420.574581) can0 09F10D07#FF07FF7F52E1FFFF
(1746135420.574583) can0 09F10D00#FF07FF7F0000FFFF
(1746135420.624409) can0 18FF3D01#419FFFFF02FFFFFF
(1746135420.624411) can0 09F10501#00153038FFFF7FFF
(1746135420.625593) can0 09F10501#01FFFFFF0B11FFFF
(1746135420.625594) can0 09F10501#02FF7FFF7FFF7FFF
(1746135420.626773) can0 09F10501#03FFFFFFFFFFFFFF
(1746135420.626774) can0 09F10D01#FF000000FF7FFFFF
(1746135420.664111) can0 09F80103#FFFFFF7FFFFFFF7F
(1746135420.713479) can0 09FD0205#FFFFFFFFFFFBFFFF
(1746135420.723610) can0 09F10D07#FF07FF7F52E1FFFF
(1746135420.723612) can0 09F10D00#FF07FF7F0000FFFF
(1746135420.763021) can0 0DFF0605#A00F1399FF011180
(1746135420.763023) can0 0DFF0605#A10000FC12B10100
(1746135420.764151) can0 0DFF0605#A29EBEFFFFFFFFFF
(1746135420.764152) can0 09F80203#51FFFFFFFFFFFFFF
(1746135420.765315) can0 0DF80503#C02B51FFFFFFFFFF
(1746135420.765317) can0 0DF80503#C1FFFFFFFFFFFFFF
(1746135420.766429) can0 0DF80503#C2FF7FFFFFFFFFFF
(1746135420.766430) can0 0DF80503#C3FFFF7FFFFFFFFF
(1746135420.767596) can0 0DF80503#C4FFFFFF7F00FCFF
(1746135420.767597) can0 0DF80503#C5FF7FFF7FFFFFFF
(1746135420.768717) can0 0DF80503#C67FFFFFFFFFFFFF
(1746135420.787803) can0 08FF0005#1399040500000200
(1746135420.815434) can0 09F80103#FFFFFF7FFFFFFF7F
(1746135420.864959) can0 09FD0205#FFFFFFFFFFF8FFFF
(1746135420.874409) can0 18FF3D01#419FFFFF02FFFFFF
(1746135420.874410) can0 09F10501#20153038FFFF7FFF
(1746135420.875553) can0 09F10501#21FFFFFF0B11FFFF
(1746135420.875554) can0 09F10501#22FF7FFF7FFF7FFF
(1746135420.876695) can0 09F10501#23FFFFFFFFFFFFFF
(1746135420.876696) can0 09F10D07#FF07FF7F52E1FFFF
(1746135420.877867) can0 09F10D00#FF07FF7F0000FFFF
(1746135420.877867) can0 09F10D01#FF000000FF7FFFFF
(1746135420.914505) can0 1CFF1906#419F010300000000
(1746135420.914506) can0 09F80103#FFFFFF7FFFFFFF7F
(1746135420.915614) can0 0DF90304#4F3FFFFFFF7FFFFF
(1746135420.915615) can0 0DF90404#C0224FFFFFFFFFFF
(1746135420.916781) can0 0DF90404#C1FFFFFFFFFFFFFF
(1746135420.916783) can0 0DF90404#C2FFFFFFFFFFFFFF
(1746135420.917948) can0 0DF90404#C3FFFFFFFFFFFFFF
(1746135420.917949) can0 0DF90404#C47FFFFFFF7FFF7F
(1746135420.919113) can0 19FA0303#51FFFF7FFF7FFF7F
(1746135420.919114) can0 19FA0403#A00351FFFFFFFFFF
(1746135420.920259) can0 0DFE1105#800EFFFFFFFFFFFF
(1746135420.920259) can0 0DFE1105#81FFFFFFFFFFFFFF
(1746135420.921467) can0 0DFE1105#82FFFFFFFFFFFFFF
(1746135420.967148) can0 0DFF0605#C00F1399FF010005
(1746135420.967150) can0 0DFF0605#C1005C5D02F40000
(1746135420.968215) can0 0DFF0605#C29FF9FFFFFFFFFF
(1746135421.013618) can0 09F80103#FFFFFF7FFFFFFF7F
(1746135421.013620) can0 09F80203#51FFFFFFFFFFFFFF
(1746135421.014742) can0 09FD0205#FFFFFFFFFFFBFFFF
(1746135421.024329) can0 09F10D07#FF07FF7F52E1FFFF
(1746135421.024330) can0 09F10D00#FF07FF7F0000FFFF
(1746135421.038423) can0 08FF0005#1399040500000200
(1746135421.049321) can0 04FF1901#419F640A08000000
(1746135421.098873) can0 09FF2201#E00C419FFFFF01FF
(1746135421.098874) can0 09FF2201#E1390016000100FF
(1746135421.100010) can0 1DFF2801#201E419F16001A01
(1746135421.100011) can0 1DFF2801#215374656572696E
(1746135421.101169) can0 1DFF2801#226720636F6D7061
(1746135421.101170) can0 1DFF2801#237373206D697373
(1746135421.102297) can0 1DFF2801#24696E67FFFFFFFF
(1746135421.118651) can0 09F80103#FFFFFF7FFFFFFF7F
(1746135421.124201) can0 18FF3D01#419FFFFF02FFFFFF
(1746135421.124201) can0 09F10501#40153038FFFF7FFF
(1746135421.125340) can0 09F10501#41FFFFFF0B11FFFF
(1746135421.125340) can0 09F10501#42FF7FFF7FFF7FFF
(1746135421.126506) can0 09F10501#43FFFFFFFFFFFFFF
(1746135421.126506) can0 09F10D07#FF07FF7F52E1FFFF
(1746135421.127654) can0 09F10D01#FF000000FF7FFFFF
(1746135421.127654) can0 1DFF2C01#C017419F00000000
(1746135421.128800) can0 1DFF2C01#C100FFFFFF7FFFFF
(1746135421.128800) can0 1DFF2C01#C2FFFFFFFFFF7F61
(1746135421.129949) can0 1DFF2C01#C3737320FFFFFFFF
(1746135421.164941) can0 09FD0205#FFFFFFFFFFF8FFFF
(1746135421.174112) can0 09F10D00#FF07FF7F0000FFFF
(1746135421.223739) can0 09F10D07#FF07FF7F52E1FFFF
(1746135421.264033) can0 0DFF0605#E00F1399FF010080
(1746135421.264036) can0 0DFF0605#E10000FC120E0000
(1746135421.265157) can0 0DFF0605#E27CA2FFFFFFFFFF
(1746135421.265158) can0 09F80103#FFFFFF7FFFFFFF7F
(1746135421.266279) can0 09F80203#51FFFFFFFFFFFFFF
(1746135421.288758) can0 08FF0005#1399040500000200
(1746135421.299708) can0 04FF1901#419F640202010000
(1746135421.313490) can0 0DF01003#51F0FFFFFFFFFFFF
(1746135421.313491) can0 1DF11A03#52FFFFFF2FFDFFFF
(1746135421.314618) can0 09FD0205#FFFFFFFFFFFBFFFF
(1746135421.322662) can0 18FF3D01#419FFFFF02FFFFFF
(1746135421.322663) can0 09F10501#60153038FFFF7FFF
(1746135421.323800) can0 09F10501#61FFFFFF0B11FFFF
(1746135421.323801) can0 09F10501#62FF7FFF7FFF7FFF
(1746135421.324972) can0 09F10501#63FFFFFFFFFFFFFF
(1746135421.324974) can0 09F10D07#FF07FF7F52E1FFFF
(1746135421.326099) can0 09F10D00#FF07FF7F0000FFFF
(1746135421.326099) can0 09F10D01#FF000000FF7FFFFF
(1746135421.363040) can0 09F80103#FFFFFF7FFFFFFF7F
(1746135421.415400) can0 1CFF1906#419F010B00000000
(1746135421.424228) can0 09F10D00#FF07FF7F0000FFFF
(1746135421.464884) can0 09F80103#FFFFFF7FFFFFFF7F
(1746135421.464885) can0 09FD0205#FFFFFFFFFFF8FFFF
(1746135421.473786) can0 09F10D07#FF07FF7F52E1FFFF
(1746135421.514438) can0 0DFF0605#000F1399FF011080
(1746135421.514439) can0 0DFF0605#010000FC12B10100
(1746135421.515631) can0 0DFF0605#029EBEFFFFFFFFFF
(1746135421.515633) can0 1DFF0005#00061399FF050001
(1746135421.516779) can0 1DF11A04#50FFFFFF2FFDFFFF
(1746135421.516780) can0 09F80203#52FFFFFFFFFFFFFF
(1746135421.539295) can0 08FF0005#1399040500000200
(1746135421.564063) can0 09F80103#FFFFFF7FFFFFFF7F
(1746135421.572683) can0 18FF3D01#419FFFFF02FFFFFF
(1746135421.572684) can0 09F10501#80153038FFFF7FFF
(1746135421.573838) can0 09F10501#81FFFFFF0B11FFFF
(1746135421.573840) can0 09F10501#82FF7FFF7FFF7FFF
(1746135421.575019) can0 09F10501#83FFFFFFFFFFFFFF
(1746135421.575020) can0 09F10D07#FF07FF7F52E1FFFF
(1746135421.576104) can0 09F10D00#FF07FF7F0000FFFF
(1746135421.576105) can0 09F10D01#FF000000FF7FFFFF
(1746135421.613610) can0 09FD0205#FFFFFFFFFFFBFFFF
(1746135421.663039) can0 09F80103#FFFFFF7FFFFFFF7F
(1746135421.723587) can0 09F10D07#FF07FF7F52E1FFFF
(1746135421.723595) can0 09F10D00#FF07FF7F0000FFFF
(1746135421.764823) can0 0DFF0605#200F1399FF010480
(1746135421.764825) can0 0DFF0605#2100010002500000
(1746135421.765951) can0 0DFF0605#223B2EFFFFFFFFFF
(1746135421.765952) can0 09F80103#FFFFFF7FFFFFFF7F
(1746135421.767112) can0 09F80203#52FFFFFFFFFFFFFF
(1746135421.767114) can0 0DF80503#E02B52FFFFFFFFFF
(1746135421.768232) can0 0DF80503#E1FFFFFFFFFFFFFF
(1746135421.768233) can0 0DF80503#E2FF7FFFFFFFFFFF
(1746135421.769385) can0 0DF80503#E3FFFF7FFFFFFFFF
(1746135421.769387) can0 0DF80503#E4FFFFFF7F00FCFF
(1746135421.770548) can0 0DF80503#E5FF7FFF7FFFFFFF
(1746135421.770549) can0 0DF80503#E67FFFFFFFFFFFFF
(1746135421.771713) can0 09FD0205#FFFFFFFFFFF8FFFF
(1746135421.773133) can0 18FF3D01#419FFFFF02FFFFFF
(1746135421.773134) can0 09F10501#A0153038FFFF7FFF
(1746135421.774276) can0 09F10501#A1FFFFFF0B11FFFF
(1746135421.774277) can0 09F10501#A2FF7FFF7FFF7FFF
(1746135421.775444) can0 09F10501#A3FFFFFFFFFFFFFF
(1746135421.775445) can0 09F10D01#FF000000FF7FFFFF
(1746135421.789671) can0 08FF0005#1399040500000200
(1746135421.824092) can0 09F10D07#FF07FF7F52E1FFFF
(1746135421.824094) can0 09F10D00#FF07FF7F0000FFFF
(1746135421.864057) can0 09F80103#FFFFFF7FFFFFFF7F
(1746135421.913608) can0 1CFF1906#419F010300000000
(1746135421.913610) can0 0DF90304#503FFFFFFF7FFFFF
(1746135421.914781) can0 0DF90404#E02250FFFFFFFFFF
(1746135421.914782) can0 0DF90404#E1FFFFFFFFFFFFFF
(1746135421.915848) can0 0DF90404#E2FFFFFFFFFFFFFF
(1746135421.915849) can0 0DF90404#E3FFFFFFFFFFFFFF
(1746135421.917087) can0 0DF90404#E47FFFFFFF7FFF7F
(1746135421.917088) can0 19FA0303#52FFFF7FFF7FFF7F
(1746135421.918242) can0 19FA0403#C00352FFFFFFFFFF
(1746135421.918244) can0 09FD0205#FFFFFFFFFFFBFFFF
(1746135421.919422) can0 0DFE1105#A00EFFFFFFFFFFFF
(1746135421.919423) can0 0DFE1105#A1FFFFFFFFFFFFFF
(1746135421.920588) can0 0DFE1105#A2FFFFFFFFFFFFFF
(1746135421.925194) can0 09F10D07#FF07FF7F52E1FFFF
(1746135421.925196) can0 09F10D00#FF07FF7F0000FFFF
(1746135421.969083) can0 09F80103#FFFFFF7FFFFFFF7F
(1746135422.015591) can0 0DFF0605#400F1399FF011480
(1746135422.015592) can0 0DFF0605#410000FC12410000
(1746135422.016733) can0 0DFF0605#42FD25FFFFFFFFFF
(1746135422.016734) can0 09F80203#52FFFFFFFFFFFFFF
(1746135422.024894) can0 18FF3D01#419FFFFF02FFFFFF
(1746135422.024895) can0 09F10501#C0153038FFFF7FFF
(1746135422.026026) can0 09F10501#C1FFFFFF0B11FFFF
(1746135422.026027) can0 09F10501#C2FF7FFF7FFF7FFF
(1746135422.027192) can0 09F10501#C3FFFFFFFFFFFFFF
(1746135422.027193) can0 09F10D07#FF07FF7F52E1FFFF
(1746135422.028356) can0 09F10D00#FF07FF7F0000FFFF
(1746135422.028357) can0 09F10D01#FF000000FF7FFFFF
(1746135422.040355) can0 08FF0005#1399040500000200
(1746135422.065073) can0 09F80103#FFFFFF7FFFFFFF7F
(1746135422.065075) can0 09FD0205#FFFFFFFFFFF8FFFF
(1746135422.099605) can0 04FF1901#419F640A08000000
(1746135422.124416) can0 09F10D07#FF07FF7F52E1FFFF
(1746135422.124417) can0 09F10D00#FF07FF7F0000FFFF
(1746135422.125558) can0 1DFF2C01#E017419F00000000
(1746135422.125559) can0 1DFF2C01#E100FFFFFF7FFFFF
(1746135422.126644) can0 1DFF2C01#E2FFFFFFFFFF7FFF
(1746135422.126645) can0 1DFF2C01#E3FFFFFFFFFFFFFF
(1746135422.164205) can0 09F80103#FFFFFF7FFFFFFF7F
(1746135422.213786) can0 09FD0205#FFFFFFFFFFFBFFFF
(1746135422.263326) can0 0DFF0605#600F1399FF010009
(1746135422.263326) can0 0DFF0605#610000FC121C0000
(1746135422.264418) can0 0DFF0605#62DDD1FFFFFFFFFF
(1746135422.264419) can0 09F80103#FFFFFF7FFFFFFF7F
(1746135422.265610) can0 09F80203#52FFFFFFFFFFFFFF
(1746135422.274901) can0 18FF3D01#419FFFFF02FFFFFF
(1746135422.274902) can0 09F10501#E0153038FFFF7FFF
(1746135422.276056) can0 09F10501#E1FFFFFF0B11FFFF
(1746135422.276057) can0 09F10501#E2FF7FFF7FFF7FFF
(1746135422.277210) can0 09F10501#E3FFFFFFFFFFFFFF
(1746135422.277211) can0 09F10D07#FF07FF7F52E1FFFF
(1746135422.278370) can0 09F10D00#FF07FF7F0000FFFF
(1746135422.278372) can0 09F10D01#FF000000FF7FFFFF
(1746135422.288014) can0 08FF0005#1399040500000200
(1746135422.312743) can0 0DF01003#52F0FFFFFFFFFFFF
(1746135422.312745) can0 1DF11A03#53FFFFFF2FFDFFFF
(1746135422.349633) can0 04FF1901#419F640202010000
(1746135422.365064) can0 09F80103#FFFFFF7FFFFFFF7F
(1746135422.365065) can0 09FD0205#FFFFFFFFFFF8FFFF
(1746135422.374426) can0 09F10D07#FF07FF7F52E1FFFF
(1746135422.374428) can0 09F10D00#FF07FF7F0000FFFF
(1746135422.414662) can0 1CFF1906#419F010B00000000
(1746135422.464119) can0 09F80103#FFFFFF7FFFFFFF7F
(1746135422.513725) can0 0DFF0605#800F1399FF010001
(1746135422.513726) can0 0DFF0605#810001FC02690000
(1746135422.514817) can0 0DFF0605#829FCDFFFFFFFFFF
(1746135422.514818) can0 1DF11A04#51FFFFFF2FFDFFFF
(1746135422.516021) can0 09F80203#53FFFFFFFFFFFFFF
(1746135422.516022) can0 09FD0205#FFFFFFFFFFFBFFFF
(1746135422.522949) can0 18FF3D01#419FFFFF02FFFFFF
(1746135422.522950) can0 09F10501#00153038FFFF7FFF
(1746135422.524068) can0 09F10501#01FFFFFF0B11FFFF
(1746135422.524069) can0 09F10501#02FF7FFF7FFF7FFF
(1746135422.525172) can0 09F10501#03FFFFFFFFFFFFFF
(1746135422.525174) can0 09F10D07#FF07FF7F52E1FFFF
(1746135422.526377) can0 09F10D00#FF07FF7F0000FFFF
(1746135422.526379) can0 09F10D01#FF000000FF7FFFFF
(1746135422.538516) can0 08FF0005#1399040500000200
(1746135422.563273) can0 09F80103#FFFFFF7FFFFFFF7F
(1746135422.605942) can0 18EAFF43#00EE00
(1746135422.612702) can0 18EEFF05#E14331E800D278C0
(1746135422.612704) can0 18EEFF03#E1C331E8009178C0
(1746135422.613751) can0 18EEFF04#E18338E800AA78C0
(1746135422.613752) can0 18EEFF06#E1C333E8008C50C0
(1746135422.624820) can0 18EEFF01#068F7C22009650C0
(1746135422.624823) can0 18EEFF07#060F7A2200BEA0C0
(1746135422.625943) can0 18EEFF00#068F7A2200BEA0C0
(1746135422.626960) can0 09F10D07#FF07FF7F52E1FFFF
(1746135422.626962) can0 09F10D00#FF07FF7F0000FFFF
(1746135422.665135) can0 09F80103#FFFFFF7FFFFFFF7F
(1746135422.665136) can0 09FD0205#FFFFFFFFFFF8FFFF
(1746135422.714659) can0 0DEDFF05#20130001FF01FFFF
(1746135422.714660) can0 0DEDFF05#21FFFFFFFF030113
(1746135422.715733) can0 0DEDFF05#2201030404D45FFF
(1746135422.764175) can0 09F80103#FFFFFF7FFFFFFF7F
(1746135422.764175) can0 09F80203#53FFFFFFFFFFFFFF
(1746135422.765298) can0 0DF80503#002B53FFFFFFFFFF
(1746135422.765298) can0 0DF80503#01FFFFFFFFFFFFFF
(1746135422.766484) can0 0DF80503#02FF7FFFFFFFFFFF
(1746135422.766484) can0 0DF80503#03FFFF7FFFFFFFFF
(1746135422.767647) can0 0DF80503#04FFFFFF7F00FCFF
(1746135422.767647) can0 0DF80503#05FF7FFF7FFFFFFF
(1746135422.768794) can0 0DF80503#067FFFFFFFFFFFFF
(1746135422.773987) can0 18FF3D01#419FFFFF02FFFFFF
(1746135422.773988) can0 09F10501#20153038FFFF7FFF
(1746135422.775126) can0 09F10501#21FFFFFF0B11FFFF
(1746135422.775126) can0 09F10501#22FF7FFF7FFF7FFF
(1746135422.776289) can0 09F10501#23FFFFFFFFFFFFFF
(1746135422.776289) can0 09F10D07#FF07FF7F52E1FFFF
(1746135422.777453) can0 09F10D00#FF07FF7F0000FFFF
(1746135422.777453) can0 09F10D01#FF000000FF7FFFFF
(1746135422.788964) can0 08FF0005#1399040500000200
(1746135422.813775) can0 09FD0205#FFFFFFFFFFFBFFFF
(1746135422.838514) can0 0DFF0605#A00F1399FF010002
(1746135422.838514) can0 0DFF0605#A1009A0002D70100
(1746135422.839625) can0 0DFF0605#A2B4E7FFFFFFFFFF
(1746135422.863406) can0 09F80103#FFFFFF7FFFFFFF7F
(1746135422.873731) can0 09F10D07#FF07FF7F52E1FFFF
(1746135422.873732) can0 09F10D00#FF07FF7F0000FFFF
(1746135422.912970) can0 1CFF1906#419F010300000000
(1746135422.912972) can0 0DF90304#513FFFFFFF7FFFFF
(1746135422.914090) can0 0DF90404#002251FFFFFFFFFF
(1746135422.914091) can0 0DF90404#01FFFFFFFFFFFFFF
(1746135422.915249) can0 0DF90404#02FFFFFFFFFFFFFF
(1746135422.915250) can0 0DF90404#03FFFFFFFFFFFFFF
(1746135422.916404) can0 0DF90404#047FFFFFFF7FFF7F
(1746135422.916405) can0 19FA0303#53FFFF7FFF7FFF7F
(1746135422.917591) can0 19FA0403#E00353FFFFFFFFFF
(1746135422.917592) can0 0DFE1105#C00EFFFFFFFFFFFF
(1746135422.918765) can0 0DFE1105#C1FFFFFFFFFFFFFF
(1746135422.918766) can0 0DFE1105#C2FFFFFFFFFFFFFF
(1746135422.965390) can0 09F80103#FFFFFF7FFFFFFF7F
(1746135422.965392) can0 09FD0205#FFFFFFFFFFF8FFFF
(1746135422.973878) can0 18FF3D01#419FFFFF02FFFFFF
(1746135422.973879) can0 09F10501#40153038FFFF7FFF
(1746135422.975044) can0 09F10501#41FFFFFF0B11FFFF
(1746135422.975045) can0 09F10501#42FF7FFF7FFF7FFF
(1746135422.976183) can0 09F10501#43FFFFFFFFFFFFFF
(1746135422.976183) can0 09F10D07#FF07FF7F52E1FFFF
(1746135422.977349) can0 09F10D00#FF07FF7F0000FFFF
(1746135422.977350) can0 09F10D01#FF000000FF7FFFFF
(1746135423.015005) can0 09F80203#53FFFFFFFFFFFFFF
(1746135423.039914) can0 08FF0005#1399040500000200
(1746135423.064743) can0 09F80103#FFFFFF7FFFFFFF7F
(1746135423.099573) can0 04FF1901#419F640A08000000
(1746135423.114239) can0 09FD0205#FFFFFFFFFFFBFFFF
(1746135423.124397) can0 09F10D07#FF07FF7F52E1FFFF
(1746135423.124399) can0 09F10D00#FF07FF7F0000FFFF
(1746135423.125526) can0 1DFF2C01#0017419F00000000
(1746135423.125527) can0 1DFF2C01#0100FFFFFF7FFFFF
(1746135423.126691) can0 1DFF2C01#02FFFFFFFFFF7FFF
(1746135423.126692) can0 1DFF2C01#03FFFFFFFFFFFFFF
(1746135423.163933) can0 09F80103#FFFFFF7FFFFFFF7F
(1746135423.174277) can0 18FF3D01#419FFFFF02FFFFFF
(1746135423.174278) can0 09F10501#60153038FFFF7FFF
(1746135423.175379) can0 09F10501#61FFFFFF0B11FFFF
(1746135423.175381) can0 09F10501#62FF7FFF7FFF7FFF
(1746135423.176589) can0 09F10501#63FFFFFFFFFFFFFF
(1746135423.176589) can0 09F10D01#FF000000FF7FFFFF
(1746135423.262994) can0 09F80103#FFFFFF7FFFFFFF7F
(1746135423.262995) can0 09F80203#53FFFFFFFFFFFFFF
(1746135423.264172) can0 09FD0205#FFFFFFFFFFF8FFFF
(1746135423.273641) can0 09F10D07#FF07FF7F52E1FFFF
(1746135423.273642) can0 09F10D00#FF07FF7F0000FFFF
(1746135423.287802) can0 08FF0005#1399040500000200
(1746135423.315449) can0 0DF01003#53F0FFFFFFFFFFFF
(1746135423.315454) can0 1DF11A03#54FFFFFF2FFDFFFF
(1746135423.349658) can0 04FF1901#419F640202010000
(1746135423.364977) can0 09F80103#FFFFFF7FFFFFFF7F
(1746135423.374709) can0 18FF3D01#419FFFFF02FFFFFF
(1746135423.374710) can0 09F10501#80153038FFFF7FFF
(1746135423.375876) can0 09F10501#81FFFFFF0B11FFFF
(1746135423.375877) can0 09F10501#82FF7FFF7FFF7FFF
(1746135423.377038) can0 09F10501#83FFFFFFFFFFFFFF
(1746135423.377039) can0 09F10D07#FF07FF7F52E1FFFF
(1746135423.378180) can0 09F10D00#FF07FF7F0000FFFF
(1746135423.378182) can0 09F10D01#FF000000FF7FFFFF
(1746135423.414628) can0 1CFF1906#419F010B00000000
(1746135423.414631) can0 09FD0205#FFFFFFFFFFFBFFFF
(1746135423.464129) can0 09F80103#FFFFFF7FFFFFFF7F
(1746135423.513618) can0 1DF11A04#52FFFFFF2FFDFFFF
(1746135423.513620) can0 09F80203#54FFFFFFFFFFFFFF
(1746135423.523701) can0 09F10D07#FF07FF7F52E1FFFF
(1746135423.523702) can0 09F10D00#FF07FF7F0000FFFF
(1746135423.538406) can0 08FF0005#1399040500000200
(1746135423.563201) can0 09F80103#FFFFFF7FFFFFFF7F
(1746135423.563202) can0 09FD0205#FFFFFFFFFFF8FFFF
(1746135423.624672) can0 18FF3D01#419FFFFF02FFFFFF
(1746135423.624674) can0 09F10501#A0153038FFFF7FFF
(1746135423.625809) can0 09F10501#A1FFFFFF0B11FFFF
(1746135423.625810) can0 09F10501#A2FF7FFF7FFF7FFF
(1746135423.626959) can0 09F10501#A3FFFFFFFFFFFFFF
(1746135423.626960) can0 09F10D07#FF07FF7F52E1FFFF
(1746135423.628141) can0 09F10D00#FF07FF7F0000FFFF
(1746135423.628143) can0 09F10D01#FF000000FF7FFFFF
(1746135423.665060) can0 09F80103#FFFFFF7FFFFFFF7F
(1746135423.714605) can0 09FD0205#FFFFFFFFFFFBFFFF
(1746135423.764041) can0 09F80103#FFFFFF7FFFFFFF7F
(1746135423.764042) can0 09F80203#54FFFFFFFFFFFFFF
(1746135423.765121) can0 0DF80503#202B54FFFFFFFFFF
(1746135423.765122) can0 0DF80503#21FFFFFFFFFFFFFF
(1746135423.766311) can0 0DF80503#22FF7FFFFFFFFFFF
(1746135423.766311) can0 0DF80503#23FFFF7FFFFFFFFF
(1746135423.767453) can0 0DF80503#24FFFFFF7F00FCFF
(1746135423.767453) can0 0DF80503#25FF7FFF7FFFFFFF
(1746135423.768621) can0 0DF80503#267FFFFFFFFFFFFF
(1746135423.775173) can0 09F10D07#FF07FF7F52E1FFFF
(1746135423.775174) can0 09F10D00#FF07FF7F0000FFFF
(1746135423.788838) can0 08FF0005#1399040500000200
(1746135423.863293) can0 09F80103#FFFFFF7FFFFFFF7F
(1746135423.863295) can0 09FD0205#FFFFFFFFFFF8FFFF
(1746135423.874818) can0 18FF3D01#419FFFFF02FFFFFF
(1746135423.874819) can0 09F10501#C0153038FFFF7FFF
(1746135423.875964) can0 09F10501#C1FFFFFF0B11FFFF
(1746135423.875965) can0 09F10501#C2FF7FFF7FFF7FFF
(1746135423.877115) can0 09F10501#C3FFFFFFFFFFFFFF
(1746135423.877115) can0 09F10D07#FF07FF7F52E1FFFF
(1746135423.878354) can0 09F10D00#FF07FF7F0000FFFF
(1746135423.878355) can0 09F10D01#FF000000FF7FFFFF
(1746135423.912782) can0 1CFF1906#419F010300000000
(1746135423.912783) can0 0DF90304#523FFFFFFF7FFFFF
(1746135423.913916) can0 0DF90404#202252FFFFFFFFFF
(1746135423.913917) can0 0DF90404#21FFFFFFFFFFFFFF
(1746135423.915111) can0 0DF90404#22FFFFFFFFFFFFFF
(1746135423.915112) can0 0DF90404#23FFFFFFFFFFFFFF
(1746135423.916163) can0 0DF90404#247FFFFFFF7FFF7F
(1746135423.916163) can0 1DF90504#0027FFFF0200FFFF
(1746135423.917353) can0 1DF90504#01FFFF01030100FF
(1746135423.917354) can0 1DF90504#020000030100FFFF
(1746135423.918517) can0 1DF90504#03FF7FFFFFFF7F01
(1746135423.918518) can0 1DF90504#0400030100FFFFFF
(1746135423.919683) can0 1DF90504#057FFFFFFF7FFFFF
(1746135423.919684) can0 19FA0303#54FFFF7FFF7FFF7F
(1746135423.920829) can0 19FA0403#000354FFFFFFFFFF
(1746135423.920831) can0 0DFE1105#E00EFFFFFFFFFFFF
(1746135423.922016) can0 0DFE1105#E1FFFFFFFFFFFFFF
(1746135423.922017) can0 0DFE1105#E2FFFFFFFFFFFFFF
(1746135423.968196) can0 09F80103#FFFFFF7FFFFFFF7F
(1746135424.014740) can0 09F80203#54FFFFFFFFFFFFFF
(1746135424.014740) can0 09FD0205#FFFFFFFFFFFBFFFF
(1746135424.024752) can0 09F10D07#FF07FF7F52E1FFFF
(1746135424.024752) can0 09F10D00#FF07FF7F0000FFFF
(1746135424.039411) can0 08FF0005#1399040500000200
(1746135424.064193) can0 09F80103#FFFFFF7FFFFFFF7F
(1746135424.074549) can0 18FF3D01#419FFFFF02FFFFFF
(1746135424.074550) can0 09F10501#E0153038FFFF7FFF
(1746135424.075687) can0 09F10501#E1FFFFFF0B11FFFF
(1746135424.075687) can0 09F10501#E2FF7FFF7FFF7FFF
(1746135424.076851) can0 09F10501#E3FFFFFFFFFFFFFF
(1746135424.076852) can0 09F10D01#FF000000FF7FFFFF
(1746135424.099695) can0 04FF1901#419F640A08000000
(1746135424.124480) can0 09F10D07#FF07FF7F52E1FFFF
(1746135424.124482) can0 09F10D00#FF07FF7F0000FFFF
(1746135424.125602) can0 1DFF2C01#2017419F00000000
(1746135424.125603) can0 1DFF2C01#2100FFFFFF7FFFFF
(1746135424.126767) can0 1DFF2C01#22FFFFFFFFFF7FFF
(1746135424.126769) can0 1DFF2C01#23FFFFFFFFFFFFFF
(1746135424.163363) can0 09F80103#FFFFFF7FFFFFFF7F
(1746135424.163365) can0 09FD0205#FFFFFFFFFFF8FFFF
(1746135424.265277) can0 09F80103#FFFFFF7FFFFFFF7F
(1746135424.265279) can0 09F80203#54FFFFFFFFFFFFFF
(1746135424.274813) can0 18FF3D01#419FFFFF02FFFFFF
(1746135424.274814) can0 09F10501#00153038FFFF7FFF
(1746135424.275978) can0 09F10501#01FFFFFF0B11FFFF
(1746135424.275980) can0 09F10501#02FF7FFF7FFF7FFF
(1746135424.277121) can0 09F10501#03FFFFFFFFFFFFFF
(1746135424.277122) can0 09F10D07#FF07FF7F52E1FFFF
(1746135424.278267) can0 09F10D00#FF07FF7F0000FFFF
(1746135424.278268) can0 09F10D01#FF000000FF7FFFFF
(1746135424.290003) can0 08FF0005#1399040500000200
(1746135424.314817) can0 0DF01003#54F0FFFFFFFFFFFF
(1746135424.314819) can0 1DF11A03#55FFFFFF2FFDFFFF
(1746135424.315935) can0 09FD0205#FFFFFFFFFFFBFFFF
(1746135424.349677) can0 04FF1901#419F640202010000
(1746135424.364263) can0 09F80103#FFFFFF7FFFFFFF7F
(1746135424.374416) can0 09F10D07#FF07FF7F52E1FFFF
(1746135424.374417) can0 09F10D00#FF07FF7F0000FFFF
(1746135424.413859) can0 1CFF1906#419F010B00000000
(1746135424.463309) can0 09F80103#FFFFFF7FFFFFFF7F
(1746135424.463311) can0 09FD0205#FFFFFFFFFFF8FFFF
(1746135424.512848) can0 1DF11A04#53FFFFFF2FFDFFFF
(1746135424.512849) can0 09F80203#55FFFFFFFFFFFFFF
(1746135424.522691) can0 18FF3D01#419FFFFF02FFFFFF
(1746135424.522693) can0 09F10501#20153038FFFF7FFF
(1746135424.523827) can0 09F10501#21FFFFFF0B11FFFF
(1746135424.523828) can0 09F10501#22FF7FFF7FFF7FFF
(1746135424.525000) can0 09F10501#23FFFFFFFFFFFFFF
(1746135424.525001) can0 09F10D07#FF07FF7F52E1FFFF
(1746135424.526142) can0 09F10D00#FF07FF7F0000FFFF
(1746135424.526143) can0 09F10D01#FF000000FF7FFFFF
(1746135424.540547) can0 08FF0005#1399040500000200
(1746135424.565266) can0 09F80103#FFFFFF7FFFFFFF7F
(1746135424.614734) can0 09FD0205#FFFFFFFFFFFBFFFF
(1746135424.624317) can0 09F10D07#FF07FF7F52E1FFFF
(1746135424.624318) can0 09F10D00#FF07FF7F0000FFFF
(1746135424.664262) can0 09F80103#FFFFFF7FFFFFFF7F
(1746135424.763321) can0 09F80103#FFFFFF7FFFFFFF7F
(1746135424.763323) can0 09F80203#55FFFFFFFFFFFFFF
(1746135424.764448) can0 0DF80503#402B55FFFFFFFFFF
(1746135424.764450) can0 0DF80503#41FFFFFFFFFFFFFF
(1746135424.765685) can0 0DF80503#42FF7FFFFFFFFFFF
(1746135424.765686) can0 0DF80503#43FFFF7FFFFFFFFF
(1746135424.766850) can0 0DF80503#44FFFFFF7F00FCFF
(1746135424.766851) can0 0DF80503#45FF7FFF7FFFFFFF
(1746135424.767929) can0 0DF80503#467FFFFFFFFFFFFF
(1746135424.767930) can0 09FD0205#FFFFFFFFFFF8FFFF
(1746135424.775046) can0 18FF3D01#419FFFFF02FFFFFF
(1746135424.775047) can0 09F10501#40153038FFFF7FFF
(1746135424.776159) can0 09F10501#41FFFFFF0B11FFFF
(1746135424.776161) can0 09F10501#42FF7FFF7FFF7FFF
(1746135424.777345) can0 09F10501#43FFFFFFFFFFFFFF
(1746135424.777346) can0 09F10D07#FF07FF7F52E1FFFF
(1746135424.778436) can0 09F10D00#FF07FF7F0000FFFF
(1746135424.778437) can0 09F10D01#FF000000FF7FFFFF
(1746135424.788113) can0 08FF0005#1399040500000200
(1746135424.865320) can0 09F80103#FFFFFF7FFFFFFF7F
(1746135424.874568) can0 09F10D07#FF07FF7F52E1FFFF
(1746135424.874570) can0 09F10D00#FF07FF7F0000FFFF
(1746135424.914809) can0 1CFF1906#419F010300000000
(1746135424.914811) can0 0DF90304#533FFFFFFF7FFFFF
(1746135424.915912) can0 0DF90404#402253FFFFFFFFFF
(1746135424.915914) can0 0DF90404#41FFFFFFFFFFFFFF
(1746135424.917091) can0 0DF90404#42FFFFFFFFFFFFFF
(1746135424.917092) can0 0DF90404#43FFFFFFFFFFFFFF
(1746135424.918326) can0 0DF90404#447FFFFFFF7FFF7F
(1746135424.918327) can0 19FA0303#55FFFF7FFF7FFF7F
(1746135424.919490) can0 19FA0403#200355FFFFFFFFFF
(1746135424.919491) can0 09FD0205#FFFFFFFFFFFBFFFF
(1746135424.920678) can0 0DFE1105#000EFFFFFFFFFFFF
(1746135424.920679) can0 0DFE1105#01FFFFFFFFFFFFFF
(1746135424.921846) can0 0DFE1105#02FFFFFFFFFFFFFF
(1746135424.967599) can0 09F80103#FFFFFF7FFFFFFF7F
(1746135424.974768) can0 18FF3D01#419FFFFF02FFFFFF
(1746135424.974769) can0 09F10501#60153038FFFF7FFF
(1746135424.975888) can0 09F10501#61FFFFFF0B11FFFF
(1746135424.975889) can0 09F10501#62FF7FFF7FFF7FFF
(1746135424.977054) can0 09F10501#63FFFFFFFFFFFFFF
(1746135424.977055) can0 09F10D07#FF07FF7F52E1FFFF
(1746135424.978219) can0 09F10D00#FF07FF7F0000FFFF
(1746135424.978221) can0 09F10D01#FF000000FF7FFFFF
(1746135425.013960) can0 09F80203#55FFFFFFFFFFFFFF
(1746135425.038769) can0 08FF0005#1399040500000200
(1746135425.063509) can0 09F80103#FFFFFF7FFFFFFF7F
(1746135425.063511) can0 09FD0205#FFFFFFFFFFF8FFFF
(1746135425.123726) can0 09F10D07#FF07FF7F52E1FFFF
(1746135425.123727) can0 09F10D00#FF07FF7F0000FFFF
(1746135425.149939) can0 04FF1901#419F640A08000000
(1746135425.165479) can0 09F80103#FFFFFF7FFFFFFF7F
(1746135425.172779) can0 18FF3D01#419FFFFF02FFFFFF
(1746135425.172781) can0 09F10501#80153038FFFF7FFF
(1746135425.173875) can0 09F10501#81FFFFFF0B11FFFF
(1746135425.173876) can0 09F10501#82FF7FFF7FFF7FFF
(1746135425.175101) can0 09F10501#83FFFFFFFFFFFFFF
(1746135425.175102) can0 09F10D01#FF000000FF7FFFFF
(1746135425.176245) can0 1DFF2C01#4017419F00000000
(1746135425.176252) can0 1DFF2C01#4100FFFFFF7FFFFF
(1746135425.177395) can0 1DFF2C01#42FFFFFFFFFF7FFF
(1746135425.177396) can0 1DFF2C01#43FFFFFFFFFFFFFF
(1746135425.214937) can0 09FD0205#FFFFFFFFFFFBFFFF
(1746135425.222748) can0 09F10D07#FF07FF7F52E1FFFF
(1746135425.222749) can0 09F10D00#FF07FF7F0000FFFF
(1746135425.264539) can0 09F80103#FFFFFF7FFFFFFF7F
(1746135425.264540) can0 09F80203#55FFFFFFFFFFFFFF
(1746135425.289261) can0 08FF0005#1399040500000200
(1746135425.314011) can0 0DF01003#55F0FFFFFFFFFFFF
(1746135425.314013) can0 1DF11A03#56FFFFFF2FFDFFFF
(1746135425.324202) can0 09F10D07#FF07FF7F52E1FFFF
(1746135425.324204) can0 09F10D00#FF07FF7F0000FFFF
(1746135425.363561) can0 09F80103#FFFFFF7FFFFFFF7F
(1746135425.363563) can0 09FD0205#FFFFFFFFFFF8FFFF
(1746135425.397811) can0 04FF1901#419F640202010000
(1746135425.413113) can0 1CFF1906#419F010B00000000
(1746135425.422818) can0 18FF3D01#419FFFFF02FFFFFF
(1746135425.422820) can0 09F10501#A0153038FFFF7FFF
(1746135425.423950) can0 09F10501#A1FFFFFF0B11FFFF
(1746135425.423950) can0 09F10501#A2FF7FFF7FFF7FFF
(1746135425.425075) can0 09F10501#A3FFFFFFFFFFFFFF
(1746135425.425076) can0 09F10D01#FF000000FF7FFFFF
(1746135425.462565) can0 09F80103#FFFFFF7FFFFFFF7F
(1746135425.472665) can0 09F10D07#FF07FF7F52E1FFFF
(1746135425.472667) can0 09F10D00#FF07FF7F0000FFFF
(1746135425.514923) can0 1DF11A04#54FFFFFF2FFDFFFF
(1746135425.514925) can0 09F80203#56FFFFFFFFFFFFFF
(1746135425.516074) can0 09FD0205#FFFFFFFFFFFBFFFF
(1746135425.539716) can0 08FF0005#1399040500000200
(1746135425.564527) can0 09F80103#FFFFFF7FFFFFFF7F
(1746135425.574102) can0 09F10D07#FF07FF7F52E1FFFF
(1746135425.574104) can0 09F10D00#FF07FF7F0000FFFF
(1746135425.623950) can0 18FF3D01#419FFFFF02FFFFFF
(1746135425.623952) can0 09F10501#C0153038FFFF7FFF
(1746135425.625056) can0 09F10501#C1FFFFFF0B11FFFF
(1746135425.625057) can0 09F10501#C2FF7FFF7FFF7FFF
(1746135425.626222) can0 09F10501#C3FFFFFFFFFFFFFF
(1746135425.626223) can0 09F10D01#FF000000FF7FFFFF
(1746135425.663515) can0 09F80103#FFFFFF7FFFFFFF7F
(1746135425.663517) can0 09FD0205#FFFFFFFFFFF8FFFF
(1746135425.673808) can0 09F10D07#FF07FF7F52E1FFFF
(1746135425.673810) can0 09F10D00#FF07FF7F0000FFFF
(1746135425.762610) can0 09F80103#FFFFFF7FFFFFFF7F
(1746135425.762612) can0 09F80203#56FFFFFFFFFFFFFF
(1746135425.763760) can0 0DF80503#602B56FFFFFFFFFF
(1746135425.763761) can0 0DF80503#61FFFFFFFFFFFFFF
(1746135425.765515) can0 0DF80503#62FF7FFFFFFFFFFF
(1746135425.765516) can0 0DF80503#63FFFF7FFFFFFFFF
(1746135425.766644) can0 0DF80503#64FFFFFF7F00FCFF
(1746135425.766645) can0 0DF80503#65FF7FFF7FFFFFFF
(1746135425.767803) can0 0DF80503#667FFFFFFFFFFFFF
(1746135425.774705) can0 09F10D07#FF07FF7F52E1FFFF
(1746135425.774707) can0 09F10D00#FF07FF7F0000FFFF
(1746135425.790262) can0 08FF0005#1399040500000200
(1746135425.815004) can0 09FD0205#FFFFFFFFFFFBFFFF
(1746135425.824807) can0 18FF3D01#419FFFFF02FFFFFF
(1746135425.824809) can0 09F10501#E0153038FFFF7FFF
(1746135425.825979) can0 09F10501#E1FFFFFF0B11FFFF
(1746135425.825979) can0 09F10501#E2FF7FFF7FFF7FFF
(1746135425.827134) can0 09F10501#E3FFFFFFFFFFFFFF
(1746135425.827135) can0 09F10D01#FF000000FF7FFFFF
(1746135425.864554) can0 09F80103#FFFFFF7FFFFFFF7F
(1746135425.874518) can0 09F10D07#FF07FF7F52E1FFFF
(1746135425.874520) can0 09F10D00#FF07FF7F0000FFFF
(1746135425.913981) can0 1CFF1906#419F010300000000
(1746135425.913983) can0 0DF90304#543FFFFFFF7FFFFF
(1746135425.915198) can0 0DF90404#602254FFFFFFFFFF
(1746135425.915199) can0 0DF90404#61FFFFFFFFFFFFFF
(1746135425.916317) can0 0DF90404#62FFFFFFFFFFFFFF
(1746135425.916318) can0 0DF90404#63FFFFFFFFFFFFFF
(1746135425.917454) can0 0DF90404#647FFFFFFF7FFF7F
(1746135425.917455) can0 19FA0303#56FFFF7FFF7FFF7F
(1746135425.918594) can0 19FA0403#400356FFFFFFFFFF
(1746135425.918595) can0 0DFE1105#200EFFFFFFFFFFFF
(1746135425.919760) can0 0DFE1105#21FFFFFFFFFFFFFF
(1746135425.919761) can0 0DFE1105#22FFFFFFFFFFFFFF
(1746135425.966693) can0 09F80103#FFFFFF7FFFFFFF7F
(1746135425.966695) can0 09FD0205#FFFFFFFFFFF8FFFF
(1746135425.974412) can0 09F10D07#FF07FF7F52E1FFFF
(1746135425.974413) can0 09F10D00#FF07FF7F0000FFFF
(1746135426.013162) can0 09F80203#56FFFFFFFFFFFFFF
(1746135426.037898) can0 08FF0005#1399040500000200
(1746135426.062659) can0 09F80103#FFFFFF7FFFFFFF7F
(1746135426.073880) can0 18FF3D01#419FFFFF02FFFFFF
(1746135426.073881) can0 09F10501#00153038FFFF7FFF
(1746135426.074971) can0 09F10501#01FFFFFF0B11FFFF
(1746135426.074972) can0 09F10501#02FF7FFF7FFF7FFF
(1746135426.076122) can0 09F10501#03FFFFFFFFFFFFFF
(1746135426.076123) can0 09F10D01#FF000000FF7FFFFF
(1746135426.115107) can0 09FD0205#FFFFFFFFFFFBFFFF
(1746135426.123707) can0 09F10D07#FF07FF7F52E1FFFF
(1746135426.123708) can0 09F10D00#FF07FF7F0000FFFF
(1746135426.149963) can0 04FF1901#419F640A08000000
(1746135426.164571) can0 09F80103#FFFFFF7FFFFFFF7F
(1746135426.174744) can0 1DFF2C01#6017419F00000000
(1746135426.174745) can0 1DFF2C01#6100FFFFFF7FFFFF
(1746135426.175891) can0 1DFF2C01#62FFFFFFFFFF7FFF
(1746135426.175892) can0 1DFF2C01#63FFFFFFFFFFFFFF
(1746135426.224415) can0 09F10D07#FF07FF7F52E1FFFF
(1746135426.224417) can0 09F10D00#FF07FF7F0000FFFF
(1746135426.263619) can0 09F80103#FFFFFF7FFFFFFF7F
(1746135426.263620) can0 09F80203#56FFFFFFFFFFFFFF
(1746135426.264792) can0 09FD0205#FFFFFFFFFFF8FFFF
(1746135426.274287) can0 18FF3D01#419FFFFF02FFFFFF
(1746135426.274288) can0 09F10501#20153038FFFF7FFF
(1746135426.275417) can0 09F10501#21FFFFFF0B11FFFF
(1746135426.275418) can0 09F10501#22FF7FFF7FFF7FFF
(1746135426.276594) can0 09F10501#23FFFFFFFFFFFFFF
(1746135426.276595) can0 09F10D01#FF000000FF7FFFFF
(1746135426.288353) can0 08FF0005#1399040500000200
(1746135426.313180) can0 0DF01003#56F0FFFFFFFFFFFF
(1746135426.313181) can0 1DF11A03#57FFFFFF2FFDFFFF
(1746135426.362559) can0 09F80103#FFFFFF7FFFFFFF7F
(1746135426.373724) can0 09F10D07#FF07FF7F52E1FFFF
(1746135426.373725) can0 09F10D00#FF07FF7F0000FFFF
(1746135426.397803) can0 04FF1901#419F640202010000
(1746135426.414978) can0 1CFF1906#419F010B00000000
(1746135426.414981) can0 09FD0205#FFFFFFFFFFFBFFFF
(1746135426.464523) can0 09F80103#FFFFFF7FFFFFFF7F
(1746135426.474655) can0 18FF3D01#419FFFFF02FFFFFF
(1746135426.474657) can0 09F10501#40153038FFFF7FFF
(1746135426.475778) can0 09F10501#41FFFFFF0B11FFFF
(1746135426.475779) can0 09F10501#42FF7FFF7FFF7FFF
(1746135426.476943) can0 09F10501#43FFFFFFFFFFFFFF
(1746135426.476944) can0 09F10D07#FF07FF7F52E1FFFF
(1746135426.478088) can0 09F10D00#FF07FF7F0000FFFF
(1746135426.478090) can0 09F10D01#FF000000FF7FFFFF
(1746135426.513988) can0 1DFF0005#00061399FF050001
(1746135426.513991) can0 1DF11A04#55FFFFFF2FFDFFFF
(1746135426.515105) can0 09F80203#57FFFFFFFFFFFFFF
(1746135426.538866) can0 08FF0005#1399040500000200
(1746135426.563525) can0 09F80103#FFFFFF7FFFFFFF7F
(1746135426.563527) can0 09FD0205#FFFFFFFFFFF8FFFF
(1746135426.623793) can0 09F10D07#FF07FF7F52E1FFFF
(1746135426.623794) can0 09F10D00#FF07FF7F0000FFFF
(1746135426.662527) can0 09F80103#FFFFFF7FFFFFFF7F
(1746135426.674836) can0 18FF3D01#419FFFFF02FFFFFF
(1746135426.674838) can0 09F10501#60153038FFFF7FFF
(1746135426.675926) can0 09F10501#61FFFFFF0B11FFFF
(1746135426.675927) can0 09F10501#62FF7FFF7FFF7FFF
(1746135426.677071) can0 09F10501#63FFFFFFFFFFFFFF
(1746135426.677072) can0 09F10D01#FF000000FF7FFFFF
(1746135426.714943) can0 09FD0205#FFFFFFFFFFFBFFFF
(1746135426.724691) can0 09F10D07#FF07FF7F52E1FFFF
(1746135426.724692) can0 09F10D00#FF07FF7F0000FFFF
(1746135426.764432) can0 09F80103#FFFFFF7FFFFFFF7F
(1746135426.764433) can0 09F80203#57FFFFFFFFFFFFFF
(1746135426.765506) can0 0DF80503#802B57FFFFFFFFFF
(1746135426.765507) can0 0DF80503#81FFFFFFFFFFFFFF
(1746135426.766698) can0 0DF80503#82FF7FFFFFFFFFFF
(1746135426.766699) can0 0DF80503#83FFFF7FFFFFFFFF
(1746135426.767839) can0 0DF80503#84FFFFFF7F00FCFF
(1746135426.767839) can0 0DF80503#85FF7FFF7FFFFFFF
(1746135426.769007) can0 0DF80503#867FFFFFFFFFFFFF
(1746135426.789161) can0 08FF0005#1399040500000200
(1746135426.824405) can0 09F10D07#FF07FF7F52E1FFFF
(1746135426.824407) can0 09F10D00#FF07FF7F0000FFFF
(1746135426.866775) can0 09F80103#FFFFFF7FFFFFFF7F
(1746135426.866778) can0 09FD0205#FFFFFFFFFFF8FFFF
(1746135426.913088) can0 1CFF1906#419F010300000000
(1746135426.913091) can0 0DF90304#553FFFFFFF7FFFFF
(1746135426.914234) can0 0DF90404#802255FFFFFFFFFF
(1746135426.914236) can0 0DF90404#81FFFFFFFFFFFFFF
(1746135426.915357) can0 0DF90404#82FFFFFFFFFFFFFF
(1746135426.915357) can0 0DF90404#83FFFFFFFFFFFFFF
(1746135426.916551) can0 0DF90404#847FFFFFFF7FFF7F
(1746135426.916551) can0 19FA0303#57FFFF7FFF7FFF7F
(1746135426.917693) can0 19FA0403#600357FFFFFFFFFF
(1746135426.917694) can0 0DFE1105#400EFFFFFFFFFFFF
(1746135426.918882) can0 0DFE1105#41FFFFFFFFFFFFFF
(1746135426.918883) can0 0DFE1105#42FFFFFFFFFFFFFF
(1746135426.924273) can0 18FF3D01#419FFFFF02FFFFFF
(1746135426.924273) can0 09F10501#80153038FFFF7FFF
(1746135426.925396) can0 09F10501#81FFFFFF0B11FFFF
(1746135426.925397) can0 09F10501#82FF7FFF7FFF7FFF
(1746135426.926570) can0 09F10501#83FFFFFFFFFFFFFF
(1746135426.926571) can0 09F10D01#FF000000FF7FFFFF
(1746135426.962555) can0 09F80103#FFFFFF7FFFFFFF7F
(1746135426.974241) can0 09F10D07#FF07FF7F52E1FFFF
(1746135426.974243) can0 09F10D00#FF07FF7F0000FFFF
(1746135427.015001) can0 09F80203#57FFFFFFFFFFFFFF
(1746135427.015002) can0 09FD0205#FFFFFFFFFFFBFFFF
(1746135427.039819) can0 08FF0005#1399040500000200
(1746135427.064567) can0 09F80103#FFFFFF7FFFFFFF7F
(1746135427.124635) can0 18FF3D01#419FFFFF02FFFFFF
(1746135427.124637) can0 09F10501#A0153038FFFF7FFF
(1746135427.125798) can0 09F10501#A1FFFFFF0B11FFFF
(1746135427.125799) can0 09F10501#A2FF7FFF7FFF7FFF
(1746135427.126987) can0 09F10501#A3FFFFFFFFFFFFFF
(1746135427.126988) can0 09F10D07#FF07FF7F52E1FFFF
(1746135427.128005) can0 09F10D00#FF07FF7F0000FFFF
(1746135427.128006) can0 09F10D01#FF000000FF7FFFFF
(1746135427.149663) can0 04FF1901#419F640A08000000
(1746135427.163501) can0 09F80103#FFFFFF7FFFFFFF7F
(1746135427.163503) can0 09FD0205#FFFFFFFFFFF8FFFF
(1746135427.174490) can0 1DFF2C01#8017419F00000000
(1746135427.174492) can0 1DFF2C01#8100FFFFFF7FFFFF
(1746135427.175569) can0 1DFF2C01#82FFFFFFFFFF7FFF
(1746135427.175570) can0 1DFF2C01#83FFFFFFFFFFFFFF
(1746135427.262546) can0 09F80103#FFFFFF7FFFFFFF7F
(1746135427.262548) can0 09F80203#57FFFFFFFFFFFFFF
(1746135427.272880) can0 09F10D07#FF07FF7F52E1FFFF
(1746135427.272881) can0 09F10D00#FF07FF7F0000FFFF
(1746135427.290119) can0 08FF0005#1399040500000200
(1746135427.314862) can0 0DF01003#57F0FFFFFFFFFFFF
(1746135427.314863) can0 1DF11A03#58FFFFFF2FFDFFFF
(1746135427.315990) can0 09FD0205#FFFFFFFFFFFBFFFF
(1746135427.364413) can0 09F80103#FFFFFF7FFFFFFF7F
(1746135427.374596) can0 18FF3D01#419FFFFF02FFFFFF
(1746135427.374599) can0 09F10501#C0153038FFFF7FFF
(1746135427.375693) can0 09F10501#C1FFFFFF0B11FFFF
(1746135427.375694) can0 09F10501#C2FF7FFF7FFF7FFF
(1746135427.376861) can0 09F10501#C3FFFFFFFFFFFFFF
(1746135427.376863) can0 09F10D07#FF07FF7F52E1FFFF
(1746135427.378003) can0 09F10D00#FF07FF7F0000FFFF
(1746135427.378003) can0 09F10D01#FF000000FF7FFFFF
(1746135427.399852) can0 04FF1901#419F640202010000
(1746135427.413858) can0 1CFF1906#419F010B00000000
(1746135427.463465) can0 09F80103#FFFFFF7FFFFFFF7F
(1746135427.463467) can0 09FD0205#FFFFFFFFFFF8FFFF
(1746135427.513021) can0 1DF11A04#56FFFFFF2FFDFFFF
(1746135427.513022) can0 09F80203#58FFFFFFFFFFFFFF
(1746135427.523759) can0 09F10D07#FF07FF7F52E1FFFF
(1746135427.523761) can0 09F10D00#FF07FF7F0000FFFF
(1746135427.537810) can0 08FF0005#1399040500000200
(1746135427.562531) can0 09F80103#FFFFFF7FFFFFFF7F
(1746135427.614840) can0 09FD0205#FFFFFFFFFFFBFFFF
(1746135427.624659) can0 18FF3D01#419FFFFF02FFFFFF
(1746135427.624661) can0 09F10501#E0153038FFFF7FFF
(1746135427.625816) can0 09F10501#E1FFFFFF0B11FFFF
(1746135427.625817) can0 09F10501#E2FF7FFF7FFF7FFF
(1746135427.626981) can0 09F10501#E3FFFFFFFFFFFFFF
(1746135427.626982) can0 09F10D07#FF07FF7F52E1FFFF
(1746135427.628114) can0 09F10D00#FF07FF7F0000FFFF
(1746135427.628115) can0 09F10D01#FF000000FF7FFFFF
(1746135427.664385) can0 09F80103#FFFFFF7FFFFFFF7F
(1746135427.763383) can0 09F80103#FFFFFF7FFFFFFF7F
(1746135427.763385) can0 09F80203#58FFFFFFFFFFFFFF
(1746135427.764532) can0 0DF80503#A02B58FFFFFFFFFF
(1746135427.764534) can0 0DF80503#A1FFFFFFFFFFFFFF
(1746135427.765656) can0 0DF80503#A2FF7FFFFFFFFFFF
(1746135427.765657) can0 0DF80503#A3FFFF7FFFFFFFFF
(1746135427.766794) can0 0DF80503#A4FFFFFF7F00FCFF
(1746135427.766796) can0 0DF80503#A5FF7FFF7FFFFFFF
(1746135427.767991) can0 0DF80503#A67FFFFFFFFFFFFF
(1746135427.767992) can0 09FD0205#FFFFFFFFFFF8FFFF
(1746135427.775166) can0 09F10D07#FF07FF7F52E1FFFF
(1746135427.775167) can0 09F10D00#FF07FF7F0000FFFF
(1746135427.788180) can0 08FF0005#1399040500000200
(1746135427.822876) can0 18FF3D01#419FFFFF02FFFFFF
(1746135427.865356) can0 09F80103#FFFFFF7FFFFFFF7F
(1746135427.874745) can0 09F10501#00153038FFFF7FFF
(1746135427.874748) can0 09F10501#01FFFFFF0B11FFFF
(1746135427.875862) can0 09F10501#02FF7FFF7FFF7FFF
(1746135427.875863) can0 09F10501#03FFFFFFFFFFFFFF
(1746135427.877026) can0 09F10D07#FF07FF7F52E1FFFF
(1746135427.877026) can0 09F10D00#FF07FF7F0000FFFF
(1746135427.878161) can0 09F10D01#FF000000FF7FFFFF
(1746135427.914895) can0 1CFF1906#419F010300000000
(1746135427.914896) can0 0DF90304#563FFFFFFF7FFFFF
(1746135427.916009) can0 0DF90404#A02256FFFFFFFFFF
(1746135427.916010) can0 0DF90404#A1FFFFFFFFFFFFFF
(1746135427.917164) can0 0DF90404#A2FFFFFFFFFFFFFF
(1746135427.917167) can0 0DF90404#A3FFFFFFFFFFFFFF
(1746135427.918334) can0 0DF90404#A47FFFFFFF7FFF7F
(1746135427.918335) can0 19FA0303#58FFFF7FFF7FFF7F
(1746135427.919503) can0 19FA0403#800358FFFFFFFFFF
(1746135427.919505) can0 09FD0205#FFFFFFFFFFFBFFFF
(1746135427.920670) can0 0DFE1105#600EFFFFFFFFFFFF
(1746135427.920672) can0 0DFE1105#61FFFFFFFFFFFFFF
(1746135427.921837) can0 0DFE1105#62FFFFFFFFFFFFFF
(1746135427.964425) can0 09F80103#FFFFFF7FFFFFFF7F
(1746135428.014006) can0 09F80203#58FFFFFFFFFFFFFF
(1746135428.024508) can0 18FF3D01#419FFFFF02FFFFFF
(1746135428.024509) can0 09F10D07#FF07FF7F52E1FFFF
(1746135428.025734) can0 09F10D00#FF07FF7F0000FFFF
(1746135428.038901) can0 08FF0005#1399040500000200
(1746135428.063728) can0 09F80103#FFFFFF7FFFFFFF7F
(1746135428.063730) can0 09FD0205#FFFFFFFFFFF8FFFF
(1746135428.123812) can0 09F10501#20153038FFFF7FFF
(1746135428.123814) can0 09F10501#21FFFFFF0B11FFFF
(1746135428.124928) can0 09F10501#22FF7FFF7FFF7FFF
(1746135428.124929) can0 09F10501#23FFFFFFFFFFFFFF
(1746135428.126088) can0 09F10D01#FF000000FF7FFFFF
(1746135428.162701) can0 09F80103#FFFFFF7FFFFFFF7F
(1746135428.172777) can0 09F10D07#FF07FF7F52E1FFFF
(1746135428.172778) can0 09F10D00#FF07FF7F0000FFFF
(1746135428.199853) can0 04FF1901#419F640A08000000
(1746135428.215121) can0 09FD0205#FFFFFFFFFFFBFFFF
(1746135428.224701) can0 18FF3D01#419FFFFF02FFFFFF
(1746135428.224702) can0 1DFF2C01#A017419F00000000
(1746135428.225798) can0 1DFF2C01#A100FFFFFF7FFFFF
(1746135428.225799) can0 1DFF2C01#A2FFFFFFFFFF7FFF
(1746135428.226980) can0 1DFF2C01#A3FFFFFFFFFFFFFF
(1746135428.264573) can0 09F80103#FFFFFF7FFFFFFF7F
(1746135428.264574) can0 09F80203#58FFFFFFFFFFFFFF
(1746135428.274507) can0 09F10D07#FF07FF7F52E1FFFF
(1746135428.274508) can0 09F10D00#FF07FF7F0000FFFF
(1746135428.289425) can0 08FF0005#1399040500000200
(1746135428.314170) can0 0DF01003#58F0FFFFFFFFFFFF
(1746135428.314171) can0 1DF11A03#59FFFFFF2FFDFFFF
(1746135428.324380) can0 09F10501#40153038FFFF7FFF
(1746135428.324381) can0 09F10501#41FFFFFF0B11FFFF
(1746135428.325548) can0 09F10501#42FF7FFF7FFF7FFF
(1746135428.325549) can0 09F10501#43FFFFFFFFFFFFFF
(1746135428.326717) can0 09F10D01#FF000000FF7FFFFF
(1746135428.363667) can0 09F80103#FFFFFF7FFFFFFF7F
(1746135428.363669) can0 09FD0205#FFFFFFFFFFF8FFFF
(1746135428.413213) can0 1CFF1906#419F010B00000000
(1746135428.422907) can0 09F10D07#FF07FF7F52E1FFFF
(1746135428.422908) can0 09F10D00#FF07FF7F0000FFFF
(1746135428.450033) can0 04FF1901#419F640202010000
(1746135428.462795) can0 09F80103#FFFFFF7FFFFFFF7F
(1746135428.474794) can0 18FF3D01#419FFFFF02FFFFFF
(1746135428.515133) can0 1DF11A04#57FFFFFF2FFDFFFF
(1746135428.515134) can0 09F80203#59FFFFFFFFFFFFFF
(1746135428.516218) can0 09FD0205#FFFFFFFFFFFBFFFF
(1746135428.524750) can0 09F10501#60153038FFFF7FFF
(1746135428.524751) can0 09F10501#61FFFFFF0B11FFFF
(1746135428.525904) can0 09F10501#62FF7FFF7FFF7FFF
(1746135428.525905) can0 09F10501#63FFFFFFFFFFFFFF
(1746135428.527055) can0 09F10D07#FF07FF7F52E1FFFF
(1746135428.527056) can0 09F10D00#FF07FF7F0000FFFF
(1746135428.528108) can0 09F10D01#FF000000FF7FFFFF
(1746135428.539800) can0 08FF0005#1399040500000200
(1746135428.564542) can0 09F80103#FFFFFF7FFFFFFF7F
(1746135428.663675) can0 09F80103#FFFFFF7FFFFFFF7F
(1746135428.663677) can0 09FD0205#FFFFFFFFFFF8FFFF
(1746135428.674911) can0 09F10D07#FF07FF7F52E1FFFF
(1746135428.674913) can0 09F10D00#FF07FF7F0000FFFF
(1746135428.724682) can0 18FF3D01#419FFFFF02FFFFFF
(1746135428.724684) can0 09F10501#80153038FFFF7FFF
(1746135428.725784) can0 09F10501#81FFFFFF0B11FFFF
(1746135428.725785) can0 09F10501#82FF7FFF7FFF7FFF
(1746135428.726916) can0 09F10501#83FFFFFFFFFFFFFF
(1746135428.726917) can0 09F10D01#FF000000FF7FFFFF
(1746135428.762642) can0 09F80103#FFFFFF7FFFFFFF7F
(1746135428.762643) can0 09F80203#59FFFFFFFFFFFFFF
(1746135428.763729) can0 0DF80503#C02B59FFFFFFFFFF
(1746135428.763730) can0 0DF80503#C1FFFFFFFFFFFFFF
(1746135428.764895) can0 0DF80503#C2FF7FFFFFFFFFFF
(1746135428.764895) can0 0DF80503#C3FFFF7FFFFFFFFF
(1746135428.766063) can0 0DF80503#C4FFFFFF7F00FCFF
(1746135428.766064) can0 0DF80503#C5FF7FFF7FFFFFFF
(1746135428.767228) can0 0DF80503#C67FFFFFFFFFFFFF
(1746135428.774851) can0 09F10D07#FF07FF7F52E1FFFF
(1746135428.774851) can0 09F10D00#FF07FF7F0000FFFF
(1746135428.787419) can0 08FF0005#1399040500000200
(1746135428.815045) can0 09FD0205#FFFFFFFFFFFBFFFF
(1746135428.864601) can0 09F80103#FFFFFF7FFFFFFF7F
(1746135428.914130) can0 1CFF1906#419F010300000000
(1746135428.914131) can0 0DF90304#573FFFFFFF7FFFFF
(1746135428.915307) can0 0DF90404#C02257FFFFFFFFFF
(1746135428.915308) can0 0DF90404#C1FFFFFFFFFFFFFF
(1746135428.916536) can0 0DF90404#C2FFFFFFFFFFFFFF
(1746135428.916537) can0 0DF90404#C3FFFFFFFFFFFFFF
(1746135428.917724) can0 0DF90404#C47FFFFFFF7FFF7F
(1746135428.917725) can0 1DF90504#2027FFFF0200FFFF
(1746135428.918778) can0 1DF90504#21FFFF01030100FF
(1746135428.918779) can0 1DF90504#220000030100FFFF
(1746135428.919968) can0 1DF90504#23FF7FFFFFFF7F01
(1746135428.919970) can0 1DF90504#2400030100FFFFFF
(1746135428.921134) can0 1DF90504#257FFFFFFF7FFFFF
(1746135428.921135) can0 19FA0303#59FFFF7FFF7FFF7F
(1746135428.922302) can0 19FA0403#A00359FFFFFFFFFF
(1746135428.922303) can0 0DFE1105#800EFFFFFFFFFFFF
(1746135428.923535) can0 0DFE1105#81FFFFFFFFFFFFFF
(1746135428.923536) can0 0DFE1105#82FFFFFFFFFFFFFF
(1746135428.924670) can0 09F10D07#FF07FF7F52E1FFFF
(1746135428.924671) can0 09F10D00#FF07FF7F0000FFFF
(1746135428.963698) can0 09F80103#FFFFFF7FFFFFFF7F
(1746135428.963699) can0 09FD0205#FFFFFFFFFFF8FFFF
(1746135428.974635) can0 18FF3D01#419FFFFF02FFFFFF
(1746135428.974637) can0 09F10501#A0153038FFFF7FFF
(1746135428.975773) can0 09F10501#A1FFFFFF0B11FFFF
(1746135428.975774) can0 09F10501#A2FF7FFF7FFF7FFF
(1746135428.976916) can0 09F10501#A3FFFFFFFFFFFFFF
(1746135428.976917) can0 09F10D01#FF000000FF7FFFFF
(1746135429.013229) can0 09F80203#59FFFFFFFFFFFFFF
(1746135429.024565) can0 09F10D07#FF07FF7F52E1FFFF
(1746135429.024566) can0 09F10D00#FF07FF7F0000FFFF
(1746135429.038122) can0 08FF0005#1399040500000200
(1746135429.062851) can0 09F80103#FFFFFF7FFFFFFF7F
(1746135429.118303) can0 09FD0205#FFFFFFFFFFFBFFFF
(1746135429.164610) can0 09F80103#FFFFFF7FFFFFFF7F
(1746135429.174693) can0 18FF3D01#419FFFFF02FFFFFF
(1746135429.174694) can0 09F10501#C0153038FFFF7FFF
(1746135429.175839) can0 09F10501#C1FFFFFF0B11FFFF
(1746135429.175840) can0 09F10501#C2FF7FFF7FFF7FFF
(1746135429.176996) can0 09F10501#C3FFFFFFFFFFFFFF
(1746135429.176998) can0 09F10D07#FF07FF7F52E1FFFF
(1746135429.178089) can0 09F10D00#FF07FF7F0000FFFF
(1746135429.178090) can0 09F10D01#FF000000FF7FFFFF
(1746135429.199858) can0 04FF1901#419F640A08000000
(1746135429.224660) can0 1DFF2C01#C017419F00000000
(1746135429.224661) can0 1DFF2C01#C100FFFFFF7FFFFF
(1746135429.225819) can0 1DFF2C01#C2FFFFFFFFFF7FFF
(1746135429.225820) can0 1DFF2C01#C3FFFFFFFFFFFFFF
(1746135429.263689) can0 09F80103#FFFFFF7FFFFFFF7F
(1746135429.263690) can0 09F80203#59FFFFFFFFFFFFFF
(1746135429.264838) can0 09FD0205#FFFFFFFFFFF8FFFF
(1746135429.288433) can0 08FF0005#1399040500000200
(1746135429.313127) can0 0DF01003#59F0FFFFFFFFFFFF
(1746135429.313129) can0 1DF11A03#5AFFFFFF2FFDFFFF
(1746135429.324026) can0 09F10D07#FF07FF7F52E1FFFF
(1746135429.324028) can0 09F10D00#FF07FF7F0000FFFF
(1746135429.362621) can0 09F80103#FFFFFF7FFFFFFF7F
(1746135429.415095) can0 1CFF1906#419F010B00000000
(1746135429.415096) can0 09FD0205#FFFFFFFFFFFBFFFF
(1746135429.424808) can0 18FF3D01#419FFFFF02FFFFFF
(1746135429.424809) can0 09F10501#E0153038FFFF7FFF
(1746135429.425915) can0 09F10501#E1FFFFFF0B11FFFF
(1746135429.425917) can0 09F10501#E2FF7FFF7FFF7FFF
(1746135429.427102) can0 09F10501#E3FFFFFFFFFFFFFF
(1746135429.427103) can0 09F10D07#FF07FF7F52E1FFFF
(1746135429.428208) can0 09F10D00#FF07FF7F0000FFFF
(1746135429.428209) can0 09F10D01#FF000000FF7FFFFF
(1746135429.449944) can0 04FF1901#419F640202010000
(1746135429.464521) can0 09F80103#FFFFFF7FFFFFFF7F
(1746135429.514135) can0 1DF11A04#58FFFFFF2FFDFFFF
(1746135429.514137) can0 09F80203#5AFFFFFFFFFFFFFF
(1746135429.538826) can0 08FF0005#1399040500000200
(1746135429.563606) can0 09F80103#FFFFFF7FFFFFFF7F
(1746135429.563608) can0 09FD0205#FFFFFFFFFFF8FFFF
(1746135429.573861) can0 09F10D07#FF07FF7F52E1FFFF
(1746135429.573862) can0 09F10D00#FF07FF7F0000FFFF
(1746135429.662619) can0 09F80103#FFFFFF7FFFFFFF7F
(1746135429.674584) can0 18FF3D01#419FFFFF02FFFFFF
(1746135429.674586) can0 09F10501#00153038FFFF7FFF
(1746135429.675709) can0 09F10501#01FFFFFF0B11FFFF
(1746135429.675710) can0 09F10501#02FF7FFF7FFF7FFF
(1746135429.676873) can0 09F10501#03FFFFFFFFFFFFFF
(1746135429.676874) can0 09F10D07#FF07FF7F52E1FFFF
(1746135429.678023) can0 09F10D00#FF07FF7F0000FFFF
(1746135429.678024) can0 09F10D01#FF000000FF7FFFFF
(1746135429.715009) can0 09FD0205#FFFFFFFFFFFBFFFF
(1746135429.764494) can0 09F80103#FFFFFF7FFFFFFF7F
(1746135429.764495) can0 09F80203#5AFFFFFFFFFFFFFF
(1746135429.765665) can0 0DF80503#E02B5AFFFFFFFFFF
(1746135429.765665) can0 0DF80503#E1FFFFFFFFFFFFFF
(1746135429.766729) can0 0DF80503#E2FF7FFFFFFFFFFF
(1746135429.766729) can0 0DF80503#E3FFFF7FFFFFFFFF
(1746135429.767871) can0 0DF80503#E4FFFFFF7F00FCFF
(1746135429.767871) can0 0DF80503#E5FF7FFF7FFFFFFF
(1746135429.769016) can0 0DF80503#E67FFFFFFFFFFFFF
(1746135429.789273) can0 08FF0005#1399040500000200
(1746135429.824162) can0 09F10D07#FF07FF7F52E1FFFF
(1746135429.824164) can0 09F10D00#FF07FF7F0000FFFF
(1746135429.866608) can0 09F80103#FFFFFF7FFFFFFF7F
(1746135429.866609) can0 09FD0205#FFFFFFFFFFF8FFFF
(1746135429.872914) can0 18FF3D01#419FFFFF02FFFFFF
(1746135429.900092) can0 09FF2201#000C419FFFFF01FF
(1746135429.900093) can0 09FF2201#01390016000100FF
(1746135429.901159) can0 1DFF2801#401E419F16001A01
(1746135429.901160) can0 1DFF2801#415374656572696E
(1746135429.902267) can0 1DFF2801#426720636F6D7061
(1746135429.902268) can0 1DFF2801#437373206D697373
(1746135429.903382) can0 1DFF2801#44696E67FFFFFFFF
(1746135429.913053) can0 1CFF1906#419F010300000000
(1746135429.913054) can0 0DF90304#583FFFFFFF7FFFFF
(1746135429.914162) can0 0DF90404#E02258FFFFFFFFFF
(1746135429.914163) can0 0DF90404#E1FFFFFFFFFFFFFF
(1746135429.915369) can0 0DF90404#E2FFFFFFFFFFFFFF
(1746135429.915369) can0 0DF90404#E3FFFFFFFFFFFFFF
(1746135429.916527) can0 0DF90404#E47FFFFFFF7FFF7F
(1746135429.916528) can0 19FA0303#5AFFFF7FFF7FFF7F
(1746135429.917682) can0 19FA0403#C0035AFFFFFFFFFF
(1746135429.917683) can0 0DFE1105#A00EFFFFFFFFFFFF
(1746135429.918862) can0 0DFE1105#A1FFFFFFFFFFFFFF
(1746135429.918862) can0 0DFE1105#A2FFFFFFFFFFFFFF
(1746135429.924622) can0 09F10501#20153038FFFF7FFF
(1746135429.924623) can0 09F10501#21FFFFFF0B11FFFF
(1746135429.925766) can0 09F10501#22FF7FFF7FFF7FFF
(1746135429.925766) can0 09F10501#23FFFFFFFFFFFFFF
(1746135429.926941) can0 09F10D07#FF07FF7F52E1FFFF
(1746135429.926942) can0 09F10D00#FF07FF7F0000FFFF
(1746135429.928131) can0 09F10D01#FF000000FF7FFFFF
(1746135430.015126) can0 09F80103#FFFFFF7FFFFFFF7F
(1746135430.015129) can0 09F80203#5AFFFFFFFFFFFFFF
(1746135430.016282) can0 09FD0205#FFFFFFFFFFFBFFFF
(1746135430.039885) can0 08FF0005#1399040500000200
(1746135430.073796) can0 18FF3D01#419FFFFF02FFFFFF
(1746135430.073798) can0 09F10D07#FF07FF7F52E1FFFF
(1746135430.074856) can0 09F10D00#FF07FF7F0000FFFF
(1746135430.114162) can0 09F80103#FFFFFF7FFFFFFF7F
(1746135430.163721) can0 09FD0205#FFFFFFFFFFF8FFFF
(1746135430.174465) can0 09F10501#40153038FFFF7FFF
(1746135430.174467) can0 09F10501#41FFFFFF0B11FFFF
(1746135430.175600) can0 09F10501#42FF7FFF7FFF7FFF
(1746135430.175602) can0 09F10501#43FFFFFFFFFFFFFF
(1746135430.176755) can0 09F10D07#FF07FF7F52E1FFFF
(1746135430.176756) can0 09F10D00#FF07FF7F0000FFFF
(1746135430.177919) can0 09F10D01#FF000000FF7FFFFF
(1746135430.213179) can0 09F80103#FFFFFF7FFFFFFF7F
(1746135430.249023) can0 04FF1901#419F640A08000000
(1746135430.262712) can0 09F80203#5AFFFFFFFFFFFFFF
(1746135430.273969) can0 18FF3D01#419FFFFF02FFFFFF
(1746135430.273971) can0 09F10D07#FF07FF7F52E1FFFF
(1746135430.275079) can0 1DFF2C01#E017419F00000000
(1746135430.275080) can0 1DFF2C01#E100FFFFFF7FFFFF
(1746135430.276257) can0 1DFF2C01#E2FFFFFFFFFF7FFF
(1746135430.276259) can0 1DFF2C01#E3FFFFFFFFFFFFFF
(1746135430.287519) can0 08FF0005#1399040500000200
(1746135430.315074) can0 0DF01003#5AF0FFFFFFFFFFFF
(1746135430.315077) can0 1DF11A03#5BFFFFFF2FFDFFFF
(1746135430.316180) can0 09F80103#FFFFFF7FFFFFFF7F
(1746135430.316182) can0 09FD0205#FFFFFFFFFFFBFFFF
(1746135430.323954) can0 09F10D00#FF07FF7F0000FFFF
(1746135430.414067) can0 1CFF1906#419F010B00000000
(1746135430.414069) can0 09F80103#FFFFFF7FFFFFFF7F
(1746135430.424634) can0 09F10501#60153038FFFF7FFF
(1746135430.424635) can0 09F10501#61FFFFFF0B11FFFF
(1746135430.425846) can0 09F10501#62FF7FFF7FFF7FFF
(1746135430.425847) can0 09F10501#63FFFFFFFFFFFFFF
(1746135430.426999) can0 09F10D07#FF07FF7F52E1FFFF
(1746135430.427001) can0 09F10D00#FF07FF7F0000FFFF
(1746135430.428075) can0 09F10D01#FF000000FF7FFFFF
(1746135430.449815) can0 04FF1901#419F640202010000
(1746135430.463616) can0 09FD0205#FFFFFFFFFFF8FFFF
(1746135430.474528) can0 18FF3D01#419FFFFF02FFFFFF
(1746135430.513134) can0 1DF11A04#59FFFFFF2FFDFFFF
(1746135430.513136) can0 09F80103#FFFFFF7FFFFFFF7F
(1746135430.514309) can0 09F80203#5BFFFFFFFFFFFFFF
(1746135430.537949) can0 08FF0005#1399040500000200
(1746135430.573787) can0 09F10D07#FF07FF7F52E1FFFF
(1746135430.573789) can0 09F10D00#FF07FF7F0000FFFF
(1746135430.614800) can0 09F80103#FFFFFF7FFFFFFF7F
(1746135430.614802) can0 09FD0205#FFFFFFFFFFFBFFFF
(1746135430.624965) can0 09F10501#80153038FFFF7FFF
(1746135430.624966) can0 09F10501#81FFFFFF0B11FFFF
(1746135430.626140) can0 09F10501#82FF7FFF7FFF7FFF
(1746135430.626141) can0 09F10501#83FFFFFFFFFFFFFF
(1746135430.627249) can0 09F10D01#FF000000FF7FFFFF
(1746135430.674675) can0 18FF3D01#419FFFFF02FFFFFF
(1746135430.674677) can0 09F10D07#FF07FF7F52E1FFFF
(1746135430.675734) can0 09F10D00#FF07FF7F0000FFFF
(1746135430.713976) can0 09F80103#FFFFFF7FFFFFFF7F
(1746135430.763544) can0 09F80203#5BFFFFFFFFFFFFFF
(1746135430.763546) can0 0DF80503#002B5BFFFFFFFFFF
(1746135430.764687) can0 0DF80503#01FFFFFFFFFFFFFF
(1746135430.764688) can0 0DF80503#02FF7FFFFFFFFFFF
(1746135430.765825) can0 0DF80503#03FFFF7FFFFFFFFF
(1746135430.765826) can0 0DF80503#04FFFFFF7F00FCFF
(1746135430.766994) can0 0DF80503#05FF7FFF7FFFFFFF
(1746135430.766995) can0 0DF80503#067FFFFFFFFFFFFF
(1746135430.768139) can0 09FD0205#FFFFFFFFFFF8FFFF
(1746135430.788271) can0 08FF0005#1399040500000200
(1746135430.813051) can0 09F80103#FFFFFF7FFFFFFF7F
(1746135430.823987) can0 09F10D07#FF07FF7F52E1FFFF
(1746135430.823988) can0 09F10D00#FF07FF7F0000FFFF
(1746135430.872947) can0 09F10501#A0153038FFFF7FFF
(1746135430.872949) can0 09F10501#A1FFFFFF0B11FFFF
(1746135430.874084) can0 09F10501#A2FF7FFF7FFF7FFF
(1746135430.874085) can0 09F10501#A3FFFFFFFFFFFFFF
(1746135430.875265) can0 09F10D01#FF000000FF7FFFFF
(1746135430.915059) can0 1CFF1906#419F010300000000
(1746135430.915060) can0 09F80103#FFFFFF7FFFFFFF7F
(1746135430.916187) can0 0DF90304#593FFFFFFF7FFFFF
(1746135430.916188) can0 0DF90404#002259FFFFFFFFFF
(1746135430.917350) can0 0DF90404#01FFFFFFFFFFFFFF
(1746135430.917351) can0 0DF90404#02FFFFFFFFFFFFFF
(1746135430.918552) can0 0DF90404#03FFFFFFFFFFFFFF
(1746135430.918553) can0 0DF90404#047FFFFFFF7FFF7F
(1746135430.919718) can0 19FA0303#5BFFFF7FFF7FFF7F
(1746135430.919725) can0 19FA0403#E0035BFFFFFFFFFF
(1746135430.920886) can0 09FD0205#FFFFFFFFFFFBFFFF
(1746135430.920887) can0 0DFE1105#C00EFFFFFFFFFFFF
(1746135430.922074) can0 0DFE1105#C1FFFFFFFFFFFFFF
(1746135430.922075) can0 0DFE1105#C2FFFFFFFFFFFFFF
(1746135430.925585) can0 18FF3D01#419FFFFF02FFFFFF
(1746135430.973829) can0 09F10D07#FF07FF7F52E1FFFF
(1746135430.973831) can0 09F10D00#FF07FF7F0000FFFF
(1746135431.014086) can0 09F80103#FFFFFF7FFFFFFF7F
(1746135431.014087) can0 09F80203#5BFFFFFFFFFFFFFF
(1746135431.038817) can0 08FF0005#1399040500000200
(1746135431.063701) can0 09FD0205#FFFFFFFFFFF8FFFF
(1746135431.074755) can0 09F10501#C0153038FFFF7FFF
(1746135431.074757) can0 09F10501#C1FFFFFF0B11FFFF
(1746135431.075883) can0 09F10501#C2FF7FFF7FFF7FFF
(1746135431.075884) can0 09F10501#C3FFFFFFFFFFFFFF
(1746135431.077037) can0 09F10D07#FF07FF7F52E1FFFF
(1746135431.077038) can0 09F10D00#FF07FF7F0000FFFF
(1746135431.078184) can0 09F10D01#FF000000FF7FFFFF
(1746135431.116130) can0 09F80103#FFFFFF7FFFFFFF7F
(1746135431.124535) can0 18FF3D01#419FFFFF02FFFFFF
(1746135431.215002) can0 09FD0205#FFFFFFFFFFFBFFFF
(1746135431.224963) can0 09F10D07#FF07FF7F52E1FFFF
(1746135431.224965) can0 09F10D00#FF07FF7F0000FFFF
(1746135431.249789) can0 04FF1901#419F640A08000000
(1746135431.264444) can0 09F80103#FFFFFF7FFFFFFF7F
(1746135431.264446) can0 09F80203#5BFFFFFFFFFFFFFF
(1746135431.274806) can0 09F10501#E0153038FFFF7FFF
(1746135431.274808) can0 09F10501#E1FFFFFF0B11FFFF
(1746135431.275976) can0 09F10501#E2FF7FFF7FFF7FFF
(1746135431.275977) can0 09F10501#E3FFFFFFFFFFFFFF
(1746135431.277182) can0 09F10D01#FF000000FF7FFFFF
(1746135431.277183) can0 1DFF2C01#0017419F00000000
(1746135431.278256) can0 1DFF2C01#0100FFFFFF7FFFFF
(1746135431.278257) can0 1DFF2C01#02FFFFFFFFFF7FFF
(1746135431.279379) can0 1DFF2C01#03FFFFFFFFFFFFFF
(1746135431.289307) can0 08FF0005#1399040500000200
(1746135431.314000) can0 0DF01003#5BF0FFFFFFFFFFFF
(1746135431.314002) can0 1DF11A03#5CFFFFFF2FFDFFFF
(1746135431.324987) can0 18FF3D01#419FFFFF02FFFFFF
(1746135431.324989) can0 09F10D07#FF07FF7F52E1FFFF
(1746135431.326115) can0 09F10D00#FF07FF7F0000FFFF
(1746135431.363597) can0 09F80103#FFFFFF7FFFFFFF7F
(1746135431.363599) can0 09FD0205#FFFFFFFFFFF8FFFF
(1746135431.412995) can0 1CFF1906#419F010B00000000
(1746135431.462567) can0 09F80103#FFFFFF7FFFFFFF7F
(1746135431.472908) can0 09F10D07#FF07FF7F52E1FFFF
(1746135431.472909) can0 09F10D00#FF07FF7F0000FFFF
(1746135431.500077) can0 04FF1901#419F640202010000
(1746135431.514919) can0 1DFF0005#00061399FF050001
(1746135431.514920) can0 1DF11A04#5AFFFFFF2FFDFFFF
(1746135431.516102) can0 09F80203#5CFFFFFFFFFFFFFF
(1746135431.516104) can0 09FD0205#FFFFFFFFFFFBFFFF
(1746135431.523007) can0 18FF3D01#419FFFFF02FFFFFF
(1746135431.523008) can0 09F10501#00153038FFFF7FFF
(1746135431.524155) can0 09F10501#01FFFFFF0B11FFFF
(1746135431.524157) can0 09F10501#02FF7FFF7FFF7FFF
(1746135431.525301) can0 09F10501#03FFFFFFFFFFFFFF
(1746135431.525302) can0 09F10D01#FF000000FF7FFFFF
(1746135431.539729) can0 08FF0005#1399040500000200
(1746135431.564462) can0 09F80103#FFFFFF7FFFFFFF7F
(1746135431.572852) can0 09F10D07#FF07FF7F52E1FFFF
(1746135431.572854) can0 09F10D00#FF07FF7F0000FFFF
(1746135431.663483) can0 09F80103#FFFFFF7FFFFFFF7F
(1746135431.663485) can0 09FD0205#FFFFFFFFFFF8FFFF
(1746135431.674080) can0 09F10D07#FF07FF7F52E1FFFF
(1746135431.674082) can0 09F10D00#FF07FF7F0000FFFF
(1746135431.762479) can0 09F80103#FFFFFF7FFFFFFF7F
(1746135431.762482) can0 09F80203#5CFFFFFFFFFFFFFF
(1746135431.763626) can0 0DF80503#202B5CFFFFFFFFFF
(1746135431.763628) can0 0DF80503#21FFFFFFFFFFFFFF
(1746135431.764761) can0 0DF80503#22FF7FFFFFFFFFFF
(1746135431.764762) can0 0DF80503#23FFFF7FFFFFFFFF
(1746135431.765926) can0 0DF80503#24FFFFFF7F00FCFF
(1746135431.765927) can0 0DF80503#25FF7FFF7FFFFFFF
(1746135431.767101) can0 0DF80503#267FFFFFFFFFFFFF
(1746135431.775226) can0 18FF3D01#419FFFFF02FFFFFF
(1746135431.775227) can0 09F10501#20153038FFFF7FFF
(1746135431.776364) can0 09F10501#21FFFFFF0B11FFFF
(1746135431.776365) can0 09F10501#22FF7FFF7FFF7FFF
(1746135431.777489) can0 09F10501#23FFFFFFFFFFFFFF
(1746135431.777490) can0 09F10D07#FF07FF7F52E1FFFF
(1746135431.778676) can0 09F10D00#FF07FF7F0000FFFF
(1746135431.778677) can0 09F10D01#FF000000FF7FFFFF
(1746135431.790118) can0 08FF0005#1399040500000200
(1746135431.814969) can0 09FD0205#FFFFFFFFFFFBFFFF
(1746135431.864369) can0 09F80103#FFFFFF7FFFFFFF7F
(1746135431.874812) can0 09F10D07#FF07FF7F52E1FFFF
(1746135431.874814) can0 09F10D00#FF07FF7F0000FFFF
(1746135431.913971) can0 1CFF1906#419F010300000000
(1746135431.913972) can0 0DF90304#5A3FFFFFFF7FFFFF
(1746135431.915074) can0 0DF90404#20225AFFFFFFFFFF
(1746135431.915075) can0 0DF90404#21FFFFFFFFFFFFFF
(1746135431.916237) can0 0DF90404#22FFFFFFFFFFFFFF
(1746135431.916238) can0 0DF90404#23FFFFFFFFFFFFFF
(1746135431.917444) can0 0DF90404#247FFFFFFF7FFF7F
(1746135431.917445) can0 19FA0303#5CFFFF7FFF7FFF7F
(1746135431.918571) can0 19FA0403#00035CFFFFFFFFFF
(1746135431.918572) can0 0DFE1105#E00EFFFFFFFFFFFF
(1746135431.919759) can0 0DFE1105#E1FFFFFFFFFFFFFF
(1746135431.919759) can0 0DFE1105#E2FFFFFFFFFFFFFF
(1746135431.963528) can0 09F80103#FFFFFF7FFFFFFF7F
(1746135431.963530) can0 09FD0205#FFFFFFFFFFF8FFFF
(1746135431.972888) can0 18FF3D01#419FFFFF02FFFFFF
(1746135431.972889) can0 09F10501#40153038FFFF7FFF
(1746135431.973990) can0 09F10501#41FFFFFF0B11FFFF
(1746135431.973991) can0 09F10501#42FF7FFF7FFF7FFF
(1746135431.975156) can0 09F10501#43FFFFFFFFFFFFFF
(1746135431.975158) can0 09F10D07#FF07FF7F52E1FFFF
(1746135431.976278) can0 09F10D00#FF07FF7F0000FFFF
(1746135431.976278) can0 09F10D01#FF000000FF7FFFFF
(1746135432.013076) can0 09F80203#5CFFFFFFFFFFFFFF
(1746135432.037940) can0 08FF0005#1399040500000200
(1746135432.062679) can0 09F80103#FFFFFF7FFFFFFF7F
(1746135432.074610) can0 09F10D07#FF07FF7F52E1FFFF
(1746135432.074612) can0 09F10D00#FF07FF7F0000FFFF
(1746135432.115091) can0 09FD0205#FFFFFFFFFFFBFFFF
(1746135432.164453) can0 09F80103#FFFFFF7FFFFFFF7F
(1746135432.224825) can0 18FF3D01#419FFFFF02FFFFFF
(1746135432.224827) can0 09F10501#60153038FFFF7FFF
(1746135432.225921) can0 09F10501#61FFFFFF0B11FFFF
(1746135432.225922) can0 09F10501#62FF7FFF7FFF7FFF
(1746135432.227111) can0 09F10501#63FFFFFFFFFFFFFF
(1746135432.227112) can0 09F10D07#FF07FF7F52E1FFFF
(1746135432.228205) can0 09F10D00#FF07FF7F0000FFFF
(1746135432.228207) can0 09F10D01#FF000000FF7FFFFF
(1746135432.249899) can0 04FF1901#419F640A08000000
(1746135432.263558) can0 09F80103#FFFFFF7FFFFFFF7F
(1746135432.263559) can0 09F80203#5CFFFFFFFFFFFFFF
(1746135432.264722) can0 09FD0205#FFFFFFFFFFF8FFFF
(1746135432.274683) can0 1DFF2C01#2017419F00000000
(1746135432.274684) can0 1DFF2C01#2100FFFFFF7FFFFF
(1746135432.275914) can0 1DFF2C01#22FFFFFFFFFF7FFF
(1746135432.275914) can0 1DFF2C01#23FFFFFFFFFFFFFF
(1746135432.288282) can0 08FF0005#1399040500000200
(1746135432.313013) can0 0DF01003#5CF0FFFFFFFFFFFF
(1746135432.313014) can0 1DF11A03#5DFFFFFF2FFDFFFF
(1746135432.324633) can0 09F10D07#FF07FF7F52E1FFFF
(1746135432.324635) can0 09F10D00#FF07FF7F0000FFFF
(1746135432.362511) can0 09F80103#FFFFFF7FFFFFFF7F
(1746135432.414945) can0 1CFF1906#419F010B00000000
(1746135432.414947) can0 09FD0205#FFFFFFFFFFFBFFFF
(1746135432.464340) can0 09F80103#FFFFFF7FFFFFFF7F
(1746135432.474831) can0 18FF3D01#419FFFFF02FFFFFF
(1746135432.474832) can0 09F10501#80153038FFFF7FFF
(1746135432.476078) can0 09F10501#81FFFFFF0B11FFFF
(1746135432.476079) can0 09F10501#82FF7FFF7FFF7FFF
(1746135432.477243) can0 09F10501#83FFFFFFFFFFFFFF
(1746135432.477244) can0 09F10D07#FF07FF7F52E1FFFF
(1746135432.478385) can0 09F10D00#FF07FF7F0000FFFF
(1746135432.478386) can0 09F10D01#FF000000FF7FFFFF
(1746135432.500098) can0 04FF1901#419F640202010000
(1746135432.513869) can0 1DF11A04#5BFFFFFF2FFDFFFF
(1746135432.513871) can0 09F80203#5DFFFFFFFFFFFFFF
(1746135432.538738) can0 08FF0005#1399040500000200
(1746135432.563483) can0 09F80103#FFFFFF7FFFFFFF7F
(1746135432.563485) can0 09FD0205#FFFFFFFFFFF8FFFF
(1746135432.574581) can0 09F10D07#FF07FF7F52E1FFFF
(1746135432.574582) can0 09F10D00#FF07FF7F0000FFFF
(1746135432.662502) can0 09F80103#FFFFFF7FFFFFFF7F
(1746135432.714854) can0 09FD0205#FFFFFFFFFFFBFFFF
(1746135432.724763) can0 18FF3D01#419FFFFF02FFFFFF
(1746135432.724764) can0 09F10501#A0153038FFFF7FFF
(1746135432.725842) can0 09F10501#A1FFFFFF0B11FFFF
(1746135432.725842) can0 09F10501#A2FF7FFF7FFF7FFF
(1746135432.727016) can0 09F10501#A3FFFFFFFFFFFFFF
(1746135432.727017) can0 09F10D07#FF07FF7F52E1FFFF
(1746135432.728129) can0 09F10D00#FF07FF7F0000FFFF
(1746135432.728130) can0 09F10D01#FF000000FF7FFFFF
(1746135432.764285) can0 09F80103#FFFFFF7FFFFFFF7F
(1746135432.764286) can0 09F80203#5DFFFFFFFFFFFFFF
(1746135432.765427) can0 0DF80503#402B5DFFFFFFFFFF
(1746135432.765428) can0 0DF80503#41FFFFFFFFFFFFFF
(1746135432.766591) can0 0DF80503#42FF7FFFFFFFFFFF
(1746135432.766591) can0 0DF80503#43FFFF7FFFFFFFFF
(1746135432.767816) can0 0DF80503#44FFFFFF7F00FCFF
(1746135432.767817) can0 0DF80503#45FF7FFF7FFFFFFF
(1746135432.768931) can0 0DF80503#467FFFFFFFFFFFFF
(1746135432.789081) can0 08FF0005#1399040500000200
(1746135432.824692) can0 09F10D07#FF07FF7F52E1FFFF
(1746135432.824693) can0 09F10D00#FF07FF7F0000FFFF
