  can0  1DEFFF02   [8]  01 43 00 00 00 00 00 FF
  can0  1DEFFF02   [8]  C1 43 00 00 00 00 00 FF
  can0  1DEFFF02   [8]  81 43 00 00 00 00 00 FF
  can0  1DEFFF02   [8]  61 43 00 00 00 00 00 FF
  can0  0DF01043   [8]  75 F0 8F 22 70 21 03 1B
  can0  09F80243   [8]  75 FC 0B 2F 00 00 FF FF
  can0  09F80143   [8]  08 1E AE 1C CA 4D DD 06
  can0  0DF01043   [8]  78 F0 8F 22 70 21 03 1B
  can0  09F80243   [8]  78 FC 0B 2F 00 00 FF FF
  can0  09F80143   [8]  08 1E AE 1C CA 4D DD 06
  can0  0DF01043   [8]  7A F0 8F 22 70 21 03 1B
  can0  09F80243   [8]  7A FC 0B 2F 00 00 FF FF
  can0  09F80143   [8]  08 1E AE 1C CA 4D DD 06
  can0  0DF01043   [8]  7C F0 8F 22 70 21 03 1B
  can0  09F80243   [8]  7C FC 0B 2F 00 00 FF FF
  can0  09F80143   [8]  08 1E AE 1C CA 4D DD 06
  can0  0DF01043   [8]  7E F0 8F 22 70 21 03 1B
  can0  09F80243   [8]  7E FC 0B 2F 00 00 FF FF
  can0  09F80143   [8]  08 1E AE 1C CA 4D DD 06
  can0  1DEFFF02   [8]  21 43 00 01 00 00 00 FF
  can0  0DF01043   [8]  80 F0 8F 22 70 21 03 1B
  can0  09F80243   [8]  80 FC 0B 2F 00 00 FF FF
  can0  09F80143   [8]  08 1E AE 1C CA 4D DD 06
  can0  0DF01043   [8]  82 F0 8F 22 70 21 03 1B
  can0  09F80243   [8]  82 FC 0B 2F 00 00 FF FF
  can0  09F80143   [8]  08 1E AE 1C CA 4D DD 06
  can0  0DF01043   [8]  84 F0 8F 22 70 21 03 1B
  can0  09F80243   [8]  84 FC 0B 2F 00 00 FF FF
  can0  09F80143   [8]  08 1E AE 1C CA 4D DD 06
  can0  0DF01043   [8]  86 F0 8F 22 70 21 03 1B
  can0  09F80243   [8]  86 FC 0B 2F 00 00 FF FF
  can0  09F80143   [8]  08 1E AE 1C CA 4D DD 06
  can0  0DF01043   [8]  88 F0 8F 22 70 21 03 1B
  can0  09F80243   [8]  88 FC 0B 2F 00 00 FF FF
  can0  09F80143   [8]  08 1E AE 1C CA 4D DD 06
  can0  0DF01043   [8]  8A F0 8F 22 70 21 03 1B
  can0  09F80243   [8]  8A FC 0B 2F 00 00 FF FF
  can0  09F80143   [8]  08 1E AE 1C CA 4D DD 06
  can0  0DF01043   [8]  8C F0 8F 22 70 21 03 1B
  can0  09F80243   [8]  8C FC 0B 2F 00 00 FF FF
  can0  09F80143   [8]  08 1E AE 1C CA 4D DD 06
  can0  0DF01043   [8]  8E F0 8F 22 70 21 03 1B
  can0  09F80243   [8]  8E FC 0B 2F 00 00 FF FF
  can0  09F80143   [8]  08 1E AE 1C CA 4D DD 06
  can0  0DF01043   [8]  90 F0 8F 22 70 21 03 1B
  can0  09F80243   [8]  90 FC 0B 2F 00 00 FF FF
  can0  09F80143   [8]  08 1E AE 1C CA 4D DD 06
  can0  1DEFFF02   [8]  01 43 00 01 00 00 00 FF
  can0  0DF01043   [8]  92 F0 8F 22 70 21 03 1B
  can0  09F80243   [8]  92 FC 0B 2F 00 00 FF FF
  can0  09F80143   [8]  08 1E AE 1C CA 4D DD 06
  can0  0DF01043   [8]  94 F0 8F 22 70 21 03 1B
  can0  09F80243   [8]  94 FC 0B 2F 00 00 FF FF
  can0  09F80143   [8]  08 1E AE 1C CA 4D DD 06
  can0  0DF01043   [8]  96 F0 8F 22 70 21 03 1B
  can0  09F80243   [8]  96 FC 0B 2F 00 00 FF FF
  can0  09F80143   [8]  08 1E AE 1C CA 4D DD 06
  can0  0DF01043   [8]  98 F0 8F 22 70 21 03 1B
  can0  09F80243   [8]  98 FC 0B 2F 00 00 FF FF
  can0  09F80143   [8]  08 1E AE 1C CA 4D DD 06
  can0  0DF01043   [8]  9A F0 8F 22 70 21 03 1B
  can0  09F80243   [8]  9A FC 0B 2F 00 00 FF FF
  can0  09F80143   [8]  08 1E AE 1C CA 4D DD 06
  can0  0DF01043   [8]  9C F0 8F 22 70 21 03 1B
  can0  09F80243   [8]  9C FC 0B 2F 00 00 FF FF
  can0  09F80143   [8]  08 1E AE 1C CA 4D DD 06
  can0  0DF01043   [8]  9E F0 8F 22 70 21 03 1B
  can0  09F80243   [8]  9E FC 0B 2F 00 00 FF FF
  can0  09F80143   [8]  08 1E AE 1C CA 4D DD 06
  can0  0DF01043   [8]  9F F0 8F 22 70 21 03 1B
  can0  09F80243   [8]  9F FC 0B 2F 00 00 FF FF
  can0  09F80143   [8]  08 1E AE 1C CA 4D DD 06
  can0  1DEFFF02   [8]  C1 43 00 01 00 00 00 FF
  can0  0DF01043   [8]  A0 F0 8F 22 70 21 03 1B
  can0  09F80243   [8]  A0 FC 0B 2F 00 00 FF FF
  can0  09F80143   [8]  08 1E AE 1C CA 4D DD 06
  can0  0DF01043   [8]  A2 F0 8F 22 70 21 03 1B
  can0  09F80243   [8]  A2 FC 0B 2F 00 00 FF FF
  can0  09F80143   [8]  08 1E AE 1C CA 4D DD 06
  can0  0DF01043   [8]  A4 F0 8F 22 70 21 03 1B
  can0  09F80243   [8]  A4 FC 0B 2F 00 00 FF FF
  can0  09F80143   [8]  08 1E AE 1C CA 4D DD 06
  can0  0DF01043   [8]  A6 F0 8F 22 70 21 03 1B
  can0  09F80243   [8]  A6 FC 0B 2F 00 00 FF FF
  can0  09F80143   [8]  08 1E AE 1C CA 4D DD 06
  can0  0DF01043   [8]  A8 F0 8F 22 70 21 03 1B
  can0  09F80243   [8]  A8 FC 0B 2F 00 00 FF FF
  can0  09F80143   [8]  08 1E AE 1C CA 4D DD 06
  can0  0DF01043   [8]  AA F0 8F 22 70 21 03 1B
  can0  09F80243   [8]  AA FC 0B 2F 00 00 FF FF
  can0  09F80143   [8]  08 1E AE 1C CA 4D DD 06
  can0  0DF01043   [8]  AC F0 8F 22 70 21 03 1B
  can0  09F80243   [8]  AC FC 0B 2F 00 00 FF FF
  can0  09F80143   [8]  08 1E AE 1C CA 4D DD 06
  can0  1DEFFF02   [8]  81 43 00 01 00 00 00 FF
  can0  0DF01043   [8]  AE F0 8F 22 70 21 03 1B
  can0  09F80243   [8]  AE FC 0B 2F 00 00 FF FF
  can0  09F80143   [8]  08 1E AE 1C CA 4D DD 06
  can0  0DF01043   [8]  B1 F0 8F 22 70 21 03 1B
  can0  09F80243   [8]  B1 FC 0B 2F 00 00 FF FF
  can0  09F80143   [8]  08 1E AE 1C CA 4D DD 06
  can0  0DF01043   [8]  B3 F0 8F 22 70 21 03 1B
  can0  09F80243   [8]  B3 FC 0B 2F 00 00 FF FF
  can0  09F80143   [8]  08 1E AE 1C CA 4D DD 06
  can0  0DF01043   [8]  B5 F0 8F 22 70 21 03 1B
  can0  09F80243   [8]  B5 FC 0B 2F 00 00 FF FF
  can0  09F80143   [8]  08 1E AE 1C CA 4D DD 06
  can0  0DF01043   [8]  B7 F0 8F 22 70 21 03 1B
  can0  09F80243   [8]  B7 FC 0B 2F 00 00 FF FF
  can0  09F80143   [8]  08 1E AE 1C CA 4D DD 06
  can0  0DF01043   [8]  B9 F0 8F 22 70 21 03 1B
  can0  09F80243   [8]  B9 FC 0B 2F 00 00 FF FF
  can0  09F80143   [8]  08 1E AE 1C CA 4D DD 06
  can0  0DF01043   [8]  BB F0 8F 22 70 21 03 1B
  can0  09F80243   [8]  BB FC 0B 2F 00 00 FF FF
  can0  09F80143   [8]  08 1E AE 1C CA 4D DD 06
  can0  1DEFFF02   [8]  61 43 00 01 00 00 00 FF
  can0  0DF01043   [8]  BD F0 8F 22 70 21 03 1B
  can0  09F80243   [8]  BD FC 0B 2F 00 00 FF FF
  can0  09F80143   [8]  08 1E AE 1C CA 4D DD 06
  can0  0DF01043   [8]  BF F0 8F 22 70 21 03 1B
  can0  09F80243   [8]  BF FC 0B 2F 00 00 FF FF
  can0  09F80143   [8]  08 1E AE 1C CA 4D DD 06
  can0  0DF01043   [8]  C1 F0 8F 22 70 21 03 1B
  can0  09F80243   [8]  C1 FC 0B 2F 00 00 FF FF
  can0  09F80143   [8]  08 1E AE 1C CA 4D DD 06
  can0  0DF01043   [8]  C3 F0 8F 22 70 21 03 1B
  can0  09F80243   [8]  C3 FC 0B 2F 00 00 FF FF
  can0  09F80143   [8]  08 1E AE 1C CA 4D DD 06
  can0  0DF01043   [8]  C5 F0 8F 22 70 21 03 1B
  can0  09F80243   [8]  C5 FC 0B 2F 00 00 FF FF
  can0  09F80143   [8]  08 1E AE 1C CA 4D DD 06
  can0  0DF01043   [8]  C7 F0 8F 22 70 21 03 1B
  can0  09F80243   [8]  C7 FC 0B 2F 00 00 FF FF
  can0  09F80143   [8]  08 1E AE 1C CA 4D DD 06
  can0  0DF01043   [8]  C9 F0 8F 22 70 21 03 1B
  can0  09F80243   [8]  C9 FC 0B 2F 00 00 FF FF
  can0  09F80143   [8]  08 1E AE 1C CA 4D DD 06
  can0  0DF01043   [8]  CB F0 8F 22 70 21 03 1B
  can0  09F80243   [8]  CB FC 0B 2F 00 00 FF FF
  can0  09F80143   [8]  08 1E AE 1C CA 4D DD 06
  can0  1DEFFF02   [8]  21 43 00 01 00 00 00 FF
  can0  0DF01043   [8]  CD F0 8F 22 70 21 03 1B
  can0  09F80243   [8]  CD FC 0B 2F 00 00 FF FF
  can0  09F80143   [8]  08 1E AE 1C CA 4D DD 06
  can0  1DEFFF02   [8]  E1 43 00 01 00 00 00 FF
  can0  1DEFFF02   [8]  C1 43 00 01 00 00 00 FF
  can0  1DFF2C01   [8]  43 FF FF FF FF FF FF FF
  can0  1DEFFF02   [8]  81 43 00 01 00 00 00 FF
  can0  0DF80503   [8]  43 FF FF 7F FF FF FF FF
  can0  1DEFFF02   [8]  61 43 00 01 00 00 00 FF
