(1746131809.086070) can0 18EEFF02#6CDBAF1C008C78C0
(1746131809.451821) can0 09F11202#FFEA900000FF7FFD
(1746131809.501089) can0 18EEFF02#6CDBAF1C008C78C0
(1746131809.508647) can0 18EEFF02#6CDBAF1C008C78C0
(1746131809.528810) can0 1DEFFF02#000CE5986C070202
(1746131809.528811) can0 1DEFFF02#01410089000000FF
(1746131809.531356) can0 1DEFFF02#200CE5986C070202
(1746131809.531357) can0 1DEFFF02#21430000000000FF
(1746131809.533091) can0 1DEFFF02#4009E5986C070202
(1746131809.534135) can0 1DEFFF02#41280000FFFFFFFF
(1746131809.534136) can0 1DEFFF02#6009E5986C070202
(1746131809.536103) can0 1DEFFF02#61340000FFFFFFFF
(1746131809.538679) can0 1DEFFF02#8009E5986C070202
(1746131809.538680) can0 1DEFFF02#811B00FFFFFFFFFF
(1746131809.540026) can0 1DEFFF02#A009E5986C070202
(1746131809.541063) can0 1DEFFF02#A11D00FFFFFFFFFF
(1746131809.594285) can0 09F11202#FFC5910000FF7FFD
(1746131809.599377) can0 19F01402#0086D007E3535374
(1746131809.601015) can0 19F01402#0165616479436173
(1746131809.602024) can0 19F01402#0274000000000000
(1746131809.602026) can0 19F01402#0300000000000000
(1746131809.604003) can0 19F01402#0400000000000000
(1746131809.604004) can0 19F01402#050000322E333000
(1746131809.606289) can0 19F01402#0600000000000000
(1746131809.608689) can0 19F01402#0700000000000000
(1746131809.608690) can0 19F01402#0800000000000000
(1746131809.611006) can0 19F01402#0900000000000031
(1746131809.612023) can0 19F01402#0A2E300000000000
(1746131809.612025) can0 19F01402#0B00000000000000
(1746131809.614025) can0 19F01402#0C00000000000000
(1746131809.614026) can0 19F01402#0D00000000000000
(1746131809.616036) can0 19F01402#0E00000033343839
(1746131809.618573) can0 19F01402#0F33383934323000
(1746131809.618574) can0 19F01402#1000000000000000
(1746131809.621006) can0 19F01402#1100000000000000
(1746131809.621006) can0 19F01402#1200000000000000
(1746131809.623011) can0 19F01402#130201FFFFFFFFFF
(1746131809.623012) can0 19F01402#2086D007E3535374
(1746131809.624988) can0 19F01402#2165616479436173
(1746131809.626022) can0 19F01402#2274000000000000
(1746131809.628564) can0 19F01402#2300000000000000
(1746131809.628565) can0 19F01402#2400000000000000
(1746131809.629985) can0 19F01402#250000322E333000
(1746131809.631022) can0 19F01402#2600000000000000
(1746131809.632295) can0 19F01402#2700000000000000
(1746131809.632296) can0 19F01402#2800000000000000
(1746131809.634040) can0 19F01402#2900000000000031
(1746131809.634042) can0 19F01402#2A2E300000000000
(1746131809.635867) can0 19F01402#2B00000000000000
(1746131809.638565) can0 19F01402#2C00000000000000
(1746131809.638566) can0 19F01402#2D00000000000000
(1746131809.639868) can0 19F01402#2E00000033343839
(1746131809.641009) can0 19F01402#2F33383934323000
(1746131809.642022) can0 19F01402#3000000000000000
(1746131809.642024) can0 19F01402#3100000000000000
(1746131809.644292) can0 19F01402#3200000000000000
(1746131809.644293) can0 19F01402#330201FFFFFFFFFF
(1746131809.742405) can0 09F11202#FF4E910000FF7FFD
(1746131809.881005) can0 09F11202#FF95900000FF7FFD
(1746131810.028377) can0 1DEFFF02#C00CE5986C070202
(1746131810.029480) can0 1DEFFF02#C1410089000000FF
(1746131810.035266) can0 1DEFFF02#E00CE5986C070202
(1746131810.038684) can0 1DEFFF02#E1430000000000FF
(1746131810.038685) can0 1DEFFF02#0009E5986C070202
(1746131810.040134) can0 1DEFFF02#01280000FFFFFFFF
(1746131810.040135) can0 1DEFFF02#2009E5986C070202
(1746131810.042109) can0 1DEFFF02#21340000FFFFFFFF
(1746131810.042110) can0 1DEFFF02#4009E5986C070202
(1746131810.044132) can0 1DEFFF02#411B00FFFFFFFFFF
(1746131810.044133) can0 1DEFFF02#6009E5986C070202
(1746131810.046044) can0 1DEFFF02#611D00FFFFFFFFFF
(1746131810.048049) can0 09F11202#FF28900000FF7FFD
(1746131810.173064) can0 09F11202#FF4E900000FF7FFD
(1746131810.318643) can0 09F11202#FFA6900000FF7FFD
(1746131810.461126) can0 09F11202#FF8A900000FF7FFD
(1746131810.461128) can0 1DEFFF02#800AE598EE040404
(1746131810.463066) can0 1DEFFF02#8103000000FFFFFF
(1746131810.528806) can0 1DEFFF02#A00CE5986C070202
(1746131810.528807) can0 1DEFFF02#A1410089000000FF
(1746131810.531099) can0 1DEFFF02#C00CE5986C070202
(1746131810.532144) can0 1DEFFF02#C1430000000000FF
(1746131810.532144) can0 1DEFFF02#E009E5986C070202
(1746131810.533968) can0 1DEFFF02#E1280000FFFFFFFF
(1746131810.535095) can0 1DEFFF02#0009E5986C070202
(1746131810.535095) can0 1DEFFF02#01340000FFFFFFFF
(1746131810.538666) can0 1DEFFF02#2009E5986C070202
(1746131810.538667) can0 1DEFFF02#211B00FFFFFFFFFF
(1746131810.540050) can0 1DEFFF02#4009E5986C070202
(1746131810.541348) can0 1DEFFF02#411D00FFFFFFFFFF
(1746131810.605304) can0 09F11202#FF51900000FF7FFD
(1746131810.754151) can0 09F11202#FF5C900000FF7FFD
(1746131810.898705) can0 09F11202#FF94900000FF7FFD
(1746131811.028869) can0 1DEFFF02#600CE5986C070202
(1746131811.028871) can0 1DEFFF02#61410089000000FF
(1746131811.031254) can0 1DEFFF02#800CE5986C070202
(1746131811.037120) can0 1DEFFF02#81430000000000FF
(1746131811.037121) can0 1DEFFF02#A009E5986C070202
(1746131811.038911) can0 1DEFFF02#A1280000FFFFFFFF
(1746131811.040030) can0 1DEFFF02#C009E5986C070202
(1746131811.041063) can0 1DEFFF02#C1340000FFFFFFFF
(1746131811.041064) can0 1DEFFF02#E009E5986C070202
(1746131811.043039) can0 1DEFFF02#E11B00FFFFFFFFFF
(1746131811.043041) can0 1DEFFF02#0009E5986C070202
(1746131811.045044) can0 1DEFFF02#011D00FFFFFFFFFF
(1746131811.046288) can0 09F11202#FF9B900000FF7FFD
(1746131811.191017) can0 09F11202#FFAC900000FF7FFD
(1746131811.328928) can0 09F11202#FFD5900000FF7FFD
(1746131811.478706) can0 09F11202#FF04910000FF7FFD
(1746131811.528152) can0 1DEFFF02#200CE5986C070202
(1746131811.529828) can0 1DEFFF02#21410089000000FF
(1746131811.531136) can0 1DEFFF02#400CE5986C070202
(1746131811.532172) can0 1DEFFF02#41430000000000FF
(1746131811.532173) can0 1DEFFF02#6009E5986C070202
(1746131811.534141) can0 1DEFFF02#61280000FFFFFFFF
(1746131811.534142) can0 1DEFFF02#8009E5986C070202
(1746131811.536110) can0 1DEFFF02#81340000FFFFFFFF
(1746131811.538712) can0 1DEFFF02#A009E5986C070202
(1746131811.538713) can0 1DEFFF02#A11B00FFFFFFFFFF
(1746131811.541140) can0 1DEFFF02#C009E5986C070202
(1746131811.542156) can0 1DEFFF02#C11D00FFFFFFFFFF
(1746131811.622096) can0 09F11202#FF1A910000FF7FFD
(1746131811.769554) can0 09F11202#FF5E910000FF7FFD
(1746131811.916111) can0 09F11202#FFB9910000FF7FFD
(1746131811.918603) can0 1DEFFF02#E00AE598EE040404
(1746131811.918604) can0 1DEFFF02#E103000000FFFFFF
(1746131812.028804) can0 1DEFFF02#000CE5986C070202
(1746131812.029917) can0 1DEFFF02#01410089000000FF
(1746131812.035651) can0 1DEFFF02#200CE5986C070202
(1746131812.038651) can0 1DEFFF02#21430000000000FF
(1746131812.038652) can0 1DEFFF02#4009E5986C070202
(1746131812.040088) can0 1DEFFF02#41280000FFFFFFFF
(1746131812.040089) can0 1DEFFF02#6009E5986C070202
(1746131812.042060) can0 1DEFFF02#61340000FFFFFFFF
(1746131812.042062) can0 1DEFFF02#8009E5986C070202
(1746131812.044352) can0 1DEFFF02#811B00FFFFFFFFFF
(1746131812.044352) can0 1DEFFF02#A009E5986C070202
(1746131812.046055) can0 1DEFFF02#A11D00FFFFFFFFFF
(1746131812.065105) can0 09F11202#FFF1910000FF7FFD
(1746131812.205057) can0 09F11202#FF21920000FF7FFD
(1746131812.352108) can0 09F11202#FF66920000FF7FFD
(1746131812.489538) can0 09F11202#FFA8920000FF7FFD
(1746131812.528881) can0 1DEFFF02#C00CE5986C070202
(1746131812.528883) can0 1DEFFF02#C1410089000000FF
(1746131812.531153) can0 1DEFFF02#E00CE5986C070202
(1746131812.531154) can0 1DEFFF02#E1430000000000FF
(1746131812.533176) can0 1DEFFF02#0009E5986C070202
(1746131812.534202) can0 1DEFFF02#01280000FFFFFFFF
(1746131812.534203) can0 1DEFFF02#2009E5986C070202
(1746131812.536457) can0 1DEFFF02#21340000FFFFFFFF
(1746131812.538661) can0 1DEFFF02#4009E5986C070202
(1746131812.538662) can0 1DEFFF02#411B00FFFFFFFFFF
(1746131812.540099) can0 1DEFFF02#6009E5986C070202
(1746131812.541116) can0 1DEFFF02#611D00FFFFFFFFFF
(1746131812.643201) can0 09F11202#FFE2920000FF7FFD
(1746131812.782566) can0 09F11202#FF57930000FF7FFD
(1746131812.930149) can0 09F11202#FF88930000FF7FFD
(1746131813.029158) can0 1DEFFF02#800CE5986C070202
(1746131813.034910) can0 1DEFFF02#81410089000000FF
(1746131813.036175) can0 1DEFFF02#A00CE5986C070202
(1746131813.038712) can0 1DEFFF02#A1430000000000FF
(1746131813.038714) can0 1DEFFF02#C009E5986C070202
(1746131813.040205) can0 1DEFFF02#C1280000FFFFFFFF
(1746131813.040206) can0 1DEFFF02#E009E5986C070202
(1746131813.042472) can0 1DEFFF02#E1340000FFFFFFFF
(1746131813.042474) can0 1DEFFF02#0009E5986C070202
(1746131813.044194) can0 1DEFFF02#011B00FFFFFFFFFF
(1746131813.044195) can0 1DEFFF02#2009E5986C070202
(1746131813.046208) can0 1DEFFF02#211D00FFFFFFFFFF
(1746131813.076192) can0 09F11202#FF7B930000FF7FFD
(1746131813.219293) can0 09F11202#FF7C930000FF7FFD
(1746131813.369603) can0 09F11202#FF14930000FF7FFD
(1746131813.371395) can0 1DEFFF02#400AE598EE040404
(1746131813.371397) can0 1DEFFF02#4103000000FFFFFF
(1746131813.509843) can0 09F11202#FFF6920000FF7FFD
(1746131813.528787) can0 1DEFFF02#600CE5986C070202
(1746131813.529910) can0 1DEFFF02#61410089000000FF
(1746131813.531053) can0 1DEFFF02#800CE5986C070202
(1746131813.533363) can0 1DEFFF02#81430000000000FF
(1746131813.534498) can0 1DEFFF02#A009E5986C070202
(1746131813.535623) can0 1DEFFF02#A1280000FFFFFFFF
(1746131813.538641) can0 1DEFFF02#C009E5986C070202
(1746131813.538642) can0 1DEFFF02#C1340000FFFFFFFF
(1746131813.540126) can0 1DEFFF02#E009E5986C070202
(1746131813.541100) can0 1DEFFF02#E11B00FFFFFFFFFF
(1746131813.541101) can0 1DEFFF02#0009E5986C070202
(1746131813.543093) can0 1DEFFF02#011D00FFFFFFFFFF
(1746131813.649637) can0 09F11202#FF9A920000FF7FFD
(1746131813.799386) can0 09F11202#FF60920000FF7FFD
(1746131813.936197) can0 09F11202#FF24920000FF7FFD
(1746131814.029191) can0 1DEFFF02#200CE5986C070202
(1746131814.030385) can0 1DEFFF02#21410089000000FF
(1746131814.031529) can0 1DEFFF02#400CE5986C070202
(1746131814.037278) can0 1DEFFF02#41430000000000FF
(1746131814.038848) can0 1DEFFF02#6009E5986C070202
(1746131814.038850) can0 1DEFFF02#61280000FFFFFFFF
(1746131814.041195) can0 1DEFFF02#8009E5986C070202
(1746131814.042229) can0 1DEFFF02#81340000FFFFFFFF
(1746131814.042231) can0 1DEFFF02#A009E5986C070202
(1746131814.044221) can0 1DEFFF02#A11B00FFFFFFFFFF
(1746131814.044221) can0 1DEFFF02#C009E5986C070202
(1746131814.046203) can0 1DEFFF02#C11D00FFFFFFFFFF
(1746131814.082862) can0 09F11202#FFEB910000FF7FFD
(1746131814.228737) can0 09F11202#FFB7910000FF7FFD
(1746131814.371173) can0 09F11202#FF95910000FF7FFD
(1746131814.524171) can0 09F11202#FF52910000FF7FFD
(1746131814.538797) can0 1DEFFF02#E00CE5986C070202
(1746131814.538798) can0 1DEFFF02#E1410089000000FF
(1746131814.541205) can0 1DEFFF02#000CE5986C070202
(1746131814.542227) can0 1DEFFF02#01430000000000FF
(1746131814.542228) can0 1DEFFF02#2009E5986C070202
(1746131814.544236) can0 1DEFFF02#21280000FFFFFFFF
(1746131814.545387) can0 1DEFFF02#4009E5986C070202
(1746131814.545388) can0 1DEFFF02#41340000FFFFFFFF
(1746131814.548676) can0 1DEFFF02#6009E5986C070202
(1746131814.548678) can0 1DEFFF02#611B00FFFFFFFFFF
(1746131814.550138) can0 1DEFFF02#8009E5986C070202
(1746131814.551129) can0 1DEFFF02#811D00FFFFFFFFFF
(1746131814.662146) can0 09F11202#FF4D910000FF7FFD
(1746131814.808901) can0 09F11202#FF56910000FF7FFD
(1746131814.808902) can0 1DEFFF02#A00AE598EE040404
(1746131814.810522) can0 1DEFFF02#A103000000FFFFFF
(1746131814.952231) can0 09F11202#FF47910000FF7FFD
(1746131815.039126) can0 1DEFFF02#C00CE5986C070202
(1746131815.039128) can0 1DEFFF02#C1410089000000FF
(1746131815.041148) can0 1DEFFF02#E00CE5986C070202
(1746131815.041150) can0 1DEFFF02#E1430000000000FF
(1746131815.043231) can0 1DEFFF02#0009E5986C070202
(1746131815.044130) can0 1DEFFF02#01280000FFFFFFFF
(1746131815.044130) can0 1DEFFF02#2009E5986C070202
(1746131815.046125) can0 1DEFFF02#21340000FFFFFFFF
(1746131815.048071) can0 1DEFFF02#4009E5986C070202
(1746131815.049380) can0 1DEFFF02#411B00FFFFFFFFFF
(1746131815.050399) can0 1DEFFF02#6009E5986C070202
(1746131815.050400) can0 1DEFFF02#611D00FFFFFFFFFF
(1746131815.089883) can0 09F11202#FF4B910000FF7FFD
(1746131815.238714) can0 09F11202#FF4B910000FF7FFD
(1746131815.378771) can0 09F11202#FF5D910000FF7FFD
(1746131815.522191) can0 09F11202#FF61910000FF7FFD
(1746131815.538885) can0 1DEFFF02#800CE5986C070202
(1746131815.538886) can0 1DEFFF02#81410089000000FF
(1746131815.541158) can0 1DEFFF02#A00CE5986C070202
(1746131815.542148) can0 1DEFFF02#A1430000000000FF
(1746131815.542149) can0 1DEFFF02#C009E5986C070202
(1746131815.544125) can0 1DEFFF02#C1280000FFFFFFFF
(1746131815.544126) can0 1DEFFF02#E009E5986C070202
(1746131815.546164) can0 1DEFFF02#E1340000FFFFFFFF
(1746131815.548710) can0 1DEFFF02#0009E5986C070202
(1746131815.548711) can0 1DEFFF02#011B00FFFFFFFFFF
(1746131815.550125) can0 1DEFFF02#2009E5986C070202
(1746131815.551125) can0 1DEFFF02#211D00FFFFFFFFFF
(1746131815.672233) can0 09F11202#FF5D910000FF7FFD
(1746131815.812265) can0 09F11202#FF49910000FF7FFD
(1746131815.964281) can0 09F11202#FF39910000FF7FFD
(1746131816.038901) can0 1DEFFF02#400CE5986C070202
(1746131816.038903) can0 1DEFFF02#41410089000000FF
(1746131816.041236) can0 1DEFFF02#600CE5986C070202
(1746131816.042269) can0 1DEFFF02#61430000000000FF
(1746131816.042270) can0 1DEFFF02#8009E5986C070202
(1746131816.044287) can0 1DEFFF02#81280000FFFFFFFF
(1746131816.044288) can0 1DEFFF02#A009E5986C070202
(1746131816.046213) can0 1DEFFF02#A1340000FFFFFFFF
(1746131816.048898) can0 1DEFFF02#C009E5986C070202
(1746131816.050295) can0 1DEFFF02#C11B00FFFFFFFFFF
(1746131816.050296) can0 1DEFFF02#E009E5986C070202
(1746131816.052270) can0 1DEFFF02#E11D00FFFFFFFFFF
(1746131816.105182) can0 09F11202#FF4A910000FF7FFD
(1746131816.250936) can0 09F11202#FF47910000FF7FFD
(1746131816.252148) can0 1DEFFF02#000AE598EE040404
(1746131816.253184) can0 1DEFFF02#0103000000FFFFFF
(1746131816.401478) can0 09F11202#FF55910000FF7FFD
(1746131816.538904) can0 1DEFFF02#200CE5986C070202
(1746131816.538906) can0 1DEFFF02#21410089000000FF
(1746131816.541470) can0 1DEFFF02#400CE5986C070202
(1746131816.541471) can0 1DEFFF02#41430000000000FF
(1746131816.543144) can0 1DEFFF02#6009E5986C070202
(1746131816.544184) can0 1DEFFF02#61280000FFFFFFFF
(1746131816.544185) can0 1DEFFF02#8009E5986C070202
(1746131816.546188) can0 1DEFFF02#81340000FFFFFFFF
(1746131816.548083) can0 1DEFFF02#A009E5986C070202
(1746131816.548084) can0 1DEFFF02#A11B00FFFFFFFFFF
(1746131816.550193) can0 1DEFFF02#C009E5986C070202
(1746131816.551186) can0 1DEFFF02#C11D00FFFFFFFFFF
(1746131816.551187) can0 09F11202#FF55910000FF7FFD
(1746131816.691210) can0 09F11202#FF8D910000FF7FFD
(1746131816.834225) can0 09F11202#FFB3910000FF7FFD
(1746131816.975241) can0 09F11202#FFC3910000FF7FFD
(1746131817.038876) can0 1DEFFF02#E00CE5986C070202
(1746131817.038877) can0 1DEFFF02#E1410089000000FF
(1746131817.041189) can0 1DEFFF02#000CE5986C070202
(1746131817.042205) can0 1DEFFF02#01430000000000FF
(1746131817.042206) can0 1DEFFF02#2009E5986C070202
(1746131817.044191) can0 1DEFFF02#21280000FFFFFFFF
(1746131817.045457) can0 1DEFFF02#4009E5986C070202
(1746131817.045458) can0 1DEFFF02#41340000FFFFFFFF
(1746131817.048104) can0 1DEFFF02#6009E5986C070202
(1746131817.049415) can0 1DEFFF02#611B00FFFFFFFFFF
(1746131817.049417) can0 1DEFFF02#8009E5986C070202
(1746131817.051182) can0 1DEFFF02#811D00FFFFFFFFFF
(1746131817.125242) can0 09F11202#FF02920000FF7FFD
(1746131817.262607) can0 09F11202#FF14920000FF7FFD
(1746131817.412592) can0 09F11202#FF3F920000FF7FFD
(1746131817.538951) can0 1DEFFF02#A00CE5986C070202
(1746131817.538952) can0 1DEFFF02#A1410089000000FF
(1746131817.541235) can0 1DEFFF02#C00CE5986C070202
(1746131817.542310) can0 1DEFFF02#C1430000000000FF
(1746131817.542311) can0 1DEFFF02#E009E5986C070202
(1746131817.544308) can0 1DEFFF02#E1280000FFFFFFFF
(1746131817.544310) can0 1DEFFF02#0009E5986C070202
(1746131817.546326) can0 1DEFFF02#01340000FFFFFFFF
(1746131817.548855) can0 1DEFFF02#2009E5986C070202
(1746131817.548857) can0 1DEFFF02#211B00FFFFFFFFFF
(1746131817.550288) can0 1DEFFF02#4009E5986C070202
(1746131817.550290) can0 1DEFFF02#411D00FFFFFFFFFF
(1746131817.552675) can0 09F11202#FF88920000FF7FFD
(1746131817.700850) can0 09F11202#FFAD920000FF7FFD
(1746131817.702553) can0 1DEFFF02#600AE598EE040404
(1746131817.702554) can0 1DEFFF02#6103000000FFFFFF
(1746131817.848917) can0 09F11202#FFD2920000FF7FFD
(1746131817.991250) can0 09F11202#FF0C930000FF7FFD
(1746131818.038888) can0 1DEFFF02#800CE5986C070202
(1746131818.038888) can0 1DEFFF02#81410089000000FF
(1746131818.041234) can0 1DEFFF02#A00CE5986C070202
(1746131818.041235) can0 1DEFFF02#A1430000000000FF
(1746131818.043451) can0 1DEFFF02#C009E5986C070202
(1746131818.043451) can0 1DEFFF02#C1280000FFFFFFFF
(1746131818.045202) can0 1DEFFF02#E009E5986C070202
(1746131818.046202) can0 1DEFFF02#E1340000FFFFFFFF
(1746131818.048932) can0 1DEFFF02#0009E5986C070202
(1746131818.050224) can0 1DEFFF02#011B00FFFFFFFFFF
(1746131818.050225) can0 1DEFFF02#2009E5986C070202
(1746131818.052204) can0 1DEFFF02#211D00FFFFFFFFFF
(1746131818.132583) can0 09F11202#FF5C930000FF7FFD
(1746131818.282204) can0 09F11202#FF7F930000FF7FFD
(1746131818.421282) can0 09F11202#FF9F930000FF7FFD
(1746131818.538911) can0 1DEFFF02#400CE5986C070202
(1746131818.538912) can0 1DEFFF02#41410089000000FF
(1746131818.541199) can0 1DEFFF02#600CE5986C070202
(1746131818.541200) can0 1DEFFF02#61430000000000FF
(1746131818.543208) can0 1DEFFF02#8009E5986C070202
(1746131818.543209) can0 1DEFFF02#81280000FFFFFFFF
(1746131818.545235) can0 1DEFFF02#A009E5986C070202
(1746131818.546221) can0 1DEFFF02#A1340000FFFFFFFF
(1746131818.548787) can0 1DEFFF02#C009E5986C070202
(1746131818.548788) can0 1DEFFF02#C11B00FFFFFFFFFF
(1746131818.551199) can0 1DEFFF02#E009E5986C070202
(1746131818.552242) can0 1DEFFF02#E11D00FFFFFFFFFF
(1746131818.574401) can0 09F11202#FFBD930000FF7FFD
(1746131818.713435) can0 09F11202#FFD6930000FF7FFD
(1746131818.856324) can0 09F11202#FFF7930000FF7FFD
(1746131819.004501) can0 09F11202#FF8B960000FF7FFD
(1746131819.038928) can0 1DEFFF02#000CE5986C070202
(1746131819.038929) can0 1DEFFF02#01410089000000FF
(1746131819.041492) can0 1DEFFF02#200CE5986C070202
(1746131819.041494) can0 1DEFFF02#21430000000000FF
(1746131819.043230) can0 1DEFFF02#4009E5986C070202
(1746131819.044270) can0 1DEFFF02#41280000FFFFFFFF
(1746131819.044271) can0 1DEFFF02#6009E5986C070202
(1746131819.046248) can0 1DEFFF02#61340000FFFFFFFF
(1746131819.048141) can0 1DEFFF02#8009E5986C070202
(1746131819.048142) can0 1DEFFF02#811B00FFFFFFFFFF
(1746131819.050218) can0 1DEFFF02#A009E5986C070202
(1746131819.051239) can0 1DEFFF02#A11D00FFFFFFFFFF
(1746131819.148858) can0 09F11202#FF2EA00000FF7FFD
(1746131819.148861) can0 1DEFFF02#C00AE598EE040404
(1746131819.150097) can0 1DEFFF02#C103000000FFFFFF
(1746131819.295606) can0 09F11202#FF7CAC0000FF7FFD
(1746131819.439762) can0 09F11202#FF15B60000FF7FFD
(1746131819.539005) can0 1DEFFF02#E00CE5986C070202
(1746131819.539006) can0 1DEFFF02#E1410089000000FF
(1746131819.541289) can0 1DEFFF02#000CE5986C070202
(1746131819.542375) can0 1DEFFF02#01430000000000FF
(1746131819.542375) can0 1DEFFF02#2009E5986C070202
(1746131819.544367) can0 1DEFFF02#21280000FFFFFFFF
(1746131819.544368) can0 1DEFFF02#4009E5986C070202
(1746131819.546615) can0 1DEFFF02#41340000FFFFFFFF
(1746131819.548034) can0 1DEFFF02#6009E5986C070202
(1746131819.549216) can0 1DEFFF02#611B00FFFFFFFFFF
(1746131819.550343) can0 1DEFFF02#8009E5986C070202
(1746131819.551417) can0 1DEFFF02#811D00FFFFFFFFFF
(1746131819.582340) can0 09F11202#FFE78C0000FF7FFD
(1746131819.731634) can0 09F11202#FFE3630000FF7FFD
(1746131819.872311) can0 09F11202#FF6F540000FF7FFD
(1746131820.019743) can0 09F11202#FF025A0000FF7FFD
(1746131820.039004) can0 1DEFFF02#A00CE5986C070202
(1746131820.039005) can0 1DEFFF02#A1410089000000FF
(1746131820.041242) can0 1DEFFF02#C00CE5986C070202
(1746131820.042257) can0 1DEFFF02#C1430000000000FF
(1746131820.042257) can0 1DEFFF02#E009E5986C070202
(1746131820.044314) can0 1DEFFF02#E1280000FFFFFFFF
(1746131820.044316) can0 1DEFFF02#0009E5986C070202
(1746131820.046278) can0 1DEFFF02#01340000FFFFFFFF
(1746131820.047922) can0 1DEFFF02#2009E5986C070202
(1746131820.048966) can0 1DEFFF02#211B00FFFFFFFFFF
(1746131820.050112) can0 1DEFFF02#4009E5986C070202
(1746131820.051553) can0 1DEFFF02#411D00FFFFFFFFFF
(1746131820.161316) can0 09F11202#FF946F0000FF7FFD
(1746131820.301623) can0 09F11202#FF21B90000FF7FFD
(1746131820.449181) can0 09F11202#FFA1BE0000FF7FFD
(1746131820.539072) can0 1DEFFF02#600CE5986C070202
(1746131820.539073) can0 1DEFFF02#61410089000000FF
(1746131820.541360) can0 1DEFFF02#800CE5986C070202
(1746131820.542379) can0 1DEFFF02#81430000000000FF
(1746131820.543611) can0 1DEFFF02#A009E5986C070202
(1746131820.543613) can0 1DEFFF02#A1280000FFFFFFFF
(1746131820.545352) can0 1DEFFF02#C009E5986C070202
(1746131820.546409) can0 1DEFFF02#C1340000FFFFFFFF
(1746131820.548915) can0 1DEFFF02#E009E5986C070202
(1746131820.548916) can0 1DEFFF02#E11B00FFFFFFFFFF
(1746131820.550367) can0 1DEFFF02#0009E5986C070202
(1746131820.550368) can0 1DEFFF02#011D00FFFFFFFFFF
(1746131820.596376) can0 09F11202#FFDBB90000FF7FFD
(1746131820.598922) can0 1DEFFF02#200AE598EE040404
(1746131820.603546) can0 1DEFFF02#2103000000FFFFFF
(1746131820.739767) can0 09F11202#FFDCAF0000FF7FFD
(1746131820.882703) can0 09F11202#FF6DAA0000FF7FFD
(1746131821.026336) can0 09F11202#FF90A40000FF7FFD
(1746131821.038983) can0 1DEFFF02#400CE5986C070202
(1746131821.038984) can0 1DEFFF02#41410089000000FF
(1746131821.041316) can0 1DEFFF02#600CE5986C070202
(1746131821.041318) can0 1DEFFF02#61430000000000FF
(1746131821.043317) can0 1DEFFF02#8009E5986C070202
(1746131821.044297) can0 1DEFFF02#81280000FFFFFFFF
(1746131821.044298) can0 1DEFFF02#A009E5986C070202
(1746131821.046274) can0 1DEFFF02#A1340000FFFFFFFF
(1746131821.048149) can0 1DEFFF02#C009E5986C070202
(1746131821.049450) can0 1DEFFF02#C11B00FFFFFFFFFF
(1746131821.054026) can0 1DEFFF02#E009E5986C070202
(1746131821.056280) can0 1DEFFF02#E11D00FFFFFFFFFF
(1746131821.180073) can0 09F11202#FFB6860000FF7FFD
(1746131821.321352) can0 09F11202#FF9C600000FF7FFD
(1746131821.469871) can0 09F11202#FFC3870000FF7FFD
(1746131821.539040) can0 1DEFFF02#000CE5986C070202
(1746131821.539042) can0 1DEFFF02#01410089000000FF
(1746131821.541674) can0 1DEFFF02#200CE5986C070202
(1746131821.541675) can0 1DEFFF02#21430000000000FF
(1746131821.543361) can0 1DEFFF02#4009E5986C070202
(1746131821.543363) can0 1DEFFF02#41280000FFFFFFFF
(1746131821.545383) can0 1DEFFF02#6009E5986C070202
(1746131821.546404) can0 1DEFFF02#61340000FFFFFFFF
(1746131821.548949) can0 1DEFFF02#8009E5986C070202
(1746131821.548950) can0 1DEFFF02#811B00FFFFFFFFFF
(1746131821.550381) can0 1DEFFF02#A009E5986C070202
(1746131821.551349) can0 1DEFFF02#A11D00FFFFFFFFFF
(1746131821.613390) can0 09F11202#FF6FAC0000FF7FFD
(1746131821.763404) can0 09F11202#FFA6AB0000FF7FFD
(1746131821.906339) can0 09F11202#FF35A60000FF7FFD
(1746131822.039107) can0 1DEFFF02#C00CE5986C070202
(1746131822.039108) can0 1DEFFF02#C1410089000000FF
(1746131822.041397) can0 1DEFFF02#E00CE5986C070202
(1746131822.042408) can0 1DEFFF02#E1430000000000FF
(1746131822.042409) can0 1DEFFF02#0009E5986C070202
(1746131822.044273) can0 1DEFFF02#01280000FFFFFFFF
(1746131822.045402) can0 1DEFFF02#2009E5986C070202
(1746131822.045403) can0 1DEFFF02#21340000FFFFFFFF
(1746131822.048272) can0 1DEFFF02#4009E5986C070202
(1746131822.049801) can0 1DEFFF02#411B00FFFFFFFFFF
(1746131822.051418) can0 1DEFFF02#6009E5986C070202
(1746131822.052429) can0 1DEFFF02#611D00FFFFFFFFFF
(1746131822.056352) can0 09F11202#FF78A00000FF7FFD
(1746131822.058234) can0 1DEFFF02#800AE598EE040404
(1746131822.058236) can0 1DEFFF02#8103000000FFFFFF
(1746131822.202708) can0 09F11202#FFB38D0000FF7FFD
(1746131822.345431) can0 09F11202#FF57580000FF7FFD
(1746131822.488927) can0 09F11202#FFDF660000FF7FFD
(1746131822.539087) can0 1DEFFF02#A00CE5986C070202
(1746131822.539089) can0 1DEFFF02#A1410089000000FF
(1746131822.541420) can0 1DEFFF02#C00CE5986C070202
(1746131822.542431) can0 1DEFFF02#C1430000000000FF
(1746131822.542433) can0 1DEFFF02#E009E5986C070202
(1746131822.544415) can0 1DEFFF02#E1280000FFFFFFFF
(1746131822.544416) can0 1DEFFF02#0009E5986C070202
(1746131822.546234) can0 1DEFFF02#01340000FFFFFFFF
(1746131822.548971) can0 1DEFFF02#2009E5986C070202
(1746131822.548972) can0 1DEFFF02#211B00FFFFFFFFFF
(1746131822.550269) can0 1DEFFF02#4009E5986C070202
(1746131822.551677) can0 1DEFFF02#411D00FFFFFFFFFF
(1746131822.638950) can0 09F11202#FF5B9F0000FF7FFD
(1746131822.780163) can0 09F11202#FF3EA50000FF7FFD
(1746131822.925370) can0 09F11202#FFCBA00000FF7FFD
(1746131823.048296) can0 1DEFFF02#600CE5986C070202
(1746131823.049777) can0 1DEFFF02#61410089000000FF
(1746131823.051371) can0 1DEFFF02#800CE5986C070202
(1746131823.052457) can0 1DEFFF02#81430000000000FF
(1746131823.052459) can0 1DEFFF02#A009E5986C070202
(1746131823.054438) can0 1DEFFF02#A1280000FFFFFFFF
(1746131823.054440) can0 1DEFFF02#C009E5986C070202
(1746131823.056687) can0 1DEFFF02#C1340000FFFFFFFF
(1746131823.059004) can0 1DEFFF02#E009E5986C070202
(1746131823.059006) can0 1DEFFF02#E11B00FFFFFFFFFF
(1746131823.060441) can0 1DEFFF02#0009E5986C070202
(1746131823.060442) can0 1DEFFF02#011D00FFFFFFFFFF
(1746131823.070145) can0 09F11202#FF30A90000FF7FFD
(1746131823.211409) can0 09F11202#FF2ABC0000FF7FFD
(1746131823.364452) can0 09F11202#FFDBE80000FF7FFD
(1746131823.502381) can0 09F11202#FF16070000FF7FFD
(1746131823.502383) can0 1DEFFF02#200AE598EE040404
(1746131823.504400) can0 1DEFFF02#2103000000FFFFFF
(1746131823.549162) can0 1DEFFF02#400CE5986C070202
(1746131823.549163) can0 1DEFFF02#41410089000000FF
(1746131823.551442) can0 1DEFFF02#600CE5986C070202
(1746131823.551443) can0 1DEFFF02#61430000000000FF
(1746131823.553442) can0 1DEFFF02#8009E5986C070202
(1746131823.554451) can0 1DEFFF02#81280000FFFFFFFF
(1746131823.554451) can0 1DEFFF02#A009E5986C070202
(1746131823.556391) can0 1DEFFF02#A1340000FFFFFFFF
(1746131823.558928) can0 1DEFFF02#C009E5986C070202
(1746131823.558930) can0 1DEFFF02#C11B00FFFFFFFFFF
(1746131823.560337) can0 1DEFFF02#E009E5986C070202
(1746131823.561606) can0 1DEFFF02#E11D00FFFFFFFFFF
(1746131823.644770) can0 09F11202#FFE2E40000FF7FFD
(1746131823.793466) can0 09F11202#FF43B10000FF7FFD
(1746131823.934837) can0 09F11202#FF61970000FF7FFD
(1746131824.048321) can0 1DEFFF02#000CE5986C070202
(1746131824.049827) can0 1DEFFF02#01410089000000FF
(1746131824.051447) can0 1DEFFF02#200CE5986C070202
(1746131824.051449) can0 1DEFFF02#21430000000000FF
(1746131824.053448) can0 1DEFFF02#4009E5986C070202
(1746131824.053449) can0 1DEFFF02#41280000FFFFFFFF
(1746131824.055380) can0 1DEFFF02#6009E5986C070202
(1746131824.056373) can0 1DEFFF02#61340000FFFFFFFF
(1746131824.059014) can0 1DEFFF02#8009E5986C070202
(1746131824.059015) can0 1DEFFF02#811B00FFFFFFFFFF
(1746131824.060455) can0 1DEFFF02#A009E5986C070202
(1746131824.061479) can0 1DEFFF02#A11D00FFFFFFFFFF
(1746131824.084434) can0 09F11202#FF929A0000FF7FFD
(1746131824.225841) can0 09F11202#FF01B20000FF7FFD
(1746131824.366502) can0 09F11202#FFFCE00000FF7FFD
(1746131824.514482) can0 09F11202#FFE7020000FF7FFD
(1746131824.553179) can0 1DEFFF02#C00CE5986C070202
(1746131824.553180) can0 1DEFFF02#C1410089000000FF
(1746131824.555412) can0 1DEFFF02#E00CE5986C070202
(1746131824.555413) can0 1DEFFF02#E1430000000000FF
(1746131824.559043) can0 1DEFFF02#0009E5986C070202
(1746131824.559045) can0 1DEFFF02#01280000FFFFFFFF
(1746131824.561469) can0 1DEFFF02#2009E5986C070202
(1746131824.562435) can0 1DEFFF02#21340000FFFFFFFF
(1746131824.562436) can0 1DEFFF02#4009E5986C070202
(1746131824.564437) can0 1DEFFF02#411B00FFFFFFFFFF
(1746131824.564439) can0 1DEFFF02#6009E5986C070202
(1746131824.566470) can0 1DEFFF02#611D00FFFFFFFFFF
(1746131824.659006) can0 09F11202#FF59AF0000FF7FFD
(1746131824.808442) can0 09F11202#FFE57D0000FF7FFD
(1746131824.946376) can0 09F11202#FFF5680000FF7FFD
(1746131824.949043) can0 1DEFFF02#800AE598EE040404
(1746131824.950189) can0 1DEFFF02#8103000000FFFFFF
(1746131825.048345) can0 1DEFFF02#A00CE5986C070202
(1746131825.050907) can0 1DEFFF02#A1410089000000FF
(1746131825.050908) can0 1DEFFF02#C00CE5986C070202
(1746131825.052495) can0 1DEFFF02#C1430000000000FF
(1746131825.052496) can0 1DEFFF02#E009E5986C070202
(1746131825.054536) can0 1DEFFF02#E1280000FFFFFFFF
(1746131825.054537) can0 1DEFFF02#0009E5986C070202
(1746131825.056426) can0 1DEFFF02#01340000FFFFFFFF
(1746131825.058384) can0 1DEFFF02#2009E5986C070202
(1746131825.058385) can0 1DEFFF02#211B00FFFFFFFFFF
(1746131825.060499) can0 1DEFFF02#4009E5986C070202
(1746131825.061510) can0 1DEFFF02#411D00FFFFFFFFFF
(1746131825.094501) can0 09F11202#FFBA570000FF7FFD
(1746131825.239902) can0 09F11202#FFB4540000FF7FFD
(1746131825.388362) can0 09F11202#FF3A520000FF7FFD
(1746131825.540010) can0 09F11202#FFC23D0000FF7FFD
(1746131825.559212) can0 1DEFFF02#600CE5986C070202
(1746131825.559214) can0 1DEFFF02#61410089000000FF
(1746131825.561488) can0 1DEFFF02#800CE5986C070202
(1746131825.562505) can0 1DEFFF02#81430000000000FF
(1746131825.562506) can0 1DEFFF02#A009E5986C070202
(1746131825.564447) can0 1DEFFF02#A1280000FFFFFFFF
(1746131825.564448) can0 1DEFFF02#C009E5986C070202
(1746131825.566459) can0 1DEFFF02#C1340000FFFFFFFF
(1746131825.569047) can0 1DEFFF02#E009E5986C070202
(1746131825.569048) can0 1DEFFF02#E11B00FFFFFFFFFF
(1746131825.571449) can0 1DEFFF02#0009E5986C070202
(1746131825.571450) can0 1DEFFF02#011D00FFFFFFFFFF
(1746131825.684557) can0 09F11202#FF76020000FF7FFD
(1746131825.829903) can0 09F11202#FF00330000FF7FFD
(1746131825.978639) can0 09F11202#FF9E630000FF7FFD
(1746131826.059166) can0 1DEFFF02#200CE5986C070202
(1746131826.059168) can0 1DEFFF02#21410089000000FF
(1746131826.061410) can0 1DEFFF02#400CE5986C070202
(1746131826.061411) can0 1DEFFF02#41430000000000FF
(1746131826.063389) can0 1DEFFF02#6009E5986C070202
(1746131826.064422) can0 1DEFFF02#61280000FFFFFFFF
(1746131826.064422) can0 1DEFFF02#8009E5986C070202
(1746131826.066425) can0 1DEFFF02#81340000FFFFFFFF
(1746131826.068945) can0 1DEFFF02#A009E5986C070202
(1746131826.068945) can0 1DEFFF02#A11B00FFFFFFFFFF
(1746131826.070380) can0 1DEFFF02#C009E5986C070202
(1746131826.071400) can0 1DEFFF02#C11D00FFFFFFFFFF
(1746131826.119931) can0 09F11202#FF765C0000FF7FFD
(1746131826.271450) can0 09F11202#FF124E0000FF7FFD
(1746131826.412518) can0 09F11202#FF964D0000FF7FFD
(1746131826.412519) can0 1DEFFF02#E00AE598EE040404
(1746131826.414461) can0 1DEFFF02#E103000000FFFFFF
(1746131826.555669) can0 09F11202#FFF2520000FF7FFD
(1746131826.559153) can0 1DEFFF02#000CE5986C070202
(1746131826.559155) can0 1DEFFF02#01410089000000FF
(1746131826.561510) can0 1DEFFF02#200CE5986C070202
(1746131826.562461) can0 1DEFFF02#21430000000000FF
(1746131826.562462) can0 1DEFFF02#4009E5986C070202
(1746131826.564528) can0 1DEFFF02#41280000FFFFFFFF
(1746131826.564529) can0 1DEFFF02#6009E5986C070202
(1746131826.566539) can0 1DEFFF02#61340000FFFFFFFF
(1746131826.569341) can0 1DEFFF02#8009E5986C070202
(1746131826.569342) can0 1DEFFF02#811B00FFFFFFFFFF
(1746131826.571540) can0 1DEFFF02#A009E5986C070202
(1746131826.572433) can0 1DEFFF02#A11D00FFFFFFFFFF
(1746131826.702536) can0 09F11202#FFC8540000FF7FFD
(1746131826.845751) can0 09F11202#FF50530000FF7FFD
(1746131826.993480) can0 09F11202#FF49530000FF7FFD
(1746131827.059174) can0 1DEFFF02#C00CE5986C070202
(1746131827.059175) can0 1DEFFF02#C1410089000000FF
(1746131827.061428) can0 1DEFFF02#E00CE5986C070202
(1746131827.062417) can0 1DEFFF02#E1430000000000FF
(1746131827.062418) can0 1DEFFF02#0009E5986C070202
(1746131827.064421) can0 1DEFFF02#01280000FFFFFFFF
(1746131827.064422) can0 1DEFFF02#2009E5986C070202
(1746131827.066443) can0 1DEFFF02#21340000FFFFFFFF
(1746131827.068361) can0 1DEFFF02#4009E5986C070202
(1746131827.068362) can0 1DEFFF02#411B00FFFFFFFFFF
(1746131827.070421) can0 1DEFFF02#6009E5986C070202
(1746131827.071438) can0 1DEFFF02#611D00FFFFFFFFFF
(1746131827.139022) can0 09F11202#FF2A530000FF7FFD
(1746131827.275852) can0 09F11202#FFA2520000FF7FFD
(1746131827.431443) can0 09F11202#FFFD510000FF7FFD
(1746131827.559241) can0 1DEFFF02#800CE5986C070202
(1746131827.559242) can0 1DEFFF02#81410089000000FF
(1746131827.561544) can0 1DEFFF02#A00CE5986C070202
(1746131827.562559) can0 1DEFFF02#A1430000000000FF
(1746131827.562560) can0 1DEFFF02#C009E5986C070202
(1746131827.564770) can0 1DEFFF02#C1280000FFFFFFFF
(1746131827.564771) can0 1DEFFF02#E009E5986C070202
(1746131827.566557) can0 1DEFFF02#E1340000FFFFFFFF
(1746131827.568483) can0 1DEFFF02#0009E5986C070202
(1746131827.568484) can0 1DEFFF02#011B00FFFFFFFFFF
(1746131827.570447) can0 1DEFFF02#2009E5986C070202
(1746131827.571467) can0 1DEFFF02#211D00FFFFFFFFFF
(1746131827.571469) can0 09F11202#FFF6500000FF7FFD
(1746131827.723562) can0 09F11202#FFB2510000FF7FFD
(1746131827.862584) can0 09F11202#FF99560000FF7FFD
(1746131827.862585) can0 1DEFFF02#400AE598EE040404
(1746131827.864563) can0 1DEFFF02#4103000000FFFFFF
(1746131828.010131) can0 09F11202#FF61680000FF7FFD
(1746131828.059452) can0 1DEFFF02#600CE5986C070202
(1746131828.059454) can0 1DEFFF02#61410089000000FF
(1746131828.061460) can0 1DEFFF02#800CE5986C070202
(1746131828.062478) can0 1DEFFF02#81430000000000FF
(1746131828.062479) can0 1DEFFF02#A009E5986C070202
(1746131828.064437) can0 1DEFFF02#A1280000FFFFFFFF
(1746131828.064438) can0 1DEFFF02#C009E5986C070202
(1746131828.066481) can0 1DEFFF02#C1340000FFFFFFFF
(1746131828.069023) can0 1DEFFF02#E009E5986C070202
(1746131828.069023) can0 1DEFFF02#E11B00FFFFFFFFFF
(1746131828.071467) can0 1DEFFF02#0009E5986C070202
(1746131828.072507) can0 1DEFFF02#011D00FFFFFFFFFF
(1746131828.149897) can0 09F11202#FFB7740000FF7FFD
(1746131828.293572) can0 09F11202#FF16790000FF7FFD
(1746131828.442509) can0 09F11202#FF11790000FF7FFD
(1746131828.559281) can0 1DEFFF02#200CE5986C070202
(1746131828.559295) can0 1DEFFF02#21410089000000FF
(1746131828.561552) can0 1DEFFF02#400CE5986C070202
(1746131828.562794) can0 1DEFFF02#41430000000000FF
(1746131828.562795) can0 1DEFFF02#6009E5986C070202
(1746131828.564525) can0 1DEFFF02#61280000FFFFFFFF
(1746131828.564526) can0 1DEFFF02#8009E5986C070202
(1746131828.566582) can0 1DEFFF02#81340000FFFFFFFF
(1746131828.569067) can0 1DEFFF02#A009E5986C070202
(1746131828.569068) can0 1DEFFF02#A11B00FFFFFFFFFF
(1746131828.570499) can0 1DEFFF02#C009E5986C070202
(1746131828.570501) can0 1DEFFF02#C11D00FFFFFFFFFF
(1746131828.583956) can0 09F11202#FFDF780000FF7FFD
(1746131828.725570) can0 09F11202#FFCF780000FF7FFD
(1746131828.878528) can0 09F11202#FF7D780000FF7FFD
(1746131829.013528) can0 09F11202#FFDA750000FF7FFD
(1746131829.059237) can0 1DEFFF02#E00CE5986C070202
(1746131829.059238) can0 1DEFFF02#E1410089000000FF
(1746131829.061496) can0 1DEFFF02#000CE5986C070202
(1746131829.061497) can0 1DEFFF02#01430000000000FF
(1746131829.063455) can0 1DEFFF02#2009E5986C070202
(1746131829.064474) can0 1DEFFF02#21280000FFFFFFFF
(1746131829.064475) can0 1DEFFF02#4009E5986C070202
(1746131829.066497) can0 1DEFFF02#41340000FFFFFFFF
(1746131829.069290) can0 1DEFFF02#6009E5986C070202
(1746131829.069290) can0 1DEFFF02#611B00FFFFFFFFFF
(1746131829.071502) can0 1DEFFF02#8009E5986C070202
(1746131829.072523) can0 1DEFFF02#811D00FFFFFFFFFF
(1746131829.164530) can0 09F11202#FF1A630000FF7FFD
(1746131829.310385) can0 09F11202#FF4F500000FF7FFD
(1746131829.311552) can0 1DEFFF02#A00AE598EE040404
(1746131829.311554) can0 1DEFFF02#A103000000FFFFFF
(1746131829.451641) can0 09F11202#FF96510000FF7FFD
(1746131829.559301) can0 1DEFFF02#C00CE5986C070202
(1746131829.559304) can0 1DEFFF02#C1410089000000FF
(1746131829.561565) can0 1DEFFF02#E00CE5986C070202
(1746131829.561566) can0 1DEFFF02#E1430000000000FF
(1746131829.563568) can0 1DEFFF02#0009E5986C070202
(1746131829.563569) can0 1DEFFF02#01280000FFFFFFFF
(1746131829.565599) can0 1DEFFF02#2009E5986C070202
(1746131829.566619) can0 1DEFFF02#21340000FFFFFFFF
(1746131829.569153) can0 1DEFFF02#4009E5986C070202
(1746131829.569155) can0 1DEFFF02#411B00FFFFFFFFFF
(1746131829.570586) can0 1DEFFF02#6009E5986C070202
(1746131829.571578) can0 1DEFFF02#611D00FFFFFFFFFF
(1746131829.593594) can0 09F11202#FFAE600000FF7FFD
(1746131829.743545) can0 09F11202#FFC46B0000FF7FFD
(1746131829.885594) can0 09F11202#FF75610000FF7FFD
(1746131830.031973) can0 09F11202#FF39610000FF7FFD
(1746131830.059253) can0 1DEFFF02#800CE5986C070202
(1746131830.059254) can0 1DEFFF02#81410089000000FF
(1746131830.061495) can0 1DEFFF02#A00CE5986C070202
(1746131830.062534) can0 1DEFFF02#A1430000000000FF
(1746131830.062535) can0 1DEFFF02#C009E5986C070202
(1746131830.064379) can0 1DEFFF02#C1280000FFFFFFFF
(1746131830.065767) can0 1DEFFF02#E009E5986C070202
(1746131830.065768) can0 1DEFFF02#E1340000FFFFFFFF
(1746131830.069075) can0 1DEFFF02#0009E5986C070202
(1746131830.069075) can0 1DEFFF02#011B00FFFFFFFFFF
(1746131830.070496) can0 1DEFFF02#2009E5986C070202
(1746131830.071490) can0 1DEFFF02#211D00FFFFFFFFFF
(1746131830.176541) can0 09F11202#FF07660000FF7FFD
(1746131830.325527) can0 09F11202#FF77660000FF7FFD
(1746131830.461934) can0 09F11202#FF61660000FF7FFD
(1746131830.559527) can0 1DEFFF02#400CE5986C070202
(1746131830.559528) can0 1DEFFF02#41410089000000FF
(1746131830.561493) can0 1DEFFF02#600CE5986C070202
(1746131830.562533) can0 1DEFFF02#61430000000000FF
(1746131830.562534) can0 1DEFFF02#8009E5986C070202
(1746131830.564533) can0 1DEFFF02#81280000FFFFFFFF
(1746131830.564533) can0 1DEFFF02#A009E5986C070202
(1746131830.566387) can0 1DEFFF02#A1340000FFFFFFFF
(1746131830.569081) can0 1DEFFF02#C009E5986C070202
(1746131830.569082) can0 1DEFFF02#C11B00FFFFFFFFFF
(1746131830.570369) can0 1DEFFF02#E009E5986C070202
(1746131830.571811) can0 1DEFFF02#E11D00FFFFFFFFFF
(1746131830.614580) can0 09F11202#FF68660000FF7FFD
(1746131830.755477) can0 09F11202#FF46660000FF7FFD
(1746131830.755477) can0 1DEFFF02#000AE598EE040404
(1746131830.759113) can0 1DEFFF02#0103000000FFFFFF
(1746131830.902579) can0 09F11202#FFFC650000FF7FFD
(1746131831.051134) can0 09F11202#FFEC650000FF7FFD
(1746131831.069356) can0 1DEFFF02#200CE5986C070202
(1746131831.069357) can0 1DEFFF02#21410089000000FF
(1746131831.071651) can0 1DEFFF02#400CE5986C070202
(1746131831.072587) can0 1DEFFF02#41430000000000FF
(1746131831.072588) can0 1DEFFF02#6009E5986C070202
(1746131831.074639) can0 1DEFFF02#61280000FFFFFFFF
(1746131831.075901) can0 1DEFFF02#8009E5986C070202
(1746131831.075903) can0 1DEFFF02#81340000FFFFFFFF
(1746131831.083933) can0 1DEFFF02#A009E5986C070202
(1746131831.083934) can0 1DEFFF02#A11B00FFFFFFFFFF
(1746131831.085631) can0 1DEFFF02#C009E5986C070202
(1746131831.086597) can0 1DEFFF02#C11D00FFFFFFFFFF
(1746131831.195555) can0 09F11202#FFE4650000FF7FFD
(1746131831.343563) can0 09F11202#FFF7650000FF7FFD
(1746131831.485527) can0 09F11202#FFEB650000FF7FFD
(1746131831.569301) can0 1DEFFF02#E00CE5986C070202
(1746131831.569303) can0 1DEFFF02#E1410089000000FF
(1746131831.571549) can0 1DEFFF02#000CE5986C070202
(1746131831.571550) can0 1DEFFF02#01430000000000FF
(1746131831.573535) can0 1DEFFF02#2009E5986C070202
(1746131831.574548) can0 1DEFFF02#21280000FFFFFFFF
(1746131831.574549) can0 1DEFFF02#4009E5986C070202
(1746131831.576553) can0 1DEFFF02#41340000FFFFFFFF
(1746131831.578865) can0 1DEFFF02#6009E5986C070202
(1746131831.580554) can0 1DEFFF02#611B00FFFFFFFFFF
(1746131831.581799) can0 1DEFFF02#8009E5986C070202
(1746131831.581799) can0 1DEFFF02#811D00FFFFFFFFFF
(1746131831.631854) can0 09F11202#FF1A660000FF7FFD
(1746131831.776539) can0 09F11202#FF4E660000FF7FFD
(1746131831.916038) can0 09F11202#FF2E660000FF7FFD
(1746131832.069319) can0 1DEFFF02#A00CE5986C070202
(1746131832.069328) can0 1DEFFF02#A1410089000000FF
(1746131832.071574) can0 1DEFFF02#C00CE5986C070202
(1746131832.071576) can0 1DEFFF02#C1430000000000FF
(1746131832.073863) can0 1DEFFF02#E009E5986C070202
(1746131832.073864) can0 1DEFFF02#E1280000FFFFFFFF
(1746131832.075526) can0 1DEFFF02#0009E5986C070202
(1746131832.076569) can0 1DEFFF02#01340000FFFFFFFF
(1746131832.079091) can0 1DEFFF02#2009E5986C070202
(1746131832.086173) can0 1DEFFF02#211B00FFFFFFFFFF
(1746131832.088488) can0 1DEFFF02#4009E5986C070202
(1746131832.088489) can0 1DEFFF02#411D00FFFFFFFFFF
(1746131832.090580) can0 09F11202#FF13660000FF7FFD
(1746131832.214666) can0 09F11202#FFD8650000FF7FFD
(1746131832.214667) can0 1DEFFF02#600AE598EE040404
(1746131832.216681) can0 1DEFFF02#6103000000FFFFFF
(1746131832.359248) can0 09F11202#FFB7650000FF7FFD
(1746131832.503879) can0 09F11202#FF8B680000FF7FFD
(1746131832.569308) can0 1DEFFF02#800CE5986C070202
(1746131832.569310) can0 1DEFFF02#81410089000000FF
(1746131832.571609) can0 1DEFFF02#A00CE5986C070202
(1746131832.572708) can0 1DEFFF02#A1430000000000FF
(1746131832.572710) can0 1DEFFF02#C009E5986C070202
(1746131832.574547) can0 1DEFFF02#C1280000FFFFFFFF
(1746131832.575637) can0 1DEFFF02#E009E5986C070202
(1746131832.575639) can0 1DEFFF02#E1340000FFFFFFFF
(1746131832.579253) can0 1DEFFF02#0009E5986C070202
(1746131832.579254) can0 1DEFFF02#011B00FFFFFFFFFF
(1746131832.581575) can0 1DEFFF02#2009E5986C070202
(1746131832.582686) can0 1DEFFF02#211D00FFFFFFFFFF
(1746131832.651670) can0 09F11202#FF50760000FF7FFD
(1746131832.800083) can0 09F11202#FF64B70000FF7FFD
(1746131832.943993) can0 09F11202#FF60DC0000FF7FFD
(1746131833.069327) can0 1DEFFF02#400CE5986C070202
(1746131833.069328) can0 1DEFFF02#41410089000000FF
(1746131833.071864) can0 1DEFFF02#600CE5986C070202
(1746131833.071865) can0 1DEFFF02#61430000000000FF
(1746131833.073559) can0 1DEFFF02#8009E5986C070202
(1746131833.074588) can0 1DEFFF02#81280000FFFFFFFF
(1746131833.074589) can0 1DEFFF02#A009E5986C070202
(1746131833.076462) can0 1DEFFF02#A1340000FFFFFFFF
(1746131833.084359) can0 1DEFFF02#C009E5986C070202
(1746131833.085571) can0 1DEFFF02#C11B00FFFFFFFFFF
(1746131833.085572) can0 1DEFFF02#E009E5986C070202
(1746131833.089188) can0 1DEFFF02#E11D00FFFFFFFFFF
(1746131833.089189) can0 09F11202#FF6ED90000FF7FFD
(1746131833.231678) can0 09F11202#FF70D90000FF7FFD
(1746131833.372637) can0 09F11202#FF91D50000FF7FFD
(1746131833.529236) can0 09F11202#FF1FD00000FF7FFD
(1746131833.580532) can0 1DEFFF02#000CE5986C070202
(1746131833.581717) can0 1DEFFF02#01410089000000FF
(1746131833.581718) can0 1DEFFF02#200CE5986C070202
(1746131833.583699) can0 1DEFFF02#21430000000000FF
(1746131833.583700) can0 1DEFFF02#4009E5986C070202
(1746131833.585708) can0 1DEFFF02#41280000FFFFFFFF
(1746131833.585709) can0 1DEFFF02#6009E5986C070202
(1746131833.589221) can0 1DEFFF02#61340000FFFFFFFF
(1746131833.589223) can0 1DEFFF02#8009E5986C070202
(1746131833.591723) can0 1DEFFF02#811B00FFFFFFFFFF
(1746131833.591724) can0 1DEFFF02#A009E5986C070202
(1746131833.593704) can0 1DEFFF02#A11D00FFFFFFFFFF
(1746131833.666843) can0 09F11202#FF78CB0000FF7FFD
(1746131833.669170) can0 1DEFFF02#C00AE598EE040404
(1746131833.669171) can0 1DEFFF02#C103000000FFFFFF
(1746131833.815640) can0 09F11202#FF1FC80000FF7FFD
(1746131833.963087) can0 09F11202#FF14C40000FF7FFD
(1746131834.083297) can0 1DEFFF02#E00CE5986C070202
(1746131834.084712) can0 1DEFFF02#E1410089000000FF
(1746131834.084713) can0 1DEFFF02#000CE5986C070202
(1746131834.086748) can0 1DEFFF02#01430000000000FF
(1746131834.089282) can0 1DEFFF02#2009E5986C070202
(1746131834.089284) can0 1DEFFF02#21280000FFFFFFFF
(1746131834.090715) can0 1DEFFF02#4009E5986C070202
(1746131834.091730) can0 1DEFFF02#41340000FFFFFFFF
(1746131834.091732) can0 1DEFFF02#6009E5986C070202
(1746131834.093556) can0 1DEFFF02#611B00FFFFFFFFFF
(1746131834.094983) can0 1DEFFF02#8009E5986C070202
(1746131834.094984) can0 1DEFFF02#811D00FFFFFFFFFF
(1746131834.106662) can0 09F11202#FFA6B20000FF7FFD
(1746131834.254045) can0 09F11202#FF988D0000FF7FFD
(1746131834.402631) can0 09F11202#FF7A790000FF7FFD
(1746131834.541746) can0 09F11202#FFEB6E0000FF7FFD
(1746131834.579407) can0 1DEFFF02#A00CE5986C070202
(1746131834.579408) can0 1DEFFF02#A1410089000000FF
(1746131834.581641) can0 1DEFFF02#C00CE5986C070202
(1746131834.581642) can0 1DEFFF02#C1430000000000FF
(1746131834.583709) can0 1DEFFF02#E009E5986C070202
(1746131834.583710) can0 1DEFFF02#E1280000FFFFFFFF
(1746131834.585731) can0 1DEFFF02#0009E5986C070202
(1746131834.586754) can0 1DEFFF02#01340000FFFFFFFF
(1746131834.589559) can0 1DEFFF02#2009E5986C070202
(1746131834.589560) can0 1DEFFF02#211B00FFFFFFFFFF
(1746131834.591713) can0 1DEFFF02#4009E5986C070202
(1746131834.592747) can0 1DEFFF02#411D00FFFFFFFFFF
(1746131834.685630) can0 09F11202#FF116C0000FF7FFD
(1746131834.830482) can0 09F11202#FF6A820000FF7FFD
(1746131834.982671) can0 09F11202#FFE7990000FF7FFD
(1746131835.084899) can0 1DEFFF02#600CE5986C070202
(1746131835.086116) can0 1DEFFF02#61410089000000FF
(1746131835.089306) can0 1DEFFF02#800CE5986C070202
(1746131835.089307) can0 1DEFFF02#81430000000000FF
(1746131835.090666) can0 1DEFFF02#A009E5986C070202
(1746131835.091650) can0 1DEFFF02#A1280000FFFFFFFF
(1746131835.093000) can0 1DEFFF02#C009E5986C070202
(1746131835.093001) can0 1DEFFF02#C1340000FFFFFFFF
(1746131835.094726) can0 1DEFFF02#E009E5986C070202
(1746131835.095655) can0 1DEFFF02#E11B00FFFFFFFFFF
(1746131835.095656) can0 1DEFFF02#0009E5986C070202
(1746131835.098615) can0 1DEFFF02#011D00FFFFFFFFFF
(1746131835.123674) can0 09F11202#FFD4850000FF7FFD
(1746131835.123676) can0 1DEFFF02#200AE598EE040404
(1746131835.125647) can0 1DEFFF02#2103000000FFFFFF
(1746131835.272120) can0 09F11202#FFF2700000FF7FFD
(1746131835.418680) can0 09F11202#FF236D0000FF7FFD
(1746131835.556701) can0 09F11202#FFA07F0000FF7FFD
(1746131835.579428) can0 1DEFFF02#400CE5986C070202
(1746131835.579430) can0 1DEFFF02#41410089000000FF
(1746131835.581673) can0 1DEFFF02#600CE5986C070202
(1746131835.582695) can0 1DEFFF02#61430000000000FF
(1746131835.582696) can0 1DEFFF02#8009E5986C070202
(1746131835.584668) can0 1DEFFF02#81280000FFFFFFFF
(1746131835.585916) can0 1DEFFF02#A009E5986C070202
(1746131835.585917) can0 1DEFFF02#A1340000FFFFFFFF
(1746131835.589321) can0 1DEFFF02#C009E5986C070202
(1746131835.589322) can0 1DEFFF02#C11B00FFFFFFFFFF
(1746131835.590601) can0 1DEFFF02#E009E5986C070202
(1746131835.591730) can0 1DEFFF02#E11D00FFFFFFFFFF
(1746131835.712044) can0 09F11202#FF46980000FF7FFD
(1746131835.852116) can0 09F11202#FFEC900000FF7FFD
(1746131836.000611) can0 09F11202#FFD5780000FF7FFD
(1746131836.089402) can0 1DEFFF02#000CE5986C070202
(1746131836.089404) can0 1DEFFF02#01410089000000FF
(1746131836.091741) can0 1DEFFF02#200CE5986C070202
(1746131836.092764) can0 1DEFFF02#21430000000000FF
(1746131836.092765) can0 1DEFFF02#4009E5986C070202
(1746131836.094762) can0 1DEFFF02#41280000FFFFFFFF
(1746131836.094763) can0 1DEFFF02#6009E5986C070202
(1746131836.096762) can0 1DEFFF02#61340000FFFFFFFF
(1746131836.099337) can0 1DEFFF02#8009E5986C070202
(1746131836.099338) can0 1DEFFF02#811B00FFFFFFFFFF
(1746131836.100745) can0 1DEFFF02#A009E5986C070202
(1746131836.100746) can0 1DEFFF02#A11D00FFFFFFFFFF
(1746131836.139276) can0 09F11202#FF80670000FF7FFD
(1746131836.285767) can0 09F11202#FFEC650000FF7FFD
(1746131836.434062) can0 09F11202#FF86720000FF7FFD
(1746131836.580072) can0 09F11202#FF59870000FF7FFD
(1746131836.580073) can0 1DEFFF02#C00AE598EE040404
(1746131836.581782) can0 1DEFFF02#C103000000FFFFFF
(1746131836.589469) can0 1DEFFF02#E00CE5986C070202
(1746131836.589470) can0 1DEFFF02#E1410089000000FF
(1746131836.591729) can0 1DEFFF02#000CE5986C070202
(1746131836.591731) can0 1DEFFF02#01430000000000FF
(1746131836.593698) can0 1DEFFF02#2009E5986C070202
(1746131836.594786) can0 1DEFFF02#21280000FFFFFFFF
(1746131836.595957) can0 1DEFFF02#4009E5986C070202
(1746131836.595958) can0 1DEFFF02#41340000FFFFFFFF
(1746131836.599225) can0 1DEFFF02#6009E5986C070202
(1746131836.603827) can0 1DEFFF02#611B00FFFFFFFFFF
(1746131836.605033) can0 1DEFFF02#8009E5986C070202
(1746131836.606712) can0 1DEFFF02#811D00FFFFFFFFFF
(1746131836.724124) can0 09F11202#FF4D9D0000FF7FFD
(1746131836.874000) can0 09F11202#FFDA9C0000FF7FFD
(1746131837.015136) can0 09F11202#FFF17D0000FF7FFD
(1746131837.089391) can0 1DEFFF02#A00CE5986C070202
(1746131837.089392) can0 1DEFFF02#A1410089000000FF
(1746131837.091658) can0 1DEFFF02#C00CE5986C070202
(1746131837.091659) can0 1DEFFF02#C1430000000000FF
(1746131837.093681) can0 1DEFFF02#E009E5986C070202
(1746131837.093683) can0 1DEFFF02#E1280000FFFFFFFF
(1746131837.095678) can0 1DEFFF02#0009E5986C070202
(1746131837.096723) can0 1DEFFF02#01340000FFFFFFFF
(1746131837.099240) can0 1DEFFF02#2009E5986C070202
(1746131837.099240) can0 1DEFFF02#211B00FFFFFFFFFF
(1746131837.100947) can0 1DEFFF02#4009E5986C070202
(1746131837.100948) can0 1DEFFF02#411D00FFFFFFFFFF
(1746131837.164069) can0 09F11202#FF1E670000FF7FFD
(1746131837.306158) can0 09F11202#FF90640000FF7FFD
(1746131837.459369) can0 09F11202#FFD5720000FF7FFD
(1746131837.589514) can0 1DEFFF02#600CE5986C070202
(1746131837.589516) can0 1DEFFF02#61410089000000FF
(1746131837.591789) can0 1DEFFF02#800CE5986C070202
(1746131837.592818) can0 1DEFFF02#81430000000000FF
(1746131837.594048) can0 1DEFFF02#A009E5986C070202
(1746131837.594049) can0 1DEFFF02#A1280000FFFFFFFF
(1746131837.595786) can0 1DEFFF02#C009E5986C070202
(1746131837.595787) can0 1DEFFF02#C1340000FFFFFFFF
(1746131837.599301) can0 1DEFFF02#E009E5986C070202
(1746131837.599302) can0 1DEFFF02#E11B00FFFFFFFFFF
(1746131837.600800) can0 1DEFFF02#0009E5986C070202
(1746131837.601824) can0 1DEFFF02#011D00FFFFFFFFFF
(1746131837.601825) can0 09F11202#FFE5630000FF7FFD
(1746131837.745091) can0 09F11202#FF11440000FF7FFD
(1746131837.889618) can0 09F11202#FF74470000FF7FFD
(1746131838.031541) can0 09F11202#FF7E500000FF7FFD
(1746131838.035050) can0 1DEFFF02#200AE598EE040404
(1746131838.036715) can0 1DEFFF02#2103000000FFFFFF
(1746131838.089402) can0 1DEFFF02#400CE5986C070202
(1746131838.089402) can0 1DEFFF02#41410089000000FF
(1746131838.091715) can0 1DEFFF02#600CE5986C070202
(1746131838.092719) can0 1DEFFF02#61430000000000FF
(1746131838.092719) can0 1DEFFF02#8009E5986C070202
(1746131838.094715) can0 1DEFFF02#81280000FFFFFFFF
(1746131838.094716) can0 1DEFFF02#A009E5986C070202
(1746131838.096569) can0 1DEFFF02#A1340000FFFFFFFF
(1746131838.101735) can0 1DEFFF02#C009E5986C070202
(1746131838.103695) can0 1DEFFF02#C11B00FFFFFFFFFF
(1746131838.103695) can0 1DEFFF02#E009E5986C070202
(1746131838.105717) can0 1DEFFF02#E11D00FFFFFFFFFF
(1746131838.183698) can0 09F11202#FF954B0000FF7FFD
(1746131838.331824) can0 09F11202#FF18490000FF7FFD
(1746131838.474836) can0 09F11202#FFD2510000FF7FFD
(1746131838.599449) can0 1DEFFF02#000CE5986C070202
(1746131838.599451) can0 1DEFFF02#01410089000000FF
(1746131838.601717) can0 1DEFFF02#200CE5986C070202
(1746131838.602738) can0 1DEFFF02#21430000000000FF
(1746131838.603985) can0 1DEFFF02#4009E5986C070202
(1746131838.603986) can0 1DEFFF02#41280000FFFFFFFF
(1746131838.605711) can0 1DEFFF02#6009E5986C070202
(1746131838.606709) can0 1DEFFF02#61340000FFFFFFFF
(1746131838.609359) can0 1DEFFF02#8009E5986C070202
(1746131838.609363) can0 1DEFFF02#811B00FFFFFFFFFF
(1746131838.610722) can0 1DEFFF02#A009E5986C070202
(1746131838.610723) can0 1DEFFF02#A11D00FFFFFFFFFF
(1746131838.622757) can0 09F11202#FF23590000FF7FFD
(1746131838.763753) can0 09F11202#FF5E720000FF7FFD
(1746131838.918711) can0 09F11202#FF16910000FF7FFD
(1746131839.055769) can0 09F11202#FFA49B0000FF7FFD
(1746131839.099548) can0 1DEFFF02#C00CE5986C070202
(1746131839.103045) can0 1DEFFF02#C1410089000000FF
(1746131839.104719) can0 1DEFFF02#E00CE5986C070202
(1746131839.105733) can0 1DEFFF02#E1430000000000FF
(1746131839.105734) can0 1DEFFF02#0009E5986C070202
(1746131839.109425) can0 1DEFFF02#01280000FFFFFFFF
(1746131839.109426) can0 1DEFFF02#2009E5986C070202
(1746131839.111732) can0 1DEFFF02#21340000FFFFFFFF
(1746131839.111733) can0 1DEFFF02#4009E5986C070202
(1746131839.113607) can0 1DEFFF02#411B00FFFFFFFFFF
(1746131839.114711) can0 1DEFFF02#6009E5986C070202
(1746131839.114712) can0 1DEFFF02#611D00FFFFFFFFFF
(1746131839.205760) can0 09F11202#FF529B0000FF7FFD
(1746131839.352836) can0 09F11202#FFA8980000FF7FFD
(1746131839.500228) can0 09F11202#FF098F0000FF7FFD
(1746131839.500229) can0 1DEFFF02#800AE598EE040404
(1746131839.501868) can0 1DEFFF02#8103000000FFFFFF
(1746131839.599812) can0 1DEFFF02#A00CE5986C070202
(1746131839.600965) can0 1DEFFF02#A1410089000000FF
(1746131839.602112) can0 1DEFFF02#C00CE5986C070202
(1746131839.602113) can0 1DEFFF02#C1430000000000FF
(1746131839.603769) can0 1DEFFF02#E009E5986C070202
(1746131839.603770) can0 1DEFFF02#E1280000FFFFFFFF
(1746131839.605793) can0 1DEFFF02#0009E5986C070202
(1746131839.606793) can0 1DEFFF02#01340000FFFFFFFF
(1746131839.609604) can0 1DEFFF02#2009E5986C070202
(1746131839.609606) can0 1DEFFF02#211B00FFFFFFFFFF
(1746131839.611878) can0 1DEFFF02#4009E5986C070202
(1746131839.612878) can0 1DEFFF02#411D00FFFFFFFFFF
(1746131839.650546) can0 09F11202#FFA5850000FF7FFD
(1746131839.793031) can0 09F11202#FF60830000FF7FFD
(1746131839.945876) can0 09F11202#FF93820000FF7FFD
(1746131840.092271) can0 09F11202#FF7E810000FF7FFD
(1746131840.099655) can0 1DEFFF02#600CE5986C070202
(1746131840.100820) can0 1DEFFF02#61410089000000FF
(1746131840.102861) can0 1DEFFF02#800CE5986C070202
(1746131840.103875) can0 1DEFFF02#81430000000000FF
(1746131840.103877) can0 1DEFFF02#A009E5986C070202
(1746131840.105807) can0 1DEFFF02#A1280000FFFFFFFF
(1746131840.105808) can0 1DEFFF02#C009E5986C070202
(1746131840.109775) can0 1DEFFF02#C1340000FFFFFFFF
(1746131840.109776) can0 1DEFFF02#E009E5986C070202
(1746131840.111773) can0 1DEFFF02#E11B00FFFFFFFFFF
(1746131840.111775) can0 1DEFFF02#0009E5986C070202
(1746131840.113777) can0 1DEFFF02#011D00FFFFFFFFFF
(1746131840.236165) can0 09F11202#FF8E800000FF7FFD
(1746131840.393902) can0 09F11202#FF697F0000FF7FFD
(1746131840.539661) can0 09F11202#FF617E0000FF7FFD
(1746131840.602479) can0 1DEFFF02#200CE5986C070202
(1746131840.603597) can0 1DEFFF02#21410089000000FF
(1746131840.604674) can0 1DEFFF02#400CE5986C070202
(1746131840.605847) can0 1DEFFF02#41430000000000FF
(1746131840.609542) can0 1DEFFF02#6009E5986C070202
(1746131840.609543) can0 1DEFFF02#61280000FFFFFFFF
(1746131840.611774) can0 1DEFFF02#8009E5986C070202
(1746131840.613063) can0 1DEFFF02#81340000FFFFFFFF
(1746131840.613064) can0 1DEFFF02#A009E5986C070202
(1746131840.614791) can0 1DEFFF02#A11B00FFFFFFFFFF
(1746131840.614792) can0 1DEFFF02#C009E5986C070202
(1746131840.616817) can0 1DEFFF02#C11D00FFFFFFFFFF
(1746131840.691779) can0 09F11202#FF4F7D0000FF7FFD
(1746131840.839504) can0 09F11202#FFA27C0000FF7FFD
(1746131840.986912) can0 09F11202#FF797B0000FF7FFD
(1746131840.989533) can0 1DEFFF02#E00AE598EE040404
(1746131840.989535) can0 1DEFFF02#E103000000FFFFFF
(1746131841.109709) can0 1DEFFF02#000CE5986C070202
(1746131841.109711) can0 1DEFFF02#01410089000000FF
(1746131841.111882) can0 1DEFFF02#200CE5986C070202
(1746131841.112892) can0 1DEFFF02#21430000000000FF
(1746131841.112893) can0 1DEFFF02#4009E5986C070202
(1746131841.114898) can0 1DEFFF02#41280000FFFFFFFF
(1746131841.114899) can0 1DEFFF02#6009E5986C070202
(1746131841.116900) can0 1DEFFF02#61340000FFFFFFFF
(1746131841.119836) can0 1DEFFF02#8009E5986C070202
(1746131841.119838) can0 1DEFFF02#811B00FFFFFFFFFF
(1746131841.121860) can0 1DEFFF02#A009E5986C070202
(1746131841.121862) can0 1DEFFF02#A11D00FFFFFFFFFF
(1746131841.134777) can0 09F11202#FF117A0000FF7FFD
(1746131841.276911) can0 09F11202#FFCC770000FF7FFD
(1746131841.431894) can0 09F11202#FF76760000FF7FFD
(1746131841.576763) can0 09F11202#FF34750000FF7FFD
(1746131841.609795) can0 1DEFFF02#C00CE5986C070202
(1746131841.609796) can0 1DEFFF02#C1410089000000FF
(1746131841.611892) can0 1DEFFF02#E00CE5986C070202
(1746131841.611893) can0 1DEFFF02#E1430000000000FF
(1746131841.613906) can0 1DEFFF02#0009E5986C070202
(1746131841.614860) can0 1DEFFF02#01280000FFFFFFFF
(1746131841.614862) can0 1DEFFF02#2009E5986C070202
(1746131841.616910) can0 1DEFFF02#21340000FFFFFFFF
(1746131841.619538) can0 1DEFFF02#4009E5986C070202
(1746131841.619539) can0 1DEFFF02#411B00FFFFFFFFFF
(1746131841.621901) can0 1DEFFF02#6009E5986C070202
(1746131841.623181) can0 1DEFFF02#611D00FFFFFFFFFF
(1746131841.729599) can0 09F11202#FF00740000FF7FFD
(1746131841.874283) can0 09F11202#FFCA720000FF7FFD
(1746131842.025926) can0 09F11202#FF9C710000FF7FFD
(1746131842.109699) can0 1DEFFF02#800CE5986C070202
(1746131842.109702) can0 1DEFFF02#81410089000000FF
(1746131842.111877) can0 1DEFFF02#A00CE5986C070202
(1746131842.111877) can0 1DEFFF02#A1430000000000FF
(1746131842.113909) can0 1DEFFF02#C009E5986C070202
(1746131842.113910) can0 1DEFFF02#C1280000FFFFFFFF
(1746131842.116181) can0 1DEFFF02#E009E5986C070202
(1746131842.116182) can0 1DEFFF02#E1340000FFFFFFFF
(1746131842.119592) can0 1DEFFF02#0009E5986C070202
(1746131842.119593) can0 1DEFFF02#011B00FFFFFFFFFF
(1746131842.121864) can0 1DEFFF02#2009E5986C070202
(1746131842.122944) can0 1DEFFF02#211D00FFFFFFFFFF
(1746131842.176735) can0 09F11202#FF35700000FF7FFD
(1746131842.320814) can0 09F11202#FF016F0000FF7FFD
(1746131842.472822) can0 09F11202#FFA96D0000FF7FFD
(1746131842.472823) can0 1DEFFF02#400AE598EE040404
(1746131842.474830) can0 1DEFFF02#4103000000FFFFFF
(1746131842.610109) can0 1DEFFF02#600CE5986C070202
(1746131842.610111) can0 1DEFFF02#61410089000000FF
(1746131842.611931) can0 1DEFFF02#800CE5986C070202
(1746131842.612927) can0 1DEFFF02#81430000000000FF
(1746131842.612928) can0 1DEFFF02#A009E5986C070202
(1746131842.614794) can0 1DEFFF02#A1280000FFFFFFFF
(1746131842.615902) can0 1DEFFF02#C009E5986C070202
(1746131842.615903) can0 1DEFFF02#C1340000FFFFFFFF
(1746131842.619594) can0 1DEFFF02#E009E5986C070202
(1746131842.619595) can0 1DEFFF02#E11B00FFFFFFFFFF
(1746131842.622134) can0 1DEFFF02#0009E5986C070202
(1746131842.622135) can0 1DEFFF02#011D00FFFFFFFFFF
(1746131842.623864) can0 09F11202#FF486C0000FF7FFD
(1746131842.769630) can0 09F11202#FF156B0000FF7FFD
(1746131842.914885) can0 09F11202#FFE1690000FF7FFD
(1746131843.063168) can0 09F11202#FF99680000FF7FFD
(1746131843.109671) can0 1DEFFF02#200CE5986C070202
(1746131843.109673) can0 1DEFFF02#21410089000000FF
(1746131843.111825) can0 1DEFFF02#400CE5986C070202
(1746131843.112844) can0 1DEFFF02#41430000000000FF
(1746131843.114095) can0 1DEFFF02#6009E5986C070202
(1746131843.114095) can0 1DEFFF02#61280000FFFFFFFF
(1746131843.115820) can0 1DEFFF02#8009E5986C070202
(1746131843.115821) can0 1DEFFF02#81340000FFFFFFFF
(1746131843.119504) can0 1DEFFF02#A009E5986C070202
(1746131843.119505) can0 1DEFFF02#A11B00FFFFFFFFFF
(1746131843.121805) can0 1DEFFF02#C009E5986C070202
(1746131843.122875) can0 1DEFFF02#C11D00FFFFFFFFFF
(1746131843.216882) can0 09F11202#FF4A670000FF7FFD
(1746131843.367150) can0 09F11202#FFD6650000FF7FFD
(1746131843.520741) can0 09F11202#FF36640000FF7FFD
(1746131843.619796) can0 1DEFFF02#E00CE5986C070202
(1746131843.619797) can0 1DEFFF02#E1410089000000FF
(1746131843.621888) can0 1DEFFF02#000CE5986C070202
(1746131843.622984) can0 1DEFFF02#01430000000000FF
(1746131843.622985) can0 1DEFFF02#2009E5986C070202
(1746131843.624972) can0 1DEFFF02#21280000FFFFFFFF
(1746131843.624973) can0 1DEFFF02#4009E5986C070202
(1746131843.626973) can0 1DEFFF02#41340000FFFFFFFF
(1746131843.629644) can0 1DEFFF02#6009E5986C070202
(1746131843.629645) can0 1DEFFF02#611B00FFFFFFFFFF
(1746131843.632216) can0 1DEFFF02#8009E5986C070202
(1746131843.632217) can0 1DEFFF02#811D00FFFFFFFFFF
(1746131843.666960) can0 09F11202#FFFD620000FF7FFD
(1746131843.812984) can0 09F11202#FFBD610000FF7FFD
(1746131843.960878) can0 09F11202#FF36600000FF7FFD
(1746131843.961954) can0 1DEFFF02#A00AE598EE040404
(1746131843.961956) can0 1DEFFF02#A103000000FFFFFF
(1746131844.105864) can0 09F11202#FF6F5E0000FF7FFD
(1746131844.119725) can0 1DEFFF02#C00CE5986C070202
(1746131844.119727) can0 1DEFFF02#C1410089000000FF
(1746131844.121860) can0 1DEFFF02#E00CE5986C070202
(1746131844.121861) can0 1DEFFF02#E1430000000000FF
(1746131844.124174) can0 1DEFFF02#0009E5986C070202
(1746131844.124176) can0 1DEFFF02#01280000FFFFFFFF
(1746131844.125866) can0 1DEFFF02#2009E5986C070202
(1746131844.126881) can0 1DEFFF02#21340000FFFFFFFF
(1746131844.129535) can0 1DEFFF02#4009E5986C070202
(1746131844.129536) can0 1DEFFF02#411B00FFFFFFFFFF
(1746131844.131843) can0 1DEFFF02#6009E5986C070202
(1746131844.132862) can0 1DEFFF02#611D00FFFFFFFFFF
(1746131844.256968) can0 09F11202#FFDD5C0000FF7FFD
(1746131844.399886) can0 09F11202#FFBA5A0000FF7FFD
(1746131844.550964) can0 09F11202#FFDD560000FF7FFD
(1746131844.619718) can0 1DEFFF02#800CE5986C070202
(1746131844.619720) can0 1DEFFF02#81410089000000FF
(1746131844.621897) can0 1DEFFF02#A00CE5986C070202
(1746131844.621899) can0 1DEFFF02#A1430000000000FF
(1746131844.623889) can0 1DEFFF02#C009E5986C070202
(1746131844.623890) can0 1DEFFF02#C1280000FFFFFFFF
(1746131844.625863) can0 1DEFFF02#E009E5986C070202
(1746131844.626879) can0 1DEFFF02#E1340000FFFFFFFF
(1746131844.629566) can0 1DEFFF02#0009E5986C070202
(1746131844.629567) can0 1DEFFF02#011B00FFFFFFFFFF
(1746131844.631869) can0 1DEFFF02#2009E5986C070202
(1746131844.632879) can0 1DEFFF02#211D00FFFFFFFFFF
(1746131844.694970) can0 09F11202#FF1A540000FF7FFD
(1746131844.845116) can0 09F11202#FFC3520000FF7FFD
(1746131845.002931) can0 09F11202#FFE9500000FF7FFD
(1746131845.119742) can0 1DEFFF02#400CE5986C070202
(1746131845.119744) can0 1DEFFF02#41410089000000FF
(1746131845.122178) can0 1DEFFF02#600CE5986C070202
(1746131845.122179) can0 1DEFFF02#61430000000000FF
(1746131845.123904) can0 1DEFFF02#8009E5986C070202
(1746131845.123904) can0 1DEFFF02#81280000FFFFFFFF
(1746131845.125883) can0 1DEFFF02#A009E5986C070202
(1746131845.125884) can0 1DEFFF02#A1340000FFFFFFFF
(1746131845.129531) can0 1DEFFF02#C009E5986C070202
(1746131845.129532) can0 1DEFFF02#C11B00FFFFFFFFFF
(1746131845.131879) can0 1DEFFF02#E009E5986C070202
(1746131845.132877) can0 1DEFFF02#E11D00FFFFFFFFFF
(1746131845.144909) can0 09F11202#FF984F0000FF7FFD
(1746131845.296315) can0 09F11202#FF344D0000FF7FFD
(1746131845.446029) can0 09F11202#FF0F4B0000FF7FFD
(1746131845.446030) can0 1DEFFF02#000AE598EE040404
(1746131845.449713) can0 1DEFFF02#0103000000FFFFFF
(1746131845.590816) can0 09F11202#FFC3490000FF7FFD
(1746131845.619745) can0 1DEFFF02#200CE5986C070202
(1746131845.619746) can0 1DEFFF02#21410089000000FF
(1746131845.622000) can0 1DEFFF02#400CE5986C070202
(1746131845.622952) can0 1DEFFF02#41430000000000FF
(1746131845.622953) can0 1DEFFF02#6009E5986C070202
(1746131845.624967) can0 1DEFFF02#61280000FFFFFFFF
(1746131845.624968) can0 1DEFFF02#8009E5986C070202
(1746131845.626776) can0 1DEFFF02#81340000FFFFFFFF
(1746131845.629856) can0 1DEFFF02#A009E5986C070202
(1746131845.629856) can0 1DEFFF02#A11B00FFFFFFFFFF
(1746131845.631879) can0 1DEFFF02#C009E5986C070202
(1746131845.632897) can0 1DEFFF02#C11D00FFFFFFFFFF
(1746131845.734299) can0 09F11202#FFF1480000FF7FFD
(1746131845.881923) can0 09F11202#FFA7470000FF7FFD
(1746131846.035280) can0 09F11202#FF6A460000FF7FFD
(1746131846.129760) can0 1DEFFF02#E00CE5986C070202
(1746131846.129762) can0 1DEFFF02#E1410089000000FF
(1746131846.131926) can0 1DEFFF02#000CE5986C070202
(1746131846.133239) can0 1DEFFF02#01430000000000FF
(1746131846.133240) can0 1DEFFF02#2009E5986C070202
(1746131846.134962) can0 1DEFFF02#21280000FFFFFFFF
(1746131846.134963) can0 1DEFFF02#4009E5986C070202
(1746131846.136922) can0 1DEFFF02#41340000FFFFFFFF
(1746131846.139566) can0 1DEFFF02#6009E5986C070202
(1746131846.139567) can0 1DEFFF02#611B00FFFFFFFFFF
(1746131846.141922) can0 1DEFFF02#8009E5986C070202
(1746131846.141923) can0 1DEFFF02#811D00FFFFFFFFFF
(1746131846.179044) can0 09F11202#FF0F450000FF7FFD
(1746131846.333019) can0 09F11202#FF72430000FF7FFD
(1746131846.480599) can0 09F11202#FFF8410000FF7FFD
(1746131846.629771) can0 09F11202#FF96400000FF7FFD
(1746131846.629772) can0 1DEFFF02#A00CE5986C070202
(1746131846.631918) can0 1DEFFF02#A1410089000000FF
(1746131846.631920) can0 1DEFFF02#C00CE5986C070202
(1746131846.633943) can0 1DEFFF02#C1430000000000FF
(1746131846.633945) can0 1DEFFF02#E009E5986C070202
(1746131846.635912) can0 1DEFFF02#E1280000FFFFFFFF
(1746131846.635913) can0 1DEFFF02#0009E5986C070202
(1746131846.639933) can0 1DEFFF02#01340000FFFFFFFF
(1746131846.639935) can0 1DEFFF02#2009E5986C070202
(1746131846.641965) can0 1DEFFF02#211B00FFFFFFFFFF
(1746131846.641965) can0 1DEFFF02#4009E5986C070202
(1746131846.643793) can0 1DEFFF02#411D00FFFFFFFFFF
(1746131846.783042) can0 09F11202#FF753F0000FF7FFD
(1746131846.925056) can0 09F11202#FF533E0000FF7FFD
(1746131846.925058) can0 1DEFFF02#600AE598EE040404
(1746131846.927785) can0 1DEFFF02#6103000000FFFFFF
(1746131847.075963) can0 09F11202#FF273D0000FF7FFD
(1746131847.129776) can0 1DEFFF02#800CE5986C070202
(1746131847.129777) can0 1DEFFF02#81410089000000FF
(1746131847.131965) can0 1DEFFF02#A00CE5986C070202
(1746131847.131966) can0 1DEFFF02#A1430000000000FF
(1746131847.134025) can0 1DEFFF02#C009E5986C070202
(1746131847.134025) can0 1DEFFF02#C1280000FFFFFFFF
(1746131847.135966) can0 1DEFFF02#E009E5986C070202
(1746131847.136931) can0 1DEFFF02#E1340000FFFFFFFF
(1746131847.139697) can0 1DEFFF02#0009E5986C070202
(1746131847.139698) can0 1DEFFF02#011B00FFFFFFFFFF
(1746131847.142028) can0 1DEFFF02#2009E5986C070202
(1746131847.143339) can0 1DEFFF02#211D00FFFFFFFFFF
(1746131847.220870) can0 09F11202#FF213C0000FF7FFD
(1746131847.367067) can0 09F11202#FFCA3A0000FF7FFD
(1746131847.515372) can0 09F11202#FF42390000FF7FFD
(1746131847.629867) can0 1DEFFF02#400CE5986C070202
(1746131847.629868) can0 1DEFFF02#41410089000000FF
(1746131847.631982) can0 1DEFFF02#600CE5986C070202
(1746131847.632988) can0 1DEFFF02#61430000000000FF
(1746131847.632990) can0 1DEFFF02#8009E5986C070202
(1746131847.634903) can0 1DEFFF02#81280000FFFFFFFF
(1746131847.636302) can0 1DEFFF02#A009E5986C070202
(1746131847.636302) can0 1DEFFF02#A1340000FFFFFFFF
(1746131847.639742) can0 1DEFFF02#C009E5986C070202
(1746131847.639743) can0 1DEFFF02#C11B00FFFFFFFFFF
(1746131847.642042) can0 1DEFFF02#E009E5986C070202
(1746131847.643049) can0 1DEFFF02#E11D00FFFFFFFFFF
(1746131847.660896) can0 09F11202#FF67380000FF7FFD
(1746131847.815074) can0 09F11202#FFC0370000FF7FFD
(1746131847.963019) can0 09F11202#FFBA350000FF7FFD
(1746131848.113025) can0 09F11202#FF57340000FF7FFD
(1746131848.130039) can0 1DEFFF02#000CE5986C070202
(1746131848.130040) can0 1DEFFF02#01410089000000FF
(1746131848.131953) can0 1DEFFF02#200CE5986C070202
(1746131848.132972) can0 1DEFFF02#21430000000000FF
(1746131848.132973) can0 1DEFFF02#4009E5986C070202
(1746131848.134973) can0 1DEFFF02#41280000FFFFFFFF
(1746131848.134974) can0 1DEFFF02#6009E5986C070202
(1746131848.136973) can0 1DEFFF02#61340000FFFFFFFF
(1746131848.139014) can0 1DEFFF02#8009E5986C070202
(1746131848.139014) can0 1DEFFF02#811B00FFFFFFFFFF
(1746131848.141229) can0 1DEFFF02#A009E5986C070202
(1746131848.141230) can0 1DEFFF02#A11D00FFFFFFFFFF
(1746131848.256376) can0 09F11202#FF0E340000FF7FFD
(1746131848.406246) can0 09F11202#FFB3310000FF7FFD
(1746131848.406247) can0 1DEFFF02#C00AE598EE040404
(1746131848.409790) can0 1DEFFF02#C103000000FFFFFF
(1746131848.555977) can0 09F11202#FF5B310000FF7FFD
(1746131848.629843) can0 1DEFFF02#E00CE5986C070202
(1746131848.629845) can0 1DEFFF02#E1410089000000FF
(1746131848.632000) can0 1DEFFF02#000CE5986C070202
(1746131848.632991) can0 1DEFFF02#01430000000000FF
(1746131848.634220) can0 1DEFFF02#2009E5986C070202
(1746131848.634221) can0 1DEFFF02#21280000FFFFFFFF
(1746131848.635969) can0 1DEFFF02#4009E5986C070202
(1746131848.636989) can0 1DEFFF02#41340000FFFFFFFF
(1746131848.639013) can0 1DEFFF02#6009E5986C070202
(1746131848.639014) can0 1DEFFF02#611B00FFFFFFFFFF
(1746131848.640971) can0 1DEFFF02#8009E5986C070202
(1746131848.641994) can0 1DEFFF02#811D00FFFFFFFFFF
(1746131848.700686) can0 09F11202#FFC22F0000FF7FFD
(1746131848.853785) can0 09F11202#FFB32D0000FF7FFD
(1746131849.000965) can0 09F11202#FFE92F0000FF7FFD
(1746131849.129925) can0 1DEFFF02#A00CE5986C070202
(1746131849.129926) can0 1DEFFF02#A1410089000000FF
(1746131849.132020) can0 1DEFFF02#C00CE5986C070202
(1746131849.133069) can0 1DEFFF02#C1430000000000FF
(1746131849.133070) can0 1DEFFF02#E009E5986C070202
(1746131849.135088) can0 1DEFFF02#E1280000FFFFFFFF
(1746131849.135089) can0 1DEFFF02#0009E5986C070202
(1746131849.137073) can0 1DEFFF02#01340000FFFFFFFF
(1746131849.139704) can0 1DEFFF02#2009E5986C070202
(1746131849.139705) can0 1DEFFF02#211B00FFFFFFFFFF
(1746131849.142104) can0 1DEFFF02#4009E5986C070202
(1746131849.142105) can0 1DEFFF02#411D00FFFFFFFFFF
(1746131849.145096) can0 09F11202#FFBD2D0000FF7FFD
