(15.899916) can0 09F80143#081EAE1CCA4DDD06
(15.960798) can0 09F80143#081EAE1CCA4DDD06
(16.083639) can0 09F80143#081EAE1CCA4DDD06
(16.199855) can0 09F80143#081EAE1CCA4DDD06
(16.264107) can0 0DF01043#04F08F227021031B
(16.264793) can0 09F80243#04FC0B2F0000FFFF
(16.265442) can0 09F80143#081EAE1CCA4DDD06
(16.322644) can0 09F80143#081EAE1CCA4DDD06
(16.383579) can0 09F80243#FFFCA15B1C02FFFF
(16.442398) can0 09F80143#081EAE1CCA4DDD06
(16.501500) can0 0DF01043#05F0564C203C782B
(16.502337) can0 0DF80943#564C203C782BFF7F
(16.565104) can0 09F80143#081EAE1CCA4DDD06
(16.624039) can0 09F11243#FF21540000E3FDFD
(16.682862) can0 09F80143#081EAE1CCA4DDD06
(16.739961) can0 09F11243#FF21540000E3FDFC
(16.800846) can0 09F80143#081EAE1CCA4DDD06
(16.859411) can0 09F11243#FF21540000E3FDFD
(16.919002) can0 09F80143#081EAE1CCA4DDD06
(16.978427) can0 09F11343#FFE75A0000FFFFFF
(17.059615) can0 09F80143#081EAE1CCA4DDD06
(17.116689) can0 09FD0243#FFFC03AE1EF8FFFF
(17.117414) can0 09FD0243#FFFC03AE0FF9FFFF
(17.182575) can0 09F80143#081EAE1CCA4DDD06
(17.239897) can0 09FD0243#FF0D02AE1EFAFFFF
(17.299429) can0 09F80143#081EAE1CCA4DDD06
(17.357766) can0 15FD0A43#FF000008750F00FF
(17.358667) can0 15FD0743#FF404B73204EF503
(17.359324) can0 15FD0743#FF417774204EF503
(17.417227) can0 09F80143#081EAE1CCA4DDD06
(17.473429) can0 15FD0743#FF407D73204EF503
(17.474266) can0 15FD0743#FF417774204EF503
(17.543964) can0 09F80143#081EAE1CCA4DDD06
(17.669793) can0 09F80143#081EAE1CCA4DDD06
(17.731385) can0 0DF50B43#FFEA0B0000FF7FFF
(17.791084) can0 09F80143#081EAE1CCA4DDD06
(17.910410) can0 09F80143#081EAE1CCA4DDD06
(17.967305) can0 0DF50B43#FFEA0B00009001FF
(18.027809) can0 09F80143#081EAE1CCA4DDD06
(19.119005) can0 09F50343#FF1B01FFFF00F0FF
(19.181246) can0 09F80143#081EAE1CCA4DDD06
(19.300219) can0 09F80143#081EAE1CCA4DDD06
(19.443463) can0 09F80143#081EAE1CCA4DDD06
(19.503135) can0 0DF90343#FF30A8B7FFFFFFFF
(19.561687) can0 09F80143#081EAE1CCA4DDD06
(19.622561) can0 0DF90343#FF3078DD0100FFFF
(19.623318) can0 19F90543#4034000002000000
(19.624059) can0 19F90543#410000E709012852
(19.624773) can0 19F90543#426F75746529FF00
(19.625494) can0 19F90543#4300060144455354
(19.626231) can0 19F90543#44FFFFFF7FFFFFFF
(19.626952) can0 19F90543#457F010007015354
(19.627653) can0 19F90543#46415254081EAE1C
(19.628255) can0 19F90543#47CA4DDD06
(19.628952) can0 0DF90443#6022FFB869010054
(19.629681) can0 0DF90443#61FFFFFFFFFFFFFF
(19.630382) can0 0DF90443#62FF70F500000000
(19.631084) can0 0DF90443#6301000000081EAE
(19.631757) can0 0DF90443#641CCA4DDD061A00
(19.632438) can0 0DF90443#8022FFB869010055
(19.633136) can0 0DF90443#81FFFFFFFFFFFFFF
(19.633829) can0 0DF90443#82FF1D0200000000
(19.634506) can0 0DF90443#8301000000081EAE
(19.635168) can0 0DF90443#841CCA4DDD061A00
(19.678876) can0 09F80143#081EAE1CCA4DDD06
(19.795641) can0 09F80143#081EAE1CCA4DDD06
(19.914389) can0 09F80143#081EAE1CCA4DDD06
(20.040169) can0 09F80143#081EAE1CCA4DDD06
(20.167578) can0 09F80143#081EAE1CCA4DDD06
(20.227341) can0 09F10D43#01F8FF7F3A0AFFFF
(20.228109) can0 09F10D43#00F8FF7FC6F5FFFF
(20.287713) can0 09F80143#081EAE1CCA4DDD06
(20.344465) can0 11F80E43#401C01DCCB950EED
(20.345042) can0 11F80E43#4120DF0BAE05891E
(20.345628) can0 11F80E43#42C1784B00000000
(20.346222) can0 11F80E43#4300FFFF0000C0F8
(20.346596) can0 11F80E43#44FF
(20.402595) can0 09F80143#081EAE1CCA4DDD06
(20.522364) can0 09F80143#081EAE1CCA4DDD06
(20.639842) can0 09F80143#081EAE1CCA4DDD06
(20.759392) can0 09F80143#081EAE1CCA4DDD06
(23.096772) can0 1DFC1A43#001E000001000100
(23.097461) can0 1DFC1A43#015B3FFFFF00000A
(23.098135) can0 1DFC1A43#0201574159504F49
(23.098788) can0 1DFC1A43#034E54081EAE1CCA
(23.099310) can0 1DFC1A43#044DDD06
