;$FILEVERSION=2.0
;$STARTTIME=45781.6178571528
;$COLUMNS=N,O,T,I,d,l,D
;
;   Start time: 5/4/2025 14:49:42.858.0
;   Generated by PCAN-View v5.3.2.952
;   Message   Time    Type ID     Rx/Tx
;   Number    Offset  |    [hex]  |  Data Length
;   |         [ms]    |    |      |  |  Data [hex] ...
;   |         |       |    |      |  |  |
;---+-- ------+------ +- --+----- +- +- +- +- -- -- -- -- -- -- --
      1     15899.916 DT 09F80143 Rx 8  08 1E AE 1C CA 4D DD 06 
      2     15960.798 DT 09F80143 Rx 8  08 1E AE 1C CA 4D DD 06 
      3     16083.639 DT 09F80143 Rx 8  08 1E AE 1C CA 4D DD 06 
      4     16199.855 DT 09F80143 Rx 8  08 1E AE 1C CA 4D DD 06 
      5     16264.107 DT 0DF01043 Rx 8  04 F0 8F 22 70 21 03 1B 
      6     16264.793 DT 09F80243 Rx 8  04 FC 0B 2F 00 00 FF FF 
      7     16265.442 DT 09F80143 Rx 8  08 1E AE 1C CA 4D DD 06 
      8     16322.644 DT 09F80143 Rx 8  08 1E AE 1C CA 4D DD 06 
      9     16383.579 DT 09F80243 Rx 8  FF FC A1 5B 1C 02 FF FF 
     10     16442.398 DT 09F80143 Rx 8  08 1E AE 1C CA 4D DD 06 
     11     16501.500 DT 0DF01043 Rx 8  05 F0 56 4C 20 3C 78 2B 
     12     16502.337 DT 0DF80943 Rx 8  56 4C 20 3C 78 2B FF 7F 
     13     16565.104 DT 09F80143 Rx 8  08 1E AE 1C CA 4D DD 06 
     14     16624.039 DT 09F11243 Rx 8  FF 21 54 00 00 E3 FD FD 
     15     16682.862 DT 09F80143 Rx 8  08 1E AE 1C CA 4D DD 06 
     16     16739.961 DT 09F11243 Rx 8  FF 21 54 00 00 E3 FD FC 
     17     16800.846 DT 09F80143 Rx 8  08 1E AE 1C CA 4D DD 06 
     18     16859.411 DT 09F11243 Rx 8  FF 21 54 00 00 E3 FD FD 
     19     16919.002 DT 09F80143 Rx 8  08 1E AE 1C CA 4D DD 06 
     20     16978.427 DT 09F11343 Rx 8  FF E7 5A 00 00 FF FF FF 
     21     17059.615 DT 09F80143 Rx 8  08 1E AE 1C CA 4D DD 06 
     22     17116.689 DT 09FD0243 Rx 8  FF FC 03 AE 1E F8 FF FF 
     23     17117.414 DT 09FD0243 Rx 8  FF FC 03 AE 0F F9 FF FF 
     24     17182.575 DT 09F80143 Rx 8  08 1E AE 1C CA 4D DD 06 
     25     17239.897 DT 09FD0243 Rx 8  FF 0D 02 AE 1E FA FF FF 
     26     17299.429 DT 09F80143 Rx 8  08 1E AE 1C CA 4D DD 06 
     27     17357.766 DT 15FD0A43 Rx 8  FF 00 00 08 75 0F 00 FF 
     28     17358.667 DT 15FD0743 Rx 8  FF 40 4B 73 20 4E F5 03 
     29     17359.324 DT 15FD0743 Rx 8  FF 41 77 74 20 4E F5 03 
     30     17417.227 DT 09F80143 Rx 8  08 1E AE 1C CA 4D DD 06 
     31     17473.429 DT 15FD0743 Rx 8  FF 40 7D 73 20 4E F5 03 
     32     17474.266 DT 15FD0743 Rx 8  FF 41 77 74 20 4E F5 03 
     33     17543.964 DT 09F80143 Rx 8  08 1E AE 1C CA 4D DD 06 
     34     17669.793 DT 09F80143 Rx 8  08 1E AE 1C CA 4D DD 06 
     35     17731.385 DT 0DF50B43 Rx 8  FF EA 0B 00 00 FF 7F FF 
     36     17791.084 DT 09F80143 Rx 8  08 1E AE 1C CA 4D DD 06 
     37     17910.410 DT 09F80143 Rx 8  08 1E AE 1C CA 4D DD 06 
     38     17967.305 DT 0DF50B43 Rx 8  FF EA 0B 00 00 90 01 FF 
     39     18027.809 DT 09F80143 Rx 8  08 1E AE 1C CA 4D DD 06 
     40     19119.005 DT 09F50343 Rx 8  FF 1B 01 FF FF 00 F0 FF 
     41     19181.246 DT 09F80143 Rx 8  08 1E AE 1C CA 4D DD 06 
     42     19300.219 DT 09F80143 Rx 8  08 1E AE 1C CA 4D DD 06 
     43     19443.463 DT 09F80143 Rx 8  08 1E AE 1C CA 4D DD 06 
     44     19503.135 DT 0DF90343 Rx 8  FF 30 A8 B7 FF FF FF FF 
     45     19561.687 DT 09F80143 Rx 8  08 1E AE 1C CA 4D DD 06 
     46     19622.561 DT 0DF90343 Rx 8  FF 30 78 DD 01 00 FF FF 
     47     19623.318 DT 19F90543 Rx 8  40 34 00 00 02 00 00 00 
     48     19624.059 DT 19F90543 Rx 8  41 00 00 E7 09 01 28 52 
     49     19624.773 DT 19F90543 Rx 8  42 6F 75 74 65 29 FF 00 
     50     19625.494 DT 19F90543 Rx 8  43 00 06 01 44 45 53 54 
     51     19626.231 DT 19F90543 Rx 8  44 FF FF FF 7F FF FF FF 
     52     19626.952 DT 19F90543 Rx 8  45 7F 01 00 07 01 53 54 
     53     19627.653 DT 19F90543 Rx 8  46 41 52 54 08 1E AE 1C 
     54     19628.255 DT 19F90543 Rx 5  47 CA 4D DD 06 
     55     19628.952 DT 0DF90443 Rx 8  60 22 FF B8 69 01 00 54 
     56     19629.681 DT 0DF90443 Rx 8  61 FF FF FF FF FF FF FF 
     57     19630.382 DT 0DF90443 Rx 8  62 FF 70 F5 00 00 00 00 
     58     19631.084 DT 0DF90443 Rx 8  63 01 00 00 00 08 1E AE 
     59     19631.757 DT 0DF90443 Rx 8  64 1C CA 4D DD 06 1A 00 
     60     19632.438 DT 0DF90443 Rx 8  80 22 FF B8 69 01 00 55 
     61     19633.136 DT 0DF90443 Rx 8  81 FF FF FF FF FF FF FF 
     62     19633.829 DT 0DF90443 Rx 8  82 FF 1D 02 00 00 00 00 
     63     19634.506 DT 0DF90443 Rx 8  83 01 00 00 00 08 1E AE 
     64     19635.168 DT 0DF90443 Rx 8  84 1C CA 4D DD 06 1A 00 
     65     19678.876 DT 09F80143 Rx 8  08 1E AE 1C CA 4D DD 06 
     66     19795.641 DT 09F80143 Rx 8  08 1E AE 1C CA 4D DD 06 
     67     19914.389 DT 09F80143 Rx 8  08 1E AE 1C CA 4D DD 06 
     68     20040.169 DT 09F80143 Rx 8  08 1E AE 1C CA 4D DD 06 
     69     20167.578 DT 09F80143 Rx 8  08 1E AE 1C CA 4D DD 06 
     70     20227.341 DT 09F10D43 Rx 8  01 F8 FF 7F 3A 0A FF FF 
     71     20228.109 DT 09F10D43 Rx 8  00 F8 FF 7F C6 F5 FF FF 
     72     20287.713 DT 09F80143 Rx 8  08 1E AE 1C CA 4D DD 06 
     73     20344.465 DT 11F80E43 Rx 8  40 1C 01 DC CB 95 0E ED 
     74     20345.042 DT 11F80E43 Rx 8  41 20 DF 0B AE 05 89 1E 
     75     20345.628 DT 11F80E43 Rx 8  42 C1 78 4B 00 00 00 00 
     76     20346.222 DT 11F80E43 Rx 8  43 00 FF FF 00 00 C0 F8 
     77     20346.596 DT 11F80E43 Rx 2  44 FF 
     78     20402.595 DT 09F80143 Rx 8  08 1E AE 1C CA 4D DD 06 
     79     20522.364 DT 09F80143 Rx 8  08 1E AE 1C CA 4D DD 06 
     80     20639.842 DT 09F80143 Rx 8  08 1E AE 1C CA 4D DD 06 
     81     20759.392 DT 09F80143 Rx 8  08 1E AE 1C CA 4D DD 06 
     82     23096.772 DT 1DFC1A43 Rx 8  00 1E 00 00 01 00 01 00 
     83     23097.461 DT 1DFC1A43 Rx 8  01 5B 3F FF FF 00 00 0A 
     84     23098.135 DT 1DFC1A43 Rx 8  02 01 57 41 59 50 4F 49 
     85     23098.788 DT 1DFC1A43 Rx 8  03 4E 54 08 1E AE 1C CA 
     86     23099.310 DT 1DFC1A43 Rx 4  04 4D DD 06 
